;$FILEVERSION=1.1
;$STARTTIME=44404.6285738194
;
;   Start time: 27/07/2021 15:05:08.778.0
;   Generated by PCAN-View v4.3.4.615
;
;   Message Number
;   |         Time Offset (ms)
;   |         |        Type
;   |         |        |        ID (hex)
;   |         |        |        |     Data Length
;   |         |        |        |     |   Data Bytes (hex) ...
;   |         |        |        |     |   |
;---+--   ----+----  --+--  ----+---  +  -+ -- -- -- -- -- -- --
     1)      2205.1  Rx     05FF3005  1  00 
     2)      2236.3  Rx     05112000  4  89 45 02 00 
     3)      2267.2  Rx     05FF3005  1  00 
     4)      2298.3  Rx     05112000  4  89 45 02 00 
     5)      2329.1  Rx     05FF3005  1  00 
     6)      2360.2  Rx     05112000  4  89 45 02 00 
     7)      2360.6  Rx     022A2000  3  89 45 82 
     8)      2391.1  Rx     05FF3005  1  00 
     9)      2422.2  Rx     05142001  3  01 22 02 
    10)      2422.5  Rx     022A2001  0  
    11)      2423.2  Rx     05150000  8  00 00 00 00 00 00 00 00 
    12)      2423.5  Rx     022A0000  0  
    13)      2424.2  Rx     05150001  8  00 00 00 00 00 00 00 00 
    14)      2424.5  Rx     022A0001  0  
    15)      2425.1  Rx     05150002  8  00 30 00 20 D1 6E 01 00 
    16)      2425.4  Rx     022A0002  0  
    17)      2426.0  Rx     05150003  8  75 6F 01 00 77 6F 01 00 
    18)      2426.3  Rx     022A0003  0  
    19)      2426.9  Rx     05150004  8  7F 6F 01 00 87 6F 01 00 
    20)      2427.2  Rx     022A0004  0  
    21)      2427.8  Rx     05150005  8  8F 6F 01 00 00 00 00 00 
    22)      2428.1  Rx     022A0005  0  
    23)      2428.8  Rx     05150006  8  00 00 00 00 00 00 00 00 
    24)      2429.0  Rx     022A0006  0  
    25)      2429.7  Rx     05150007  8  00 00 00 00 97 6F 01 00 
    26)      2430.0  Rx     022A0007  0  
    27)      2430.6  Rx     05150008  8  99 6F 01 00 00 00 00 00 
    28)      2430.9  Rx     022A0008  0  
    29)      2431.5  Rx     05150009  8  9B 6F 01 00 CB 64 01 00 
    30)      2431.8  Rx     022A0009  0  
    31)      2432.4  Rx     0515000A  8  ED 71 01 00 ED 71 01 00 
    32)      2432.7  Rx     022A000A  0  
    33)      2433.3  Rx     0515000B  8  ED 71 01 00 ED 71 01 00 
    34)      2433.6  Rx     022A000B  0  
    35)      2434.2  Rx     0515000C  8  ED 71 01 00 ED 71 01 00 
    36)      2434.5  Rx     022A000C  0  
    37)      2435.1  Rx     0515000D  8  ED 71 01 00 ED 71 01 00 
    38)      2435.4  Rx     022A000D  0  
    39)      2436.0  Rx     0515000E  8  ED 71 01 00 ED 71 01 00 
    40)      2436.3  Rx     022A000E  0  
    41)      2436.9  Rx     0515000F  8  ED 71 01 00 ED 71 01 00 
    42)      2437.2  Rx     022A000F  0  
    43)      2437.8  Rx     05150010  8  ED 71 01 00 ED 71 01 00 
    44)      2438.1  Rx     022A0010  0  
    45)      2438.8  Rx     05150011  8  ED 71 01 00 ED 71 01 00 
    46)      2439.0  Rx     022A0011  0  
    47)      2439.6  Rx     05150012  8  ED 71 01 00 ED 71 01 00 
    48)      2439.9  Rx     022A0012  0  
    49)      2440.5  Rx     05150013  8  ED 71 01 00 ED 71 01 00 
    50)      2440.8  Rx     022A0013  0  
    51)      2441.4  Rx     05150014  8  ED 71 01 00 ED 71 01 00 
    52)      2441.7  Rx     022A0014  0  
    53)      2442.3  Rx     05150015  8  ED 71 01 00 ED 71 01 00 
    54)      2442.6  Rx     022A0015  0  
    55)      2443.2  Rx     05150016  8  ED 71 01 00 ED 71 01 00 
    56)      2443.5  Rx     022A0016  0  
    57)      2444.1  Rx     05150017  8  ED 71 01 00 ED 71 01 00 
    58)      2444.4  Rx     022A0017  0  
    59)      2445.1  Rx     05150018  8  ED 71 01 00 ED 71 01 00 
    60)      2445.3  Rx     022A0018  0  
    61)      2446.0  Rx     05150019  8  ED 71 01 00 ED 71 01 00 
    62)      2446.2  Rx     022A0019  0  
    63)      2446.8  Rx     0515001A  8  ED 71 01 00 ED 71 01 00 
    64)      2447.1  Rx     022A001A  0  
    65)      2447.8  Rx     0515001B  8  ED 71 01 00 ED 71 01 00 
    66)      2448.1  Rx     022A001B  0  
    67)      2448.7  Rx     0515001C  8  ED 71 01 00 ED 71 01 00 
    68)      2449.0  Rx     022A001C  0  
    69)      2449.5  Rx     0515001D  8  ED 71 01 00 69 69 01 00 
    70)      2449.8  Rx     022A001D  0  
    71)      2450.4  Rx     0515001E  8  ED 71 01 00 ED 71 01 00 
    72)      2450.7  Rx     022A001E  0  
    73)      2451.3  Rx     0515001F  8  ED 71 01 00 ED 71 01 00 
    74)      2451.6  Rx     022A001F  0  
    75)      2452.2  Rx     05150020  8  F1 71 01 00 ED 71 01 00 
    76)      2452.5  Rx     022A0020  0  
    77)      2453.1  Rx     05150021  8  ED 71 01 00 ED 71 01 00 
    78)      2453.4  Rx     022A0021  0  
    79)      2454.0  Rx     05150022  8  ED 71 01 00 ED 71 01 00 
    80)      2454.3  Rx     022A0022  0  
    81)      2454.9  Rx     05150023  8  ED 71 01 00 ED 71 01 00 
    82)      2455.2  Rx     022A0023  0  
    83)      2455.8  Rx     05150024  8  99 25 01 00 ED 71 01 00 
    84)      2456.1  Rx     022A0024  0  
    85)      2456.7  Rx     05150025  8  ED 71 01 00 ED 71 01 00 
    86)      2457.0  Rx     022A0025  0  
    87)      2457.6  Rx     05150026  8  ED 71 01 00 ED 71 01 00 
    88)      2457.9  Rx     022A0026  0  
    89)      2458.5  Rx     05150027  8  ED 71 01 00 ED 71 01 00 
    90)      2458.8  Rx     022A0027  0  
    91)      2459.4  Rx     05150028  8  ED 71 01 00 ED 71 01 00 
    92)      2459.7  Rx     022A0028  0  
    93)      2460.3  Rx     05150029  8  ED 71 01 00 ED 71 01 00 
    94)      2460.6  Rx     022A0029  0  
    95)      2461.2  Rx     0515002A  8  ED 71 01 00 ED 71 01 00 
    96)      2461.5  Rx     022A002A  0  
    97)      2462.1  Rx     0515002B  8  ED 71 01 00 ED 71 01 00 
    98)      2462.4  Rx     022A002B  0  
    99)      2463.1  Rx     0515002C  8  D9 25 01 00 ED 71 01 00 
   100)      2463.3  Rx     022A002C  0  
   101)      2464.0  Rx     0515002D  8  ED 71 01 00 ED 71 01 00 
   102)      2464.3  Rx     022A002D  0  
   103)      2464.9  Rx     0515002E  8  ED 71 01 00 ED 71 01 00 
   104)      2465.1  Rx     022A002E  0  
   105)      2465.8  Rx     0515002F  8  ED 71 01 00 ED 71 01 00 
   106)      2466.0  Rx     022A002F  0  
   107)      2466.7  Rx     05150030  8  ED 71 01 00 ED 71 01 00 
   108)      2467.0  Rx     022A0030  0  
   109)      2467.6  Rx     05150031  8  ED 71 01 00 ED 71 01 00 
   110)      2467.8  Rx     022A0031  0  
   111)      2468.4  Rx     05150032  8  ED 71 01 00 25 26 01 00 
   112)      2468.7  Rx     022A0032  0  
   113)      2469.3  Rx     05150033  8  35 26 01 00 ED 71 01 00 
   114)      2469.6  Rx     022A0033  0  
   115)      2470.2  Rx     05150034  8  ED 71 01 00 ED 71 01 00 
   116)      2470.5  Rx     022A0034  0  
   117)      2471.1  Rx     05150035  8  ED 71 01 00 ED 71 01 00 
   118)      2471.4  Rx     022A0035  0  
   119)      2472.0  Rx     05150036  8  ED 71 01 00 ED 71 01 00 
   120)      2472.3  Rx     022A0036  0  
   121)      2472.9  Rx     05150037  8  ED 71 01 00 ED 71 01 00 
   122)      2473.2  Rx     022A0037  0  
   123)      2473.8  Rx     05150038  8  ED 71 01 00 ED 71 01 00 
   124)      2474.1  Rx     022A0038  0  
   125)      2474.8  Rx     05150039  8  ED 71 01 00 ED 71 01 00 
   126)      2475.0  Rx     022A0039  0  
   127)      2475.7  Rx     0515003A  8  ED 71 01 00 ED 71 01 00 
   128)      2475.9  Rx     022A003A  0  
   129)      2476.6  Rx     0515003B  8  ED 71 01 00 ED 71 01 00 
   130)      2476.8  Rx     022A003B  0  
   131)      2477.5  Rx     0515003C  8  ED 71 01 00 ED 71 01 00 
   132)      2477.7  Rx     022A003C  0  
   133)      2478.3  Rx     0515003D  8  ED 71 01 00 ED 71 01 00 
   134)      2478.6  Rx     022A003D  0  
   135)      2479.2  Rx     0515003E  8  39 25 01 00 ED 71 01 00 
   136)      2479.5  Rx     022A003E  0  
   137)      2480.1  Rx     0515003F  8  ED 71 01 00 ED 71 01 00 
   138)      2480.4  Rx     022A003F  0  
   139)      2481.0  Rx     05150040  8  ED 71 01 00 ED 71 01 00 
   140)      2481.3  Rx     022A0040  0  
   141)      2481.9  Rx     05150041  8  ED 71 01 00 71 25 01 00 
   142)      2482.2  Rx     022A0041  0  
   143)      2482.9  Rx     05150042  8  ED 71 01 00 ED 71 01 00 
   144)      2483.1  Rx     022A0042  0  
   145)      2483.7  Rx     05150043  8  ED 71 01 00 ED 71 01 00 
   146)      2484.0  Rx     022A0043  0  
   147)      2484.6  Rx     05150044  8  4F 25 01 00 ED 71 01 00 
   148)      2484.9  Rx     022A0044  0  
   149)      2485.5  Rx     05150045  8  ED 71 01 00 ED 71 01 00 
   150)      2485.8  Rx     022A0045  0  
   151)      2486.5  Rx     05150046  8  ED 71 01 00 ED 71 01 00 
   152)      2486.7  Rx     022A0046  0  
   153)      2487.4  Rx     05150047  8  ED 71 01 00 ED 71 01 00 
   154)      2487.6  Rx     022A0047  0  
   155)      2488.2  Rx     05150048  8  ED 71 01 00 ED 71 01 00 
   156)      2488.5  Rx     022A0048  0  
   157)      2489.1  Rx     05150049  8  ED 71 01 00 ED 71 01 00 
   158)      2489.4  Rx     022A0049  0  
   159)      2490.0  Rx     0515004A  8  ED 71 01 00 ED 71 01 00 
   160)      2490.3  Rx     022A004A  0  
   161)      2490.9  Rx     0515004B  8  ED 71 01 00 ED 71 01 00 
   162)      2491.2  Rx     022A004B  0  
   163)      2491.8  Rx     0515004C  8  ED 71 01 00 ED 71 01 00 
   164)      2492.1  Rx     022A004C  0  
   165)      2492.7  Rx     0515004D  8  ED 71 01 00 ED 71 01 00 
   166)      2493.0  Rx     022A004D  0  
   167)      2493.6  Rx     0515004E  8  ED 71 01 00 ED 71 01 00 
   168)      2493.9  Rx     022A004E  0  
   169)      2494.5  Rx     0515004F  8  ED 71 01 00 ED 71 01 00 
   170)      2494.8  Rx     022A004F  0  
   171)      2495.4  Rx     05150050  8  ED 71 01 00 ED 71 01 00 
   172)      2495.7  Rx     022A0050  0  
   173)      2496.3  Rx     05150051  8  ED 71 01 00 ED 71 01 00 
   174)      2496.6  Rx     022A0051  0  
   175)      2497.2  Rx     05150052  8  ED 71 01 00 ED 71 01 00 
   176)      2497.5  Rx     022A0052  0  
   177)      2498.1  Rx     05150053  8  ED 71 01 00 ED 71 01 00 
   178)      2498.4  Rx     022A0053  0  
   179)      2499.0  Rx     05150054  8  ED 71 01 00 ED 71 01 00 
   180)      2499.3  Rx     022A0054  0  
   181)      2499.9  Rx     05150055  8  ED 71 01 00 ED 71 01 00 
   182)      2500.1  Rx     022A0055  0  
   183)      2500.7  Rx     05150056  8  ED 71 01 00 ED 71 01 00 
   184)      2501.0  Rx     022A0056  0  
   185)      2501.6  Rx     05150057  8  ED 71 01 00 ED 71 01 00 
   186)      2501.9  Rx     022A0057  0  
   187)      2502.5  Rx     05150058  8  ED 71 01 00 ED 71 01 00 
   188)      2502.8  Rx     022A0058  0  
   189)      2503.5  Rx     05150059  8  ED 71 01 00 ED 71 01 00 
   190)      2503.7  Rx     022A0059  0  
   191)      2504.4  Rx     0515005A  8  ED 71 01 00 ED 71 01 00 
   192)      2504.7  Rx     022A005A  0  
   193)      2505.3  Rx     0515005B  8  ED 71 01 00 ED 71 01 00 
   194)      2505.5  Rx     022A005B  0  
   195)      2506.2  Rx     0515005C  8  ED 71 01 00 ED 71 01 00 
   196)      2506.5  Rx     022A005C  0  
   197)      2507.1  Rx     0515005D  8  ED 71 01 00 ED 71 01 00 
   198)      2507.4  Rx     022A005D  0  
   199)      2508.0  Rx     0515005E  8  ED 71 01 00 ED 71 01 00 
   200)      2508.3  Rx     022A005E  0  
   201)      2508.9  Rx     0515005F  8  ED 71 01 00 ED 71 01 00 
   202)      2509.2  Rx     022A005F  0  
   203)      2509.7  Rx     05150060  8  ED 71 01 00 ED 71 01 00 
   204)      2510.0  Rx     022A0060  0  
   205)      2510.6  Rx     05150061  8  ED 71 01 00 ED 71 01 00 
   206)      2510.9  Rx     022A0061  0  
   207)      2511.5  Rx     05150062  8  ED 71 01 00 ED 71 01 00 
   208)      2511.8  Rx     022A0062  0  
   209)      2512.4  Rx     05150063  8  ED 71 01 00 ED 71 01 00 
   210)      2512.7  Rx     022A0063  0  
   211)      2513.3  Rx     05150064  8  ED 71 01 00 ED 71 01 00 
   212)      2513.6  Rx     022A0064  0  
   213)      2514.2  Rx     05150065  8  ED 71 01 00 ED 71 01 00 
   214)      2514.5  Rx     022A0065  0  
   215)      2515.1  Rx     05150066  8  ED 71 01 00 ED 71 01 00 
   216)      2515.4  Rx     022A0066  0  
   217)      2516.0  Rx     05150067  8  ED 71 01 00 ED 71 01 00 
   218)      2516.3  Rx     022A0067  0  
   219)      2516.9  Rx     05150068  8  ED 71 01 00 ED 71 01 00 
   220)      2517.2  Rx     022A0068  0  
   221)      2517.9  Rx     05150069  8  ED 71 01 00 ED 71 01 00 
   222)      2518.1  Rx     022A0069  0  
   223)      2518.7  Rx     0515006A  8  ED 71 01 00 ED 71 01 00 
   224)      2519.0  Rx     022A006A  0  
   225)      2519.6  Rx     0515006B  8  ED 71 01 00 ED 71 01 00 
   226)      2519.9  Rx     022A006B  0  
   227)      2520.5  Rx     0515006C  8  ED 71 01 00 ED 71 01 00 
   228)      2520.8  Rx     022A006C  0  
   229)      2521.4  Rx     0515006D  8  ED 71 01 00 ED 71 01 00 
   230)      2521.7  Rx     022A006D  0  
   231)      2522.3  Rx     0515006E  8  ED 71 01 00 ED 71 01 00 
   232)      2522.5  Rx     022A006E  0  
   233)      2523.2  Rx     0515006F  8  ED 71 01 00 ED 71 01 00 
   234)      2523.4  Rx     022A006F  0  
   235)      2524.1  Rx     05150070  8  ED 71 01 00 ED 71 01 00 
   236)      2524.3  Rx     022A0070  0  
   237)      2525.0  Rx     05150071  8  ED 71 01 00 ED 71 01 00 
   238)      2525.2  Rx     022A0071  0  
   239)      2525.8  Rx     05150072  8  ED 71 01 00 ED 71 01 00 
   240)      2526.1  Rx     022A0072  0  
   241)      2526.7  Rx     05150073  8  ED 71 01 00 ED 71 01 00 
   242)      2527.0  Rx     022A0073  0  
   243)      2527.6  Rx     05150074  8  ED 71 01 00 ED 71 01 00 
   244)      2527.9  Rx     022A0074  0  
   245)      2528.5  Rx     05150075  8  ED 71 01 00 ED 71 01 00 
   246)      2528.8  Rx     022A0075  0  
   247)      2529.4  Rx     05150076  8  ED 71 01 00 ED 71 01 00 
   248)      2529.7  Rx     022A0076  0  
   249)      2530.3  Rx     05150077  8  ED 71 01 00 ED 71 01 00 
   250)      2530.6  Rx     022A0077  0  
   251)      2531.2  Rx     05150078  8  ED 71 01 00 ED 71 01 00 
   252)      2531.5  Rx     022A0078  0  
   253)      2532.1  Rx     05150079  8  ED 71 01 00 ED 71 01 00 
   254)      2532.4  Rx     022A0079  0  
   255)      2533.0  Rx     0515007A  8  ED 71 01 00 ED 71 01 00 
   256)      2533.3  Rx     022A007A  0  
   257)      2533.9  Rx     0515007B  8  ED 71 01 00 ED 71 01 00 
   258)      2534.2  Rx     022A007B  0  
   259)      2534.8  Rx     0515007C  8  ED 71 01 00 ED 71 01 00 
   260)      2535.1  Rx     022A007C  0  
   261)      2535.7  Rx     0515007D  8  ED 71 01 00 ED 71 01 00 
   262)      2536.0  Rx     022A007D  0  
   263)      2536.6  Rx     0515007E  8  ED 71 01 00 ED 71 01 00 
   264)      2536.9  Rx     022A007E  0  
   265)      2537.5  Rx     0515007F  8  ED 71 01 00 ED 71 01 00 
   266)      2537.8  Rx     022A007F  0  
   267)      2538.4  Rx     05150080  8  ED 71 01 00 ED 71 01 00 
   268)      2538.7  Rx     022A0080  0  
   269)      2539.4  Rx     05150081  8  ED 71 01 00 FF FF FF FF 
   270)      2555.6  Rx     022A0081  0  
   271)      2556.3  Rx     05150082  8  FF FF FF FF FF FF FF FF 
   272)      2556.6  Rx     022A0082  0  
   273)      2557.2  Rx     05150083  8  FF FF FF FF FE 7F FF FF 
   274)      2557.5  Rx     022A0083  0  
   275)      2558.1  Rx     05150084  8  38 B5 04 00 00 20 02 F0 
   276)      2558.4  Rx     022A0084  0  
   277)      2559.0  Rx     05150085  8  7B FD 05 00 DF F8 78 1B 
   278)      2559.3  Rx     022A0085  0  
   279)      2559.9  Rx     05150086  8  08 78 00 28 0B D1 DF F8 
   280)      2560.2  Rx     022A0086  0  
   281)      2560.8  Rx     05150087  8  74 2B 0B 78 40 F2 BC 50 
   282)      2561.1  Rx     022A0087  0  
   283)      2561.7  Rx     05150088  8  43 43 02 EB 03 00 0A 78 
   284)      2562.0  Rx     022A0088  0  
   285)      2562.6  Rx     05150089  8  52 1C 0A 70 00 E0 00 20 
   286)      2562.9  Rx     022A0089  0  
   287)      2563.5  Rx     0515008A  8  C0 F8 B8 45 E8 67 0F F2 
   288)      2563.8  Rx     022A008A  0  
   289)      2564.4  Rx     0515008B  8  71 20 28 60 0F F2 51 00 
   290)      2564.6  Rx     022A008B  0  
   291)      2565.3  Rx     0515008C  8  68 60 0F F2 51 00 E8 61 
   292)      2565.5  Rx     022A008C  0  
   293)      2566.1  Rx     0515008D  8  0F F6 49 10 A8 61 0F F6 
   294)      2566.4  Rx     022A008D  0  
   295)      2567.0  Rx     0515008E  8  E5 00 68 61 DF F8 38 0B 
   296)      2567.3  Rx     022A008E  0  
   297)      2567.9  Rx     0515008F  8  E8 60 DF F8 38 0B A8 60 
   298)      2568.2  Rx     022A008F  0  
   299)      2568.8  Rx     05150090  8  DF F8 34 0B 28 61 DF F8 
   300)      2569.1  Rx     022A0090  0  
   301)      2569.7  Rx     05150091  8  34 0B E8 62 DF F8 30 0B 
   302)      2570.0  Rx     022A0091  0  
   303)      2570.6  Rx     05150092  8  A8 62 DF F8 30 0B 28 63 
   304)      2570.9  Rx     022A0092  0  
   305)      2571.5  Rx     05150093  8  DF F8 2C 0B 68 63 DF F8 
   306)      2571.8  Rx     022A0093  0  
   307)      2572.4  Rx     05150094  8  2C 0B A8 63 28 00 02 F0 
   308)      2572.7  Rx     022A0094  0  
   309)      2573.3  Rx     05150095  8  AB FD 28 00 32 BD 00 00 
   310)      2573.6  Rx     022A0095  0  
   311)      2574.2  Rx     05150096  8  70 47 00 00 70 47 00 21 
   312)      2574.5  Rx     022A0096  0  
   313)      2575.1  Rx     05150097  8  DF F8 14 1B 0A 68 52 F0 
   314)      2575.4  Rx     022A0097  0  
   315)      2576.0  Rx     05150098  8  80 42 0A 60 DF F8 0C 1B 
   316)      2576.3  Rx     022A0098  0  
   317)      2576.9  Rx     05150099  8  0A 68 52 F4 40 72 0A 60 
   318)      2577.2  Rx     022A0099  0  
   319)      2577.8  Rx     0515009A  8  DF F8 04 1B 0A 68 52 F4 
   320)      2578.1  Rx     022A009A  0  
   321)      2578.7  Rx     0515009B  8  40 72 0A 60 DF F8 FC 1A 
   322)      2579.0  Rx     022A009B  0  
   323)      2579.6  Rx     0515009C  8  0A 68 52 F0 80 42 0A 60 
   324)      2579.9  Rx     022A009C  0  
   325)      2580.4  Rx     0515009D  8  DF F8 F4 1A 0A 68 52 F0 
   326)      2580.7  Rx     022A009D  0  
   327)      2581.3  Rx     0515009E  8  00 72 0A 60 02 68 52 F0 
   328)      2581.6  Rx     022A009E  0  
   329)      2582.2  Rx     0515009F  8  00 42 02 60 42 68 32 F4 
   330)      2582.5  Rx     022A009F  0  
   331)      2583.1  Rx     051500A0  8  00 52 42 60 02 68 22 F0 
   332)      2583.4  Rx     022A00A0  0  
   333)      2584.1  Rx     051500A1  8  00 42 02 60 0A 68 52 F0 
   334)      2584.3  Rx     022A00A1  0  
   335)      2585.0  Rx     051500A2  8  00 72 0A 60 01 68 C1 F3 
   336)      2585.3  Rx     022A00A2  0  
   337)      2585.9  Rx     051500A3  8  00 61 00 29 FA D0 DF F8 
   338)      2586.2  Rx     022A00A3  0  
   339)      2586.8  Rx     051500A4  8  C4 1A 41 60 00 21 05 E0 
   340)      2587.1  Rx     022A00A4  0  
   341)      2587.7  Rx     051500A5  8  00 22 00 EB 81 03 C3 F8 
   342)      2588.0  Rx     022A00A5  0  
   343)      2588.6  Rx     051500A6  8  80 20 49 1C 80 29 F7 D3 
   344)      2588.8  Rx     022A00A6  0  
   345)      2589.4  Rx     051500A7  8  00 21 06 E0 5F F0 7F 42 
   346)      2589.7  Rx     022A00A7  0  
   347)      2590.3  Rx     051500A8  8  00 EB 81 03 C3 F8 80 28 
   348)      2590.6  Rx     022A00A8  0  
   349)      2591.2  Rx     051500A9  8  49 1C 10 29 F6 D3 5F F0 
   350)      2591.5  Rx     022A00A9  0  
   351)      2592.1  Rx     051500AA  8  F8 51 01 61 DF F8 90 1A 
   352)      2592.4  Rx     022A00AA  0  
   353)      2593.0  Rx     051500AB  8  C0 F8 C0 10 5F F0 80 72 
   354)      2593.3  Rx     022A00AB  0  
   355)      2593.9  Rx     051500AC  8  C0 F8 C4 20 D0 F8 D0 20 
   356)      2594.2  Rx     022A00AC  0  
   357)      2594.8  Rx     051500AD  8  0A 43 C0 F8 D0 20 5F F0 
   358)      2595.1  Rx     022A00AD  0  
   359)      2595.8  Rx     051500AE  8  40 72 C0 F8 D4 20 D0 F8 
   360)      2596.0  Rx     022A00AE  0  
   361)      2596.6  Rx     051500AF  8  E0 20 0A 43 C0 F8 E0 20 
   362)      2596.9  Rx     022A00AF  0  
   363)      2597.5  Rx     051500B0  8  5F F0 80 62 C0 F8 E4 20 
   364)      2597.8  Rx     022A00B0  0  
   365)      2598.4  Rx     051500B1  8  D0 F8 F0 20 11 43 C0 F8 
   366)      2598.7  Rx     022A00B1  0  
   367)      2599.3  Rx     051500B2  8  F0 10 5F F0 A2 61 C0 F8 
   368)      2599.6  Rx     022A00B2  0  
   369)      2600.2  Rx     051500B3  8  F4 10 01 68 31 F0 80 41 
   370)      2600.5  Rx     022A00B3  0  
   371)      2601.1  Rx     051500B4  8  01 60 01 68 41 F4 88 31 
   372)      2601.4  Rx     022A00B4  0  
   373)      2602.0  Rx     051500B5  8  51 F0 1F 01 01 60 01 68 
   374)      2602.3  Rx     022A00B5  0  
   375)      2602.9  Rx     051500B6  8  00 29 01 D0 01 21 00 E0 
   376)      2603.2  Rx     022A00B6  0  
   377)      2603.8  Rx     051500B7  8  00 21 01 68 00 29 01 D0 
   378)      2604.1  Rx     022A00B7  0  
   379)      2604.7  Rx     051500B8  8  01 21 00 E0 00 21 5F F4 
   380)      2605.0  Rx     022A00B8  0  
   381)      2605.6  Rx     051500B9  8  00 31 DF F8 20 2A 11 60 
   382)      2605.9  Rx     022A00B9  0  
   383)      2606.5  Rx     051500BA  8  DF F8 1C 2A 11 60 60 21 
   384)      2606.8  Rx     022A00BA  0  
   385)      2607.5  Rx     051500BB  8  DF F8 18 2A 11 70 5F F0 
   386)      2607.8  Rx     022A00BB  0  
   387)      2608.4  Rx     051500BC  8  FF 31 81 62 70 47 38 B5 
   388)      2608.6  Rx     022A00BC  0  
   389)      2609.2  Rx     051500BD  8  C4 6F 1F 20 03 F0 71 FD 
   390)      2609.5  Rx     022A00BD  0  
   391)      2610.1  Rx     051500BE  8  84 F8 40 00 45 20 03 F0 
   392)      2610.4  Rx     022A00BE  0  
   393)      2611.1  Rx     051500BF  8  6C FD 84 F8 6F 00 94 F8 
   394)      2611.3  Rx     022A00BF  0  
   395)      2612.0  Rx     051500C0  8  40 00 FF 28 03 D1 00 20 
   396)      2612.3  Rx     022A00C0  0  
   397)      2612.9  Rx     051500C1  8  84 F8 40 00 19 E0 94 F8 
   398)      2613.2  Rx     022A00C1  0  
   399)      2613.8  Rx     051500C2  8  40 00 29 28 02 DB 28 20 
   400)      2614.1  Rx     022A00C2  0  
   401)      2614.7  Rx     051500C3  8  84 F8 40 00 00 25 0E E0 
   402)      2615.0  Rx     022A00C3  0  
   403)      2615.6  Rx     051500C4  8  15 F1 20 00 C0 B2 03 F0 
   404)      2615.9  Rx     022A00C4  0  
   405)      2616.5  Rx     051500C5  8  54 FD 01 00 89 B2 09 0A 
   406)      2616.8  Rx     022A00C5  0  
   407)      2617.4  Rx     051500C6  8  04 EB 45 02 91 75 04 EB 
   408)      2617.7  Rx     022A00C6  0  
   409)      2618.3  Rx     051500C7  8  45 01 C8 75 6D 1C 14 2D 
   410)      2618.6  Rx     022A00C7  0  
   411)      2619.2  Rx     051500C8  8  EE DB 94 F8 6F 00 FF 28 
   412)      2619.5  Rx     022A00C8  0  
   413)      2620.1  Rx     051500C9  8  15 D1 06 20 84 F8 6F 00 
   414)      2620.4  Rx     022A00C9  0  
   415)      2621.0  Rx     051500CA  8  42 20 84 F8 45 00 41 20 
   416)      2621.2  Rx     022A00CA  0  
   417)      2621.9  Rx     051500CB  8  84 F8 46 00 46 20 84 F8 
   418)      2622.1  Rx     022A00CB  0  
   419)      2622.8  Rx     051500CC  8  47 00 41 20 84 F8 48 00 
   420)      2623.1  Rx     022A00CC  0  
   421)      2623.7  Rx     051500CD  8  4E 20 84 F8 49 00 47 20 
   422)      2624.0  Rx     022A00CD  0  
   423)      2624.6  Rx     051500CE  8  84 F8 4A 00 1B E0 94 F8 
   424)      2624.9  Rx     022A00CE  0  
   425)      2625.5  Rx     051500CF  8  6F 00 19 28 02 DB 18 20 
   426)      2625.8  Rx     022A00CF  0  
   427)      2626.4  Rx     051500D0  8  84 F8 6F 00 00 25 10 E0 
   428)      2626.7  Rx     022A00D0  0  
   429)      2627.3  Rx     051500D1  8  15 F1 38 00 C0 B2 03 F0 
   430)      2627.6  Rx     022A00D1  0  
   431)      2628.2  Rx     051500D2  8  20 FD 01 00 89 B2 09 0A 
   432)      2628.5  Rx     022A00D2  0  
   433)      2629.1  Rx     051500D3  8  04 EB 45 02 82 F8 45 10 
   434)      2629.4  Rx     022A00D3  0  
   435)      2630.0  Rx     051500D4  8  04 EB 45 01 81 F8 46 00 
   436)      2630.3  Rx     022A00D4  0  
   437)      2630.9  Rx     051500D5  8  6D 1C 0C 2D EC DB 00 20 
   438)      2631.2  Rx     022A00D5  0  
   439)      2631.8  Rx     051500D6  8  94 F8 40 10 21 44 88 75 
   440)      2632.1  Rx     022A00D6  0  
   441)      2632.7  Rx     051500D7  8  00 20 94 F8 6F 10 21 44 
   442)      2632.9  Rx     022A00D7  0  
   443)      2633.6  Rx     051500D8  8  81 F8 45 00 31 BD 00 00 
   444)      2633.9  Rx     022A00D8  0  
   445)      2634.5  Rx     051500D9  8  38 B5 05 00 15 F1 3C 00 
   446)      2634.8  Rx     022A00D9  0  
   447)      2635.4  Rx     051500DA  8  EC 6F 80 68 03 F0 0A FF 
   448)      2635.7  Rx     022A00DA  0  
   449)      2636.3  Rx     051500DB  8  29 00 DF F8 04 09 FF F7 
   450)      2636.6  Rx     022A00DB  0  
   451)      2637.2  Rx     051500DC  8  EA FE 28 00 00 F0 6D F9 
   452)      2637.4  Rx     022A00DC  0  
   453)      2638.1  Rx     051500DD  8  28 00 00 F0 28 F8 28 00 
   454)      2638.3  Rx     022A00DD  0  
   455)      2639.0  Rx     051500DE  8  FF F7 79 FF 01 20 84 F8 
   456)      2639.2  Rx     022A00DE  0  
   457)      2639.9  Rx     051500DF  8  00 02 00 20 A4 F8 02 02 
   458)      2640.2  Rx     022A00DF  0  
   459)      2640.8  Rx     051500E0  8  00 20 84 F8 FF 01 00 20 
   460)      2641.1  Rx     022A00E0  0  
   461)      2641.7  Rx     051500E1  8  84 F8 FE 01 01 20 84 F8 
   462)      2642.0  Rx     022A00E1  0  
   463)      2642.6  Rx     051500E2  8  FA 01 00 20 A4 F8 FC 01 
   464)      2642.9  Rx     022A00E2  0  
   465)      2643.5  Rx     051500E3  8  00 20 84 F8 F9 01 00 20 
   466)      2643.8  Rx     022A00E3  0  
   467)      2644.4  Rx     051500E4  8  84 F8 F8 01 01 20 84 F8 
   468)      2644.7  Rx     022A00E4  0  
   469)      2645.3  Rx     051500E5  8  F4 01 00 20 A4 F8 F6 01 
   470)      2645.6  Rx     022A00E5  0  
   471)      2646.2  Rx     051500E6  8  00 20 84 F8 F3 01 00 20 
   472)      2646.5  Rx     022A00E6  0  
   473)      2647.1  Rx     051500E7  8  84 F8 F2 01 31 BD 70 B5 
   474)      2647.4  Rx     022A00E7  0  
   475)      2648.0  Rx     051500E8  8  04 00 14 F1 3C 00 E5 6F 
   476)      2648.3  Rx     022A00E8  0  
   477)      2648.9  Rx     051500E9  8  15 F5 35 76 C0 69 03 F0 
   478)      2649.2  Rx     022A00E9  0  
   479)      2649.8  Rx     051500EA  8  13 FF 28 21 48 43 00 13 
   480)      2650.1  Rx     022A00EA  0  
   481)      2650.7  Rx     051500EB  8  35 21 31 80 2A 21 71 80 
   482)      2651.0  Rx     022A00EB  0  
   483)      2651.6  Rx     051500EC  8  30 21 B1 80 12 21 F1 80 
   484)      2651.9  Rx     022A00EC  0  
   485)      2652.5  Rx     051500ED  8  71 88 81 42 02 DB 00 20 
   486)      2652.8  Rx     022A00ED  0  
   487)      2653.4  Rx     051500EE  8  B0 75 09 E0 31 88 88 42 
   488)      2653.7  Rx     022A00EE  0  
   489)      2654.3  Rx     051500EF  8  02 DB 64 20 B0 75 03 E0 
   490)      2654.6  Rx     022A00EF  0  
   491)      2655.2  Rx     051500F0  8  20 00 00 F0 F7 FC B0 75 
   492)      2655.5  Rx     022A00F0  0  
   493)      2656.1  Rx     051500F1  8  B0 7D 70 76 4F F4 80 50 
   494)      2656.4  Rx     022A00F1  0  
   495)      2656.9  Rx     051500F2  8  F0 61 00 20 A5 F8 B6 05 
   496)      2657.2  Rx     022A00F2  0  
   497)      2657.8  Rx     051500F3  8  70 BD 10 B4 C1 6F 48 79 
   498)      2658.1  Rx     022A00F3  0  
   499)      2658.7  Rx     051500F4  8  01 28 17 D1 1C 22 DF F8 
   500)      2659.0  Rx     022A00F4  0  
   501)      2659.6  Rx     051500F5  8  50 38 C8 88 50 43 18 44 
   502)      2659.8  Rx     022A00F5  0  
   503)      2660.5  Rx     051500F6  8  C0 79 00 28 0A D1 CC 88 
   504)      2660.7  Rx     022A00F6  0  
   505)      2661.3  Rx     051500F7  8  C8 88 02 FB 00 F2 03 EB 
   506)      2661.6  Rx     022A00F7  0  
   507)      2662.3  Rx     051500F8  8  02 00 80 79 40 1E 04 19 
   508)      2662.5  Rx     022A00F8  0  
   509)      2663.2  Rx     051500F9  8  CC 80 20 E0 C8 88 40 1E 
   510)      2663.4  Rx     022A00F9  0  
   511)      2664.1  Rx     051500FA  8  C8 80 1C E0 48 79 02 28 
   512)      2664.4  Rx     022A00FA  0  
   513)      2665.0  Rx     051500FB  8  19 D1 1C 20 DF F8 18 28 
   514)      2665.3  Rx     022A00FB  0  
   515)      2665.9  Rx     051500FC  8  CB 88 43 43 13 44 9B 79 
   516)      2666.2  Rx     022A00FC  0  
   517)      2666.7  Rx     051500FD  8  5B 1E CC 88 44 43 14 44 
   518)      2667.0  Rx     022A00FD  0  
   519)      2667.6  Rx     051500FE  8  E4 79 A3 42 08 D1 CB 88 
   520)      2667.9  Rx     022A00FE  0  
   521)      2668.5  Rx     051500FF  8  CC 88 00 FB 04 F0 10 44 
   522)      2668.8  Rx     022A00FF  0  
   523)      2669.4  Rx     05150100  8  C0 79 1B 1A CB 80 02 E0 
   524)      2669.7  Rx     022A0100  0  
   525)      2670.3  Rx     05150101  8  C8 88 40 1C C8 80 10 BC 
   526)      2679.2  Rx     022A0101  0  
   527)      2679.8  Rx     05150102  8  70 47 C1 6F 1C 22 DF F8 
   528)      2680.1  Rx     022A0102  0  
   529)      2680.7  Rx     05150103  8  E0 37 C8 88 50 43 18 44 
   530)      2681.0  Rx     022A0103  0  
   531)      2681.6  Rx     05150104  8  80 88 00 28 07 D0 C8 88 
   532)      2681.9  Rx     022A0104  0  
   533)      2682.5  Rx     05150105  8  02 FB 00 F2 03 EB 02 00 
   534)      2682.8  Rx     022A0105  0  
   535)      2683.4  Rx     05150106  8  80 88 C8 80 03 E0 00 20 
   536)      2683.7  Rx     022A0106  0  
   537)      2684.3  Rx     05150107  8  C8 80 00 20 08 71 70 47 
   538)      2684.6  Rx     022A0107  0  
   539)      2685.3  Rx     05150108  8  C1 6F 1C 22 DF F8 B0 37 
   540)      2685.6  Rx     022A0108  0  
   541)      2686.2  Rx     05150109  8  C8 88 50 43 18 44 40 88 
   542)      2686.4  Rx     022A0109  0  
   543)      2687.1  Rx     0515010A  8  00 28 07 D0 C8 88 02 FB 
   544)      2687.3  Rx     022A010A  0  
   545)      2687.9  Rx     0515010B  8  00 F2 03 EB 02 00 40 88 
   546)      2688.2  Rx     022A010B  0  
   547)      2688.8  Rx     0515010C  8  C8 80 03 E0 00 20 C8 80 
   548)      2689.1  Rx     022A010C  0  
   549)      2689.7  Rx     0515010D  8  00 20 08 71 70 47 70 47 
   550)      2690.0  Rx     022A010D  0  
   551)      2690.6  Rx     0515010E  8  C0 6F 00 21 C1 80 00 21 
   552)      2690.9  Rx     022A010E  0  
   553)      2691.5  Rx     0515010F  8  41 71 00 21 01 71 70 47 
   554)      2691.8  Rx     022A010F  0  
   555)      2692.3  Rx     05150110  8  C0 6F 01 71 70 47 F8 B5 
   556)      2692.6  Rx     022A0110  0  
   557)      2693.2  Rx     05150111  8  04 00 20 00 C6 6F 35 00 
   558)      2693.5  Rx     022A0111  0  
   559)      2694.1  Rx     05150112  8  28 79 00 28 7A D0 30 79 
   560)      2694.4  Rx     022A0112  0  
   561)      2695.0  Rx     05150113  8  02 28 10 DA 00 20 00 E0 
   562)      2695.3  Rx     022A0113  0  
   563)      2695.9  Rx     05150114  8  40 1C 02 28 09 DA 31 79 
   564)      2696.2  Rx     022A0114  0  
   565)      2696.8  Rx     05150115  8  DF F8 4C 27 1C 23 03 FB 
   566)      2697.1  Rx     022A0115  0  
   567)      2697.7  Rx     05150116  8  00 F3 D2 5C 91 42 F3 D1 
   568)      2698.0  Rx     022A0116  0  
   569)      2698.6  Rx     05150117  8  E8 80 02 28 66 D0 28 79 
   570)      2698.8  Rx     022A0117  0  
   571)      2699.5  Rx     05150118  8  00 28 0F D0 DF F8 34 17 
   572)      2699.8  Rx     022A0118  0  
   573)      2700.4  Rx     05150119  8  DF F8 2C 27 EB 88 1C 20 
   574)      2700.7  Rx     022A0119  0  
   575)      2701.3  Rx     0515011A  8  43 43 02 EB 03 00 80 68 
   576)      2701.6  Rx     022A011A  0  
   577)      2702.2  Rx     0515011B  8  08 60 20 00 09 68 88 47 
   578)      2702.5  Rx     022A011B  0  
   579)      2703.1  Rx     0515011C  8  E8 88 28 81 68 79 01 28 
   580)      2703.3  Rx     022A011C  0  
   581)      2704.0  Rx     0515011D  8  07 D0 4F D3 03 28 1A D0 
   582)      2704.2  Rx     022A011D  0  
   583)      2704.8  Rx     0515011E  8  03 D3 05 28 43 D0 2C D3 
   584)      2705.1  Rx     022A011E  0  
   585)      2705.7  Rx     0515011F  8  48 E0 00 20 A6 F8 0E 02 
   586)      2706.0  Rx     022A011F  0  
   587)      2706.6  Rx     05150120  8  DF F8 F8 16 1C 26 DF F8 
   588)      2706.9  Rx     022A0120  0  
   589)      2707.5  Rx     05150121  8  F0 76 E8 88 70 43 38 44 
   590)      2707.8  Rx     022A0121  0  
   591)      2708.4  Rx     05150122  8  C0 68 08 60 20 00 09 68 
   592)      2708.7  Rx     022A0122  0  
   593)      2709.3  Rx     05150123  8  88 47 E8 88 06 FB 00 F6 
   594)      2709.6  Rx     022A0123  0  
   595)      2710.2  Rx     05150124  8  B8 5D 28 71 32 E0 00 20 
   596)      2710.5  Rx     022A0124  0  
   597)      2711.1  Rx     05150125  8  A6 F8 0E 02 DF F8 CC 16 
   598)      2711.4  Rx     022A0125  0  
   599)      2712.0  Rx     05150126  8  1C 26 DF F8 C4 76 E8 88 
   600)      2712.2  Rx     022A0126  0  
   601)      2712.9  Rx     05150127  8  70 43 38 44 00 69 08 60 
   602)      2713.1  Rx     022A0127  0  
   603)      2713.8  Rx     05150128  8  20 00 09 68 88 47 E8 88 
   604)      2714.1  Rx     022A0128  0  
   605)      2714.7  Rx     05150129  8  06 FB 00 F6 B8 5D 28 71 
   606)      2715.0  Rx     022A0129  0  
   607)      2715.6  Rx     0515012A  8  1C E0 00 20 A6 F8 0E 02 
   608)      2715.9  Rx     022A012A  0  
   609)      2716.5  Rx     0515012B  8  DF F8 A0 16 1C 26 DF F8 
   610)      2716.8  Rx     022A012B  0  
   611)      2717.3  Rx     0515012C  8  98 76 E8 88 70 43 38 44 
   612)      2717.6  Rx     022A012C  0  
   613)      2718.2  Rx     0515012D  8  00 69 08 60 20 00 09 68 
   614)      2718.5  Rx     022A012D  0  
   615)      2719.1  Rx     0515012E  8  88 47 E8 88 06 FB 00 F6 
   616)      2719.4  Rx     022A012E  0  
   617)      2720.0  Rx     0515012F  8  B8 5D 28 71 06 E0 00 20 
   618)      2720.3  Rx     022A012F  0  
   619)      2720.9  Rx     05150130  8  F0 80 00 20 70 71 00 20 
   620)      2721.2  Rx     022A0130  0  
   621)      2721.8  Rx     05150131  8  30 71 FF E7 F1 BD 80 B5 
   622)      2722.1  Rx     022A0131  0  
   623)      2722.7  Rx     05150132  8  FF F7 79 FF 01 BD C1 6F 
   624)      2723.0  Rx     022A0132  0  
   625)      2723.6  Rx     05150133  8  0A 00 10 79 00 28 0F D0 
   626)      2723.9  Rx     022A0133  0  
   627)      2724.5  Rx     05150134  8  B1 F8 0E 02 40 1C A1 F8 
   628)      2724.8  Rx     022A0134  0  
   629)      2725.5  Rx     05150135  8  0E 02 B1 F8 0E 02 42 F2 
   630)      2725.7  Rx     022A0135  0  
   631)      2726.4  Rx     05150136  8  11 73 98 42 04 DB 00 20 
   632)      2726.6  Rx     022A0136  0  
   633)      2727.2  Rx     05150137  8  A1 F8 0E 02 00 20 10 71 
   634)      2727.5  Rx     022A0137  0  
   635)      2728.1  Rx     05150138  8  70 47 1C B5 04 00 E0 6F 
   636)      2728.4  Rx     022A0138  0  
   637)      2729.0  Rx     05150139  8  00 21 2D E0 4A 01 02 44 
   638)      2729.3  Rx     022A0139  0  
   639)      2729.9  Rx     0515013A  8  A0 32 4B 01 03 44 C3 F8 
   640)      2730.2  Rx     022A013A  0  
   641)      2730.8  Rx     0515013B  8  80 20 06 E0 0A 29 F5 D1 
   642)      2731.1  Rx     022A013B  0  
   643)      2731.7  Rx     0515013C  8  00 22 4B 01 03 44 C3 F8 
   644)      2732.0  Rx     022A013C  0  
   645)      2732.6  Rx     0515013D  8  80 20 00 22 4B 01 03 44 
   646)      2732.9  Rx     022A013D  0  
   647)      2733.5  Rx     0515013E  8  A3 F8 96 20 00 22 4B 01 
   648)      2733.8  Rx     022A013E  0  
   649)      2734.4  Rx     0515013F  8  03 44 83 F8 93 20 00 22 
   650)      2734.7  Rx     022A013F  0  
   651)      2735.3  Rx     05150140  8  4B 01 03 44 C3 F8 98 20 
   652)      2735.6  Rx     022A0140  0  
   653)      2736.2  Rx     05150141  8  00 22 4B 01 03 44 83 F8 
   654)      2736.5  Rx     022A0141  0  
   655)      2737.1  Rx     05150142  8  91 20 00 22 4B 01 03 44 
   656)      2737.4  Rx     022A0142  0  
   657)      2738.0  Rx     05150143  8  83 F8 9D 20 00 22 4B 01 
   658)      2738.3  Rx     022A0143  0  
   659)      2738.9  Rx     05150144  8  03 44 83 F8 90 20 49 1C 
   660)      2739.2  Rx     022A0144  0  
   661)      2739.8  Rx     05150145  8  0A 29 D7 DB 00 21 C0 F8 
   662)      2740.1  Rx     022A0145  0  
   663)      2740.7  Rx     05150146  8  A0 11 10 F1 80 01 C0 F8 
   664)      2741.0  Rx     022A0146  0  
   665)      2741.6  Rx     05150147  8  C0 11 0A 21 80 F8 7C 10 
   666)      2741.9  Rx     022A0147  0  
   667)      2742.5  Rx     05150148  8  00 21 0A E0 00 22 00 EB 
   668)      2742.8  Rx     022A0148  0  
   669)      2743.4  Rx     05150149  8  C1 03 C3 F8 C4 21 00 22 
   670)      2743.7  Rx     022A0149  0  
   671)      2744.3  Rx     0515014A  8  00 EB C1 03 A3 F8 C8 21 
   672)      2744.6  Rx     022A014A  0  
   673)      2745.2  Rx     0515014B  8  49 1C 05 29 F2 DB 00 20 
   674)      2745.5  Rx     022A014B  0  
   675)      2746.1  Rx     0515014C  8  01 90 01 20 00 90 00 23 
   676)      2746.4  Rx     022A014C  0  
   677)      2747.0  Rx     0515014D  8  0F F6 D1 22 FA 21 20 00 
   678)      2747.3  Rx     022A014D  0  
   679)      2747.9  Rx     0515014E  8  00 F0 36 F9 01 00 20 00 
   680)      2748.2  Rx     022A014E  0  
   681)      2748.8  Rx     0515014F  8  00 F0 DA F8 01 20 01 90 
   682)      2749.1  Rx     022A014F  0  
   683)      2749.7  Rx     05150150  8  01 20 00 90 00 23 DF F8 
   684)      2750.0  Rx     022A0150  0  
   685)      2750.6  Rx     05150151  8  78 25 4F F4 8C 71 20 00 
   686)      2750.9  Rx     022A0151  0  
   687)      2751.5  Rx     05150152  8  00 F0 26 F9 01 00 20 00 
   688)      2751.8  Rx     022A0152  0  
   689)      2752.5  Rx     05150153  8  00 F0 CA F8 02 20 01 90 
   690)      2752.7  Rx     022A0153  0  
   691)      2753.4  Rx     05150154  8  01 20 00 90 00 23 DF F8 
   692)      2753.6  Rx     022A0154  0  
   693)      2754.2  Rx     05150155  8  5C 25 4F F4 E1 71 20 00 
   694)      2754.5  Rx     022A0155  0  
   695)      2755.2  Rx     05150156  8  00 F0 16 F9 01 00 20 00 
   696)      2755.4  Rx     022A0156  0  
   697)      2756.0  Rx     05150157  8  00 F0 BA F8 04 20 01 90 
   698)      2756.3  Rx     022A0157  0  
   699)      2756.9  Rx     05150158  8  01 20 00 90 00 23 DF F8 
   700)      2757.2  Rx     022A0158  0  
   701)      2757.9  Rx     05150159  8  40 25 4F F4 96 71 20 00 
   702)      2758.1  Rx     022A0159  0  
   703)      2758.8  Rx     0515015A  8  00 F0 06 F9 01 00 20 00 
   704)      2759.0  Rx     022A015A  0  
   705)      2759.7  Rx     0515015B  8  00 F0 AA F8 03 20 01 90 
   706)      2760.0  Rx     022A015B  0  
   707)      2760.6  Rx     0515015C  8  01 20 00 90 00 23 DF F8 
   708)      2760.9  Rx     022A015C  0  
   709)      2761.5  Rx     0515015D  8  24 25 3C 21 20 00 00 F0 
   710)      2761.8  Rx     022A015D  0  
   711)      2762.4  Rx     0515015E  8  F7 F8 01 00 20 00 00 F0 
   712)      2762.7  Rx     022A015E  0  
   713)      2763.3  Rx     0515015F  8  9B F8 05 20 01 90 01 20 
   714)      2763.6  Rx     022A015F  0  
   715)      2764.2  Rx     05150160  8  00 90 00 23 DF F8 38 2C 
   716)      2764.5  Rx     022A0160  0  
   717)      2765.1  Rx     05150161  8  41 F2 88 31 20 00 00 F0 
   718)      2765.4  Rx     022A0161  0  
   719)      2766.0  Rx     05150162  8  E7 F8 01 00 20 00 00 F0 
   720)      2766.3  Rx     022A0162  0  
   721)      2767.0  Rx     05150163  8  8B F8 08 20 01 90 01 20 
   722)      2767.3  Rx     022A0163  0  
   723)      2767.9  Rx     05150164  8  00 90 00 23 DF F8 1C 2C 
   724)      2768.2  Rx     022A0164  0  
   725)      2768.8  Rx     05150165  8  64 21 20 00 00 F0 D8 F8 
   726)      2769.1  Rx     022A0165  0  
   727)      2769.7  Rx     05150166  8  01 00 20 00 00 F0 7C F8 
   728)      2770.0  Rx     022A0166  0  
   729)      2770.6  Rx     05150167  8  06 20 01 90 01 20 00 90 
   730)      2770.9  Rx     022A0167  0  
   731)      2771.5  Rx     05150168  8  00 23 DF F8 04 2C 4F F4 
   732)      2771.8  Rx     022A0168  0  
   733)      2772.4  Rx     05150169  8  F5 71 20 00 00 F0 C8 F8 
   734)      2772.7  Rx     022A0169  0  
   735)      2773.3  Rx     0515016A  8  01 00 20 00 00 F0 6C F8 
   736)      2773.6  Rx     022A016A  0  
   737)      2774.2  Rx     0515016B  8  13 BD 10 B5 C4 6F 00 21 
   738)      2774.5  Rx     022A016B  0  
   739)      2775.1  Rx     0515016C  8  D4 F8 C0 21 00 2A 0D D0 
   740)      2775.4  Rx     022A016C  0  
   741)      2776.0  Rx     0515016D  8  D4 F8 C0 11 01 22 4A 77 
   742)      2776.2  Rx     022A016D  0  
   743)      2776.8  Rx     0515016E  8  D4 F8 C0 21 12 68 C4 F8 
   744)      2777.1  Rx     022A016E  0  
   745)      2777.8  Rx     0515016F  8  C0 21 94 F8 7C 20 52 1E 
   746)      2778.0  Rx     022A016F  0  
   747)      2778.7  Rx     05150170  8  84 F8 7C 20 94 F8 7C 20 
   748)      2779.0  Rx     022A0170  0  
   749)      2779.6  Rx     05150171  8  00 2A 0F D1 FF F7 19 FF 
   750)      2779.9  Rx     022A0171  0  
   751)      2780.5  Rx     05150172  8  D4 F8 C0 11 01 20 48 77 
   752)      2780.8  Rx     022A0172  0  
   753)      2781.3  Rx     05150173  8  D4 F8 C0 01 00 68 C4 F8 
   754)      2781.6  Rx     022A0173  0  
   755)      2782.2  Rx     05150174  8  C0 01 94 F8 7C 00 40 1E 
   756)      2782.5  Rx     022A0174  0  
   757)      2783.1  Rx     05150175  8  84 F8 7C 00 08 00 10 BD 
   758)      2783.4  Rx     022A0175  0  
   759)      2784.0  Rx     05150176  8  C0 6F 00 29 22 D0 00 22 
   760)      2784.3  Rx     022A0176  0  
   761)      2784.9  Rx     05150177  8  8A 74 00 22 4A 60 00 22 
   762)      2785.2  Rx     022A0177  0  
   763)      2785.8  Rx     05150178  8  4A 77 00 22 8A 60 00 22 
   764)      2786.1  Rx     022A0178  0  
   765)      2786.7  Rx     05150179  8  8A 61 00 22 0A 77 00 22 
   766)      2787.0  Rx     022A0179  0  
   767)      2787.6  Rx     0515017A  8  CA 82 00 22 4A 74 00 22 
   768)      2787.9  Rx     022A017A  0  
   769)      2788.5  Rx     0515017B  8  0A 74 D0 F8 C0 21 0A 60 
   770)      2788.8  Rx     022A017B  0  
   771)      2789.4  Rx     0515017C  8  C0 F8 C0 11 90 F8 7C 10 
   772)      2789.7  Rx     022A017C  0  
   773)      2790.4  Rx     0515017D  8  49 1C 80 F8 7C 10 90 F8 
   774)      2790.7  Rx     022A017D  0  
   775)      2791.2  Rx     0515017E  8  7C 10 0A 29 02 DB 0A 21 
   776)      2791.5  Rx     022A017E  0  
   777)      2792.1  Rx     0515017F  8  80 F8 7C 10 70 47 30 B4 
   778)      2792.4  Rx     022A017F  0  
   779)      2793.0  Rx     05150180  8  C3 6F 00 22 00 E0 52 1C 
   780)      2793.3  Rx     022A0180  0  
   781)      2794.0  Rx     05150181  8  10 00 C0 B2 0A 28 0C DA 
   782)      2810.2  Rx     022A0181  0  
   783)      2810.9  Rx     05150182  8  10 00 C0 B2 40 01 18 44 
   784)      2811.1  Rx     022A0182  0  
   785)      2811.8  Rx     05150183  8  80 30 00 28 F3 D0 04 7C 
   786)      2812.0  Rx     022A0183  0  
   787)      2812.6  Rx     05150184  8  0D 00 ED B2 AC 42 EE D1 
   788)      2812.9  Rx     022A0184  0  
   789)      2813.5  Rx     05150185  8  00 E0 00 20 30 BC 70 47 
   790)      2813.8  Rx     022A0185  0  
   791)      2814.4  Rx     05150186  8  10 B4 C2 6F 00 29 1C D0 
   792)      2814.7  Rx     022A0186  0  
   793)      2815.3  Rx     05150187  8  03 20 88 74 C8 8A 93 6F 
   794)      2815.6  Rx     022A0187  0  
   795)      2816.2  Rx     05150188  8  18 18 88 61 8B 69 05 24 
   796)      2816.5  Rx     022A0188  0  
   797)      2817.1  Rx     05150189  8  B3 FB F4 F0 04 FB 10 30 
   798)      2817.4  Rx     022A0189  0  
   799)      2818.0  Rx     0515018A  8  02 EB C0 00 10 F5 E2 72 
   800)      2818.3  Rx     022A018A  0  
   801)      2818.9  Rx     0515018B  8  00 2A 0A D0 10 68 00 28 
   802)      2819.2  Rx     022A018B  0  
   803)      2819.8  Rx     0515018C  8  01 D0 10 68 41 60 10 68 
   804)      2820.1  Rx     022A018C  0  
   805)      2820.7  Rx     0515018D  8  08 60 11 60 90 88 40 1C 
   806)      2820.9  Rx     022A018D  0  
   807)      2821.6  Rx     0515018E  8  90 80 10 BC 70 47 10 B4 
   808)      2821.8  Rx     022A018E  0  
   809)      2822.5  Rx     0515018F  8  C2 6F 00 29 25 D0 01 20 
   810)      2822.7  Rx     022A018F  0  
   811)      2823.3  Rx     05150190  8  88 74 8B 69 05 24 B3 FB 
   812)      2823.6  Rx     022A0190  0  
   813)      2824.2  Rx     05150191  8  F4 F0 04 FB 10 30 02 EB 
   814)      2824.5  Rx     022A0191  0  
   815)      2825.1  Rx     05150192  8  C0 00 10 F5 E2 72 00 2A 
   816)      2825.4  Rx     022A0192  0  
   817)      2826.0  Rx     05150193  8  17 D0 10 68 88 42 08 D1 
   818)      2826.3  Rx     022A0193  0  
   819)      2826.9  Rx     05150194  8  08 68 10 60 08 68 00 28 
   820)      2827.2  Rx     022A0194  0  
   821)      2827.8  Rx     05150195  8  0C D0 00 20 09 68 48 60 
   822)      2828.1  Rx     022A0195  0  
   823)      2828.7  Rx     05150196  8  08 E0 08 68 4B 68 18 60 
   824)      2829.0  Rx     022A0196  0  
   825)      2829.6  Rx     05150197  8  08 68 00 28 02 D0 48 68 
   826)      2829.9  Rx     022A0197  0  
   827)      2830.5  Rx     05150198  8  09 68 48 60 90 88 40 1E 
   828)      2830.8  Rx     022A0198  0  
   829)      2831.4  Rx     05150199  8  90 80 10 BC 70 47 10 B5 
   830)      2831.7  Rx     022A0199  0  
   831)      2832.3  Rx     0515019A  8  14 00 C9 B2 FF F7 93 FF 
   832)      2832.6  Rx     022A019A  0  
   833)      2833.2  Rx     0515019B  8  00 28 00 D0 84 74 10 BD 
   834)      2833.5  Rx     022A019B  0  
   835)      2834.1  Rx     0515019C  8  2D E9 F0 41 0C 00 15 00 
   836)      2834.4  Rx     022A019C  0  
   837)      2835.0  Rx     0515019D  8  1E 00 5F F0 FF 38 C7 6F 
   838)      2835.3  Rx     022A019D  0  
   839)      2835.9  Rx     0515019E  8  00 21 FF F7 32 FF 00 28 
   840)      2836.2  Rx     022A019E  0  
   841)      2836.8  Rx     0515019F  8  05 D0 17 F1 80 08 B0 EB 
   842)      2837.1  Rx     022A019F  0  
   843)      2837.7  Rx     051501A0  8  08 08 5F EA 68 18 18 F1 
   844)      2838.0  Rx     022A01A0  0  
   845)      2838.6  Rx     051501A1  8  01 0F 21 D0 07 99 06 9A 
   846)      2838.9  Rx     022A01A1  0  
   847)      2839.5  Rx     051501A2  8  5F EA 48 13 3B 44 C3 F8 
   848)      2839.8  Rx     022A01A2  0  
   849)      2840.4  Rx     051501A3  8  88 50 5F EA 48 13 3B 44 
   850)      2840.7  Rx     022A01A3  0  
   851)      2841.2  Rx     051501A4  8  C3 F8 8C 60 64 08 5F EA 
   852)      2841.5  Rx     022A01A4  0  
   853)      2842.1  Rx     051501A5  8  48 13 3B 44 A3 F8 96 40 
   854)      2842.4  Rx     022A01A5  0  
   855)      2843.0  Rx     051501A6  8  5F EA 48 13 3B 44 83 F8 
   856)      2843.3  Rx     022A01A6  0  
   857)      2843.9  Rx     051501A7  8  93 20 01 22 5F EA 48 13 
   858)      2844.2  Rx     022A01A7  0  
   859)      2844.8  Rx     051501A8  8  3B 44 83 F8 92 20 5F EA 
   860)      2845.1  Rx     022A01A8  0  
   861)      2845.7  Rx     051501A9  8  48 12 3A 44 82 F8 90 10 
   862)      2846.0  Rx     022A01A9  0  
   863)      2846.6  Rx     051501AA  8  BD E8 F0 81 70 B5 05 00 
   864)      2846.8  Rx     022A01AA  0  
   865)      2847.4  Rx     051501AB  8  00 20 E8 6F 10 F1 80 04 
   866)      2847.7  Rx     022A01AB  0  
   867)      2848.3  Rx     051501AC  8  00 26 1A E0 60 7C 00 28 
   868)      2848.6  Rx     022A01AC  0  
   869)      2849.2  Rx     051501AD  8  10 D0 A0 68 00 28 0D D0 
   870)      2849.5  Rx     022A01AD  0  
   871)      2850.1  Rx     051501AE  8  E1 68 28 00 A2 68 90 47 
   872)      2850.4  Rx     022A01AE  0  
   873)      2851.0  Rx     051501AF  8  00 20 60 74 20 7F 40 1C 
   874)      2851.3  Rx     022A01AF  0  
   875)      2851.9  Rx     051501B0  8  20 77 20 7F FF 28 01 D1 
   876)      2852.2  Rx     022A01B0  0  
   877)      2852.8  Rx     051501B1  8  00 20 20 77 20 34 03 E0 
   878)      2853.1  Rx     022A01B1  0  
   879)      2853.7  Rx     051501B2  8  A0 7C 04 28 E6 D1 20 34 
   880)      2854.0  Rx     022A01B2  0  
   881)      2854.6  Rx     051501B3  8  76 1C 0A 2E 08 DA 00 2C 
   882)      2854.9  Rx     022A01B3  0  
   883)      2855.5  Rx     051501B4  8  01 D1 20 34 F8 E7 60 7F 
   884)      2855.8  Rx     022A01B4  0  
   885)      2856.4  Rx     051501B5  8  00 28 F1 D1 20 34 F3 E7 
   886)      2856.7  Rx     022A01B5  0  
   887)      2857.3  Rx     051501B6  8  70 BD 00 00 F8 B5 05 00 
   888)      2857.6  Rx     022A01B6  0  
   889)      2858.1  Rx     051501B7  8  EE 6F B0 6F 40 1C B0 67 
   890)      2858.4  Rx     022A01B7  0  
   891)      2859.1  Rx     051501B8  8  96 F8 EE 01 00 28 04 D0 
   892)      2859.4  Rx     022A01B8  0  
   893)      2860.0  Rx     051501B9  8  B6 F8 F0 01 40 1C A6 F8 
   894)      2860.3  Rx     022A01B9  0  
   895)      2860.9  Rx     051501BA  8  F0 01 28 00 FF F7 DF FD 
   896)      2861.2  Rx     022A01BA  0  
   897)      2861.8  Rx     051501BB  8  B1 6F 05 22 B1 FB F2 F0 
   898)      2862.1  Rx     022A01BB  0  
   899)      2862.7  Rx     051501BC  8  02 FB 10 10 06 EB C0 00 
   900)      2863.0  Rx     022A01BC  0  
   901)      2863.6  Rx     051501BD  8  D0 F8 C4 41 00 E0 3C 00 
   902)      2863.9  Rx     022A01BD  0  
   903)      2864.5  Rx     051501BE  8  00 2C 01 D0 00 2C 00 D1 
   904)      2864.8  Rx     022A01BE  0  
   905)      2865.4  Rx     051501BF  8  F1 BD 27 68 A0 7C 04 28 
   906)      2865.7  Rx     022A01BF  0  
   907)      2866.3  Rx     051501C0  8  F5 D0 B0 6F A1 69 88 42 
   908)      2866.6  Rx     022A01C0  0  
   909)      2867.2  Rx     051501C1  8  32 D3 21 00 28 00 FF F7 
   910)      2867.5  Rx     022A01C1  0  
   911)      2868.1  Rx     051501C2  8  32 FF E0 7C 01 28 04 D1 
   912)      2868.4  Rx     022A01C2  0  
   913)      2869.0  Rx     051501C3  8  21 00 28 00 FF F7 08 FF 
   914)      2869.3  Rx     022A01C3  0  
   915)      2869.9  Rx     051501C4  8  24 E0 E0 7C 02 28 0E D1 
   916)      2870.2  Rx     022A01C4  0  
   917)      2870.8  Rx     051501C5  8  20 7F A1 8A 80 B2 88 42 
   918)      2871.1  Rx     022A01C5  0  
   919)      2871.7  Rx     051501C6  8  04 D3 21 00 28 00 FF F7 
   920)      2872.0  Rx     022A01C6  0  
   921)      2872.6  Rx     051501C7  8  BB FE 17 E0 21 00 28 00 
   922)      2872.9  Rx     022A01C7  0  
   923)      2873.5  Rx     051501C8  8  FF F7 F6 FE 12 E0 E0 7C 
   924)      2873.8  Rx     022A01C8  0  
   925)      2874.4  Rx     051501C9  8  03 28 0B D1 21 00 28 00 
   926)      2874.7  Rx     022A01C9  0  
   927)      2875.3  Rx     051501CA  8  FF F7 EE FE 20 7F A1 8A 
   928)      2875.6  Rx     022A01CA  0  
   929)      2876.2  Rx     051501CB  8  80 B2 88 42 06 D3 04 20 
   930)      2876.5  Rx     022A01CB  0  
   931)      2877.1  Rx     051501CC  8  A0 74 03 E0 21 00 28 00 
   932)      2877.4  Rx     022A01CC  0  
   933)      2878.0  Rx     051501CD  8  FF F7 A2 FE 01 20 60 74 
   934)      2878.3  Rx     022A01CD  0  
   935)      2878.9  Rx     051501CE  8  3C 00 BD E7 01 22 02 63 
   936)      2879.2  Rx     022A01CE  0  
   937)      2879.8  Rx     051501CF  8  8A 7A 00 2A 0C D0 02 2A 
   938)      2880.1  Rx     022A01CF  0  
   939)      2880.7  Rx     051501D0  8  10 D0 0A D3 04 2A 20 D0 
   940)      2881.0  Rx     022A01D0  0  
   941)      2881.6  Rx     051501D1  8  14 D3 06 2A 3B D0 29 D3 
   942)      2881.9  Rx     022A01D1  0  
   943)      2882.5  Rx     051501D2  8  08 2A 63 D0 4B D3 79 E0 
   944)      2882.8  Rx     022A01D2  0  
   945)      2883.4  Rx     051501D3  8  78 E0 CA 7A 12 06 C0 F8 
   946)      2883.7  Rx     022A01D3  0  
   947)      2884.3  Rx     051501D4  8  88 20 73 E0 CA 7A 0B 7B 
   948)      2884.6  Rx     022A01D4  0  
   949)      2885.2  Rx     051501D5  8  1B 04 53 EA 02 63 C0 F8 
   950)      2885.5  Rx     022A01D5  0  
   951)      2886.1  Rx     051501D6  8  88 30 6B E0 CA 7A 0B 7B 
   952)      2886.3  Rx     022A01D6  0  
   953)      2886.9  Rx     051501D7  8  1B 04 53 EA 02 63 4A 7B 
   954)      2887.2  Rx     022A01D7  0  
   955)      2887.8  Rx     051501D8  8  53 EA 02 23 C0 F8 88 30 
   956)      2888.1  Rx     022A01D8  0  
   957)      2888.7  Rx     051501D9  8  60 E0 CA 7A 0B 7B 1B 04 
   958)      2889.0  Rx     022A01D9  0  
   959)      2889.6  Rx     051501DA  8  53 EA 02 63 4A 7B 53 EA 
   960)      2889.9  Rx     022A01DA  0  
   961)      2890.5  Rx     051501DB  8  02 23 8A 7B 13 43 C0 F8 
   962)      2890.8  Rx     022A01DB  0  
   963)      2891.4  Rx     051501DC  8  88 30 53 E0 CA 7A 0B 7B 
   964)      2891.7  Rx     022A01DC  0  
   965)      2892.3  Rx     051501DD  8  1B 04 53 EA 02 63 4A 7B 
   966)      2892.6  Rx     022A01DD  0  
   967)      2893.2  Rx     051501DE  8  53 EA 02 23 8A 7B 13 43 
   968)      2893.5  Rx     022A01DE  0  
   969)      2894.1  Rx     051501DF  8  C0 F8 88 30 CA 7B 12 06 
   970)      2894.4  Rx     022A01DF  0  
   971)      2895.0  Rx     051501E0  8  C0 F8 8C 20 42 E0 CA 7A 
   972)      2895.3  Rx     022A01E0  0  
   973)      2895.9  Rx     051501E1  8  0B 7B 1B 04 53 EA 02 63 
   974)      2896.2  Rx     022A01E1  0  
   975)      2896.8  Rx     051501E2  8  4A 7B 53 EA 02 23 8A 7B 
   976)      2897.1  Rx     022A01E2  0  
   977)      2897.7  Rx     051501E3  8  13 43 C0 F8 88 30 CA 7B 
   978)      2898.0  Rx     022A01E3  0  
   979)      2898.6  Rx     051501E4  8  0B 7C 1B 04 53 EA 02 63 
   980)      2898.9  Rx     022A01E4  0  
   981)      2899.4  Rx     051501E5  8  C0 F8 8C 30 2E E0 CA 7A 
   982)      2899.7  Rx     022A01E5  0  
   983)      2900.3  Rx     051501E6  8  0B 7B 1B 04 53 EA 02 63 
   984)      2900.6  Rx     022A01E6  0  
   985)      2901.2  Rx     051501E7  8  4A 7B 53 EA 02 23 8A 7B 
   986)      2901.5  Rx     022A01E7  0  
   987)      2902.1  Rx     051501E8  8  13 43 C0 F8 88 30 CA 7B 
   988)      2902.4  Rx     022A01E8  0  
   989)      2903.0  Rx     051501E9  8  0B 7C 1B 04 53 EA 02 63 
   990)      2903.2  Rx     022A01E9  0  
   991)      2903.9  Rx     051501EA  8  4A 7C 53 EA 02 23 C0 F8 
   992)      2904.2  Rx     022A01EA  0  
   993)      2904.8  Rx     051501EB  8  8C 30 17 E0 CA 7A 0B 7B 
   994)      2905.0  Rx     022A01EB  0  
   995)      2905.7  Rx     051501EC  8  1B 04 53 EA 02 63 4A 7B 
   996)      2905.9  Rx     022A01EC  0  
   997)      2906.5  Rx     051501ED  8  53 EA 02 23 8A 7B 13 43 
   998)      2906.8  Rx     022A01ED  0  
   999)      2907.4  Rx     051501EE  8  C0 F8 88 30 CA 7B 0B 7C 
  1000)      2907.7  Rx     022A01EE  0  
  1001)      2908.3  Rx     051501EF  8  1B 04 53 EA 02 63 4A 7C 
  1002)      2908.6  Rx     022A01EF  0  
  1003)      2909.2  Rx     051501F0  8  53 EA 02 23 8A 7C 13 43 
  1004)      2909.5  Rx     022A01F0  0  
  1005)      2910.1  Rx     051501F1  8  C0 F8 8C 30 4A 68 C0 F8 
  1006)      2910.4  Rx     022A01F1  0  
  1007)      2911.1  Rx     051501F2  8  84 20 89 7A 09 04 11 F4 
  1008)      2911.3  Rx     022A01F2  0  
  1009)      2911.9  Rx     051501F3  8  70 21 51 F0 46 61 C0 F8 
  1010)      2912.2  Rx     022A01F3  0  
  1011)      2912.8  Rx     051501F4  8  80 10 00 20 70 47 00 00 
  1012)      2913.1  Rx     022A01F4  0  
  1013)      2913.8  Rx     051501F5  8  B9 25 00 20 A0 02 00 20 
  1014)      2914.1  Rx     022A01F5  0  
  1015)      2914.7  Rx     051501F6  8  FF 7F 00 00 61 7E 00 00 
  1016)      2915.0  Rx     022A01F6  0  
  1017)      2915.6  Rx     051501F7  8  79 7E 00 00 EB 64 00 00 
  1018)      2915.9  Rx     022A01F7  0  
  1019)      2916.5  Rx     051501F8  8  F3 64 00 00 FB 64 00 00 
  1020)      2916.8  Rx     022A01F8  0  
  1021)      2917.4  Rx     051501F9  8  7B 7E 00 00 3D 67 00 00 
  1022)      2917.7  Rx     022A01F9  0  
  1023)      2918.3  Rx     051501FA  8  2C 51 06 40 0C B0 04 40 
  1024)      2918.6  Rx     022A01FA  0  
  1025)      2919.2  Rx     051501FB  8  08 B0 04 40 90 50 06 40 
  1026)      2919.5  Rx     022A01FB  0  
  1027)      2920.2  Rx     051501FC  8  00 40 02 40 03 00 01 03 
  1028)      2920.5  Rx     022A01FC  0  
  1029)      2921.1  Rx     051501FD  8  00 00 64 04 88 E2 00 E0 
  1030)      2921.4  Rx     022A01FD  0  
  1031)      2922.0  Rx     051501FE  8  08 E1 00 E0 51 E4 00 E0 
  1032)      2922.3  Rx     022A01FE  0  
  1033)      2922.9  Rx     051501FF  8  80 5E 01 00 5C 08 00 20 
  1034)      2923.2  Rx     022A01FF  0  
  1035)      2923.8  Rx     05150200  8  61 6B 00 00 49 6C 00 00 
  1036)      2924.1  Rx     022A0200  0  
  1037)      2924.7  Rx     05150201  8  5F 6D 00 00 F9 6C 00 00 
  1038)      2933.7  Rx     022A0201  0  
  1039)      2934.3  Rx     05150202  8  30 B4 03 98 04 9B 02 24 
  1040)      2934.6  Rx     022A0202  0  
  1041)      2935.2  Rx     05150203  8  4D 68 64 F3 1C 65 4D 60 
  1042)      2935.5  Rx     022A0203  0  
  1043)      2936.1  Rx     05150204  8  92 B2 4C 68 62 F3 D7 44 
  1044)      2936.4  Rx     022A0204  0  
  1045)      2937.0  Rx     05150205  8  4C 60 06 22 4C 68 62 F3 
  1046)      2937.3  Rx     022A0205  0  
  1047)      2937.9  Rx     05150206  8  12 44 4C 60 4A 68 32 F4 
  1048)      2938.2  Rx     022A0206  0  
  1049)      2938.8  Rx     05150207  8  7F 42 4A 60 4A 68 12 0A 
  1050)      2939.1  Rx     022A0207  0  
  1051)      2939.7  Rx     05150208  8  12 02 4A 60 01 22 0A 72 
  1052)      2940.0  Rx     022A0208  0  
  1053)      2940.6  Rx     05150209  8  00 22 4A 72 88 72 00 22 
  1054)      2940.9  Rx     022A0209  0  
  1055)      2941.5  Rx     0515020A  8  05 E0 1C 78 01 EB 02 05 
  1056)      2941.8  Rx     022A020A  0  
  1057)      2942.4  Rx     0515020B  8  EC 72 5B 1C 52 1C 82 42 
  1058)      2942.7  Rx     022A020B  0  
  1059)      2943.3  Rx     0515020C  8  F7 D3 30 BC 70 47 70 B4 
  1060)      2943.6  Rx     022A020C  0  
  1061)      2944.2  Rx     0515020D  8  03 98 04 9C 02 25 4E 68 
  1062)      2944.5  Rx     022A020D  0  
  1063)      2945.1  Rx     0515020E  8  65 F3 1C 66 4E 60 92 B2 
  1064)      2945.4  Rx     022A020E  0  
  1065)      2946.0  Rx     0515020F  8  4D 68 62 F3 D7 45 4D 60 
  1066)      2946.3  Rx     022A020F  0  
  1067)      2946.9  Rx     05150210  8  04 22 4D 68 62 F3 12 45 
  1068)      2947.1  Rx     022A0210  0  
  1069)      2947.7  Rx     05150211  8  4D 60 C0 B2 4A 68 60 F3 
  1070)      2948.0  Rx     022A0211  0  
  1071)      2948.6  Rx     05150212  8  0F 22 4A 60 DB B2 48 68 
  1072)      2948.9  Rx     022A0212  0  
  1073)      2949.5  Rx     05150213  8  63 F3 07 00 48 60 01 20 
  1074)      2949.8  Rx     022A0213  0  
  1075)      2950.4  Rx     05150214  8  08 72 00 20 48 72 01 20 
  1076)      2950.7  Rx     022A0214  0  
  1077)      2951.3  Rx     05150215  8  88 72 CC 72 70 BC 70 47 
  1078)      2951.6  Rx     022A0215  0  
  1079)      2952.2  Rx     05150216  8  30 B4 02 98 02 24 4D 68 
  1080)      2952.5  Rx     022A0216  0  
  1081)      2953.1  Rx     05150217  8  64 F3 1C 65 4D 60 92 B2 
  1082)      2953.4  Rx     022A0217  0  
  1083)      2954.0  Rx     05150218  8  4C 68 62 F3 D7 44 4C 60 
  1084)      2954.2  Rx     022A0218  0  
  1085)      2954.8  Rx     05150219  8  05 22 4C 68 62 F3 12 44 
  1086)      2955.1  Rx     022A0219  0  
  1087)      2955.7  Rx     0515021A  8  4C 60 1A 00 92 B2 12 0A 
  1088)      2956.0  Rx     022A021A  0  
  1089)      2956.6  Rx     0515021B  8  92 B2 4C 68 62 F3 0F 24 
  1090)      2956.9  Rx     022A021B  0  
  1091)      2957.5  Rx     0515021C  8  4C 60 9B B2 4A 68 63 F3 
  1092)      2957.8  Rx     022A021C  0  
  1093)      2958.4  Rx     0515021D  8  07 02 4A 60 01 22 0A 72 
  1094)      2958.6  Rx     022A021D  0  
  1095)      2959.3  Rx     0515021E  8  00 22 4A 72 08 22 8A 72 
  1096)      2959.5  Rx     022A021E  0  
  1097)      2960.2  Rx     0515021F  8  00 22 05 E0 03 78 01 EB 
  1098)      2960.4  Rx     022A021F  0  
  1099)      2961.1  Rx     05150220  8  02 04 E3 72 40 1C 52 1C 
  1100)      2961.3  Rx     022A0220  0  
  1101)      2961.9  Rx     05150221  8  08 2A F7 DB 30 BC 70 47 
  1102)      2962.2  Rx     022A0221  0  
  1103)      2962.8  Rx     05150222  8  70 B4 03 98 04 9C 02 25 
  1104)      2963.1  Rx     022A0222  0  
  1105)      2963.7  Rx     05150223  8  4E 68 65 F3 1C 66 4E 60 
  1106)      2964.0  Rx     022A0223  0  
  1107)      2964.6  Rx     05150224  8  92 B2 4D 68 62 F3 D7 45 
  1108)      2964.9  Rx     022A0224  0  
  1109)      2965.5  Rx     05150225  8  4D 60 06 22 4D 68 62 F3 
  1110)      2965.7  Rx     022A0225  0  
  1111)      2966.3  Rx     05150226  8  12 45 4D 60 1A 00 92 B2 
  1112)      2966.6  Rx     022A0226  0  
  1113)      2967.2  Rx     05150227  8  12 0A 92 B2 4D 68 62 F3 
  1114)      2967.5  Rx     022A0227  0  
  1115)      2968.1  Rx     05150228  8  0F 25 4D 60 9B B2 4A 68 
  1116)      2968.4  Rx     022A0228  0  
  1117)      2969.0  Rx     05150229  8  63 F3 07 02 4A 60 01 22 
  1118)      2969.3  Rx     022A0229  0  
  1119)      2969.9  Rx     0515022A  8  0A 72 00 22 4A 72 88 72 
  1120)      2970.2  Rx     022A022A  0  
  1121)      2970.8  Rx     0515022B  8  00 22 05 E0 23 78 01 EB 
  1122)      2971.1  Rx     022A022B  0  
  1123)      2971.7  Rx     0515022C  8  02 05 EB 72 64 1C 52 1C 
  1124)      2971.9  Rx     022A022C  0  
  1125)      2972.5  Rx     0515022D  8  03 00 DB B2 9A 42 F5 DB 
  1126)      2972.8  Rx     022A022D  0  
  1127)      2973.4  Rx     0515022E  8  70 BC 70 47 10 B5 C1 6F 
  1128)      2973.7  Rx     022A022E  0  
  1129)      2974.3  Rx     0515022F  8  D1 F8 B8 45 3C 30 C0 69 
  1130)      2974.6  Rx     022A022F  0  
  1131)      2975.2  Rx     05150230  8  03 F0 F8 F9 A1 6A 88 42 
  1132)      2975.5  Rx     022A0230  0  
  1133)      2976.1  Rx     05150231  8  01 DA 00 20 7A E0 E1 6A 
  1134)      2976.4  Rx     022A0231  0  
  1135)      2977.0  Rx     05150232  8  88 42 07 DA A1 6D 00 FB 
  1136)      2977.3  Rx     022A0232  0  
  1137)      2977.9  Rx     05150233  8  01 F0 00 13 B4 F9 84 10 
  1138)      2978.2  Rx     022A0233  0  
  1139)      2978.8  Rx     05150234  8  40 18 6F E0 21 6B 88 42 
  1140)      2979.1  Rx     022A0234  0  
  1141)      2979.7  Rx     05150235  8  07 DA E1 6D 00 FB 01 F0 
  1142)      2980.0  Rx     022A0235  0  
  1143)      2980.6  Rx     05150236  8  00 13 B4 F9 86 10 40 18 
  1144)      2980.9  Rx     022A0236  0  
  1145)      2981.5  Rx     05150237  8  64 E0 61 6B 88 42 07 DA 
  1146)      2981.8  Rx     022A0237  0  
  1147)      2982.4  Rx     05150238  8  21 6E 00 FB 01 F0 00 13 
  1148)      2982.7  Rx     022A0238  0  
  1149)      2983.3  Rx     05150239  8  B4 F9 88 10 40 18 59 E0 
  1150)      2983.5  Rx     022A0239  0  
  1151)      2984.2  Rx     0515023A  8  A1 6B 88 42 07 DA 61 6E 
  1152)      2984.4  Rx     022A023A  0  
  1153)      2985.1  Rx     0515023B  8  00 FB 01 F0 00 13 B4 F9 
  1154)      2985.4  Rx     022A023B  0  
  1155)      2986.0  Rx     0515023C  8  8A 10 40 18 4E E0 E1 6B 
  1156)      2986.2  Rx     022A023C  0  
  1157)      2986.8  Rx     0515023D  8  88 42 07 DA A1 6E 00 FB 
  1158)      2987.1  Rx     022A023D  0  
  1159)      2987.8  Rx     0515023E  8  01 F0 00 13 B4 F9 8C 10 
  1160)      2988.1  Rx     022A023E  0  
  1161)      2988.7  Rx     0515023F  8  40 18 43 E0 21 6C 88 42 
  1162)      2988.9  Rx     022A023F  0  
  1163)      2989.6  Rx     05150240  8  07 DA E1 6E 00 FB 01 F0 
  1164)      2989.9  Rx     022A0240  0  
  1165)      2990.5  Rx     05150241  8  00 13 B4 F9 8E 10 40 18 
  1166)      2990.8  Rx     022A0241  0  
  1167)      2991.4  Rx     05150242  8  38 E0 61 6C 88 42 07 DA 
  1168)      2991.6  Rx     022A0242  0  
  1169)      2992.2  Rx     05150243  8  21 6F 00 FB 01 F0 00 13 
  1170)      2992.5  Rx     022A0243  0  
  1171)      2993.1  Rx     05150244  8  B4 F9 90 10 40 18 2D E0 
  1172)      2993.4  Rx     022A0244  0  
  1173)      2994.1  Rx     05150245  8  A1 6C 88 42 07 DA 61 6F 
  1174)      2994.3  Rx     022A0245  0  
  1175)      2995.0  Rx     05150246  8  00 FB 01 F0 00 13 B4 F9 
  1176)      2995.3  Rx     022A0246  0  
  1177)      2995.9  Rx     05150247  8  92 10 40 18 22 E0 E1 6C 
  1178)      2996.2  Rx     022A0247  0  
  1179)      2996.8  Rx     05150248  8  88 42 07 DA A1 6F 00 FB 
  1180)      2997.0  Rx     022A0248  0  
  1181)      2997.7  Rx     05150249  8  01 F0 00 13 B4 F9 94 10 
  1182)      2998.0  Rx     022A0249  0  
  1183)      2998.6  Rx     0515024A  8  40 18 17 E0 21 6D 88 42 
  1184)      2998.9  Rx     022A024A  0  
  1185)      2999.5  Rx     0515024B  8  07 DA E1 6F 00 FB 01 F0 
  1186)      2999.8  Rx     022A024B  0  
  1187)      3000.4  Rx     0515024C  8  00 13 B4 F9 96 10 40 18 
  1188)      3000.7  Rx     022A024C  0  
  1189)      3001.2  Rx     0515024D  8  0C E0 61 6D 88 42 08 DA 
  1190)      3001.5  Rx     022A024D  0  
  1191)      3002.1  Rx     0515024E  8  D4 F8 80 10 00 FB 01 F0 
  1192)      3002.4  Rx     022A024E  0  
  1193)      3003.0  Rx     0515024F  8  00 13 B4 F9 98 10 40 18 
  1194)      3003.3  Rx     022A024F  0  
  1195)      3004.0  Rx     05150250  8  00 E0 64 20 00 28 01 D5 
  1196)      3004.2  Rx     022A0250  0  
  1197)      3004.9  Rx     05150251  8  00 20 02 E0 65 28 00 DB 
  1198)      3005.2  Rx     022A0251  0  
  1199)      3005.8  Rx     05150252  8  64 20 80 B2 10 BD 2D E9 
  1200)      3006.1  Rx     022A0252  0  
  1201)      3006.7  Rx     05150253  8  F8 43 80 46 18 F1 3C 04 
  1202)      3006.9  Rx     022A0253  0  
  1203)      3007.6  Rx     05150254  8  D8 F8 7C 90 D8 F8 7C 00 
  1204)      3007.9  Rx     022A0254  0  
  1205)      3008.5  Rx     05150255  8  D0 F8 B8 55 A0 68 03 F0 
  1206)      3008.8  Rx     022A0255  0  
  1207)      3009.4  Rx     05150256  8  0B F9 A0 68 03 F0 18 F9 
  1208)      3009.7  Rx     022A0256  0  
  1209)      3010.3  Rx     05150257  8  19 F5 35 76 20 6A 03 F0 
  1210)      3010.6  Rx     022A0257  0  
  1211)      3011.1  Rx     05150258  8  93 FA 07 00 38 1E 4F F6 
  1212)      3011.4  Rx     022A0258  0  
  1213)      3012.0  Rx     05150259  8  E9 51 88 42 00 D3 01 27 
  1214)      3012.3  Rx     022A0259  0  
  1215)      3012.9  Rx     0515025A  8  B7 82 40 46 FF F7 4E FF 
  1216)      3013.2  Rx     022A025A  0  
  1217)      3013.8  Rx     0515025B  8  30 76 99 F8 F8 01 01 28 
  1218)      3014.1  Rx     022A025B  0  
  1219)      3014.8  Rx     0515025C  8  04 D1 00 20 89 F8 F8 01 
  1220)      3015.0  Rx     022A025C  0  
  1221)      3015.7  Rx     0515025D  8  00 20 70 82 70 8A 14 28 
  1222)      3015.9  Rx     022A025D  0  
  1223)      3016.5  Rx     0515025E  8  13 DA 70 8A 40 1C 70 82 
  1224)      3016.8  Rx     022A025E  0  
  1225)      3017.5  Rx     0515025F  8  31 7E B0 7D 09 1A 0A 29 
  1226)      3017.8  Rx     022A025F  0  
  1227)      3018.4  Rx     05150260  8  0B DB 30 8A 40 1C 30 82 
  1228)      3018.7  Rx     022A0260  0  
  1229)      3019.3  Rx     05150261  8  30 8A 0A 28 05 DB 00 20 
  1230)      3019.5  Rx     022A0261  0  
  1231)      3020.2  Rx     05150262  8  30 82 30 7E B0 75 B0 7D 
  1232)      3020.4  Rx     022A0262  0  
  1233)      3021.0  Rx     05150263  8  70 76 40 F2 D1 70 87 42 
  1234)      3021.3  Rx     022A0263  0  
  1235)      3021.9  Rx     05150264  8  08 DB 03 20 47 43 64 20 
  1236)      3022.2  Rx     022A0264  0  
  1237)      3022.8  Rx     05150265  8  97 FB F0 F0 D0 F1 96 00 
  1238)      3023.1  Rx     022A0265  0  
  1239)      3023.6  Rx     05150266  8  B0 81 19 E0 B7 F5 7A 70 
  1240)      3023.9  Rx     022A0266  0  
  1241)      3024.5  Rx     05150267  8  40 F2 E9 31 88 42 08 D2 
  1242)      3024.8  Rx     022A0267  0  
  1243)      3025.4  Rx     05150268  8  05 20 47 43 64 20 97 FB 
  1244)      3025.7  Rx     022A0268  0  
  1245)      3026.3  Rx     05150269  8  F0 F0 D0 F5 87 70 B0 81 
  1246)      3026.6  Rx     022A0269  0  
  1247)      3027.2  Rx     0515026A  8  0A E0 B7 F5 7A 7F 07 DA 
  1248)      3027.5  Rx     022A026A  0  
  1249)      3028.1  Rx     0515026B  8  24 20 47 43 64 20 97 FB 
  1250)      3028.4  Rx     022A026B  0  
  1251)      3029.0  Rx     0515026C  8  F0 F0 D0 F5 07 70 B0 81 
  1252)      3029.3  Rx     022A026C  0  
  1253)      3029.9  Rx     0515026D  8  31 7E B0 7D 08 1A 01 00 
  1254)      3030.2  Rx     022A026D  0  
  1255)      3030.8  Rx     0515026E  8  09 B2 05 29 06 DB B1 89 
  1256)      3031.0  Rx     022A026E  0  
  1257)      3031.7  Rx     0515026F  8  4F F4 00 50 41 43 09 13 
  1258)      3032.0  Rx     022A026F  0  
  1259)      3032.6  Rx     05150270  8  B1 81 30 E0 00 B2 10 F1 
  1260)      3032.9  Rx     022A0270  0  
  1261)      3033.5  Rx     05150271  8  04 0F 06 DA B1 89 4F F4 
  1262)      3033.8  Rx     022A0271  0  
  1263)      3034.4  Rx     05150272  8  00 60 41 43 09 13 B1 81 
  1264)      3034.7  Rx     022A0272  0  
  1265)      3035.3  Rx     05150273  8  25 E0 70 7E 15 38 05 28 
  1266)      3035.5  Rx     022A0273  0  
  1267)      3036.1  Rx     05150274  8  06 D2 B1 89 40 F6 CC 40 
  1268)      3036.4  Rx     022A0274  0  
  1269)      3037.0  Rx     05150275  8  41 43 09 13 B1 81 1A E0 
  1270)      3037.3  Rx     022A0275  0  
  1271)      3037.9  Rx     05150276  8  70 7E 0B 38 0A 28 06 D2 
  1272)      3038.2  Rx     022A0276  0  
  1273)      3038.8  Rx     05150277  8  B1 89 4F F4 00 60 41 43 
  1274)      3039.1  Rx     022A0277  0  
  1275)      3039.7  Rx     05150278  8  09 13 B1 81 0F E0 70 7E 
  1276)      3039.9  Rx     022A0278  0  
  1277)      3040.6  Rx     05150279  8  0B 28 06 DA B1 89 40 F2 
  1278)      3040.8  Rx     022A0279  0  
  1279)      3041.4  Rx     0515027A  8  CC 40 41 43 09 13 B1 81 
  1280)      3041.7  Rx     022A027A  0  
  1281)      3042.3  Rx     0515027B  8  05 E0 B1 89 4F F4 80 50 
  1282)      3042.6  Rx     022A027B  0  
  1283)      3043.2  Rx     0515027C  8  41 43 09 13 B1 81 B1 89 
  1284)      3043.5  Rx     022A027C  0  
  1285)      3044.1  Rx     0515027D  8  D5 F8 9C 00 41 43 09 13 
  1286)      3044.4  Rx     022A027D  0  
  1287)      3045.0  Rx     0515027E  8  B1 81 B0 7D 31 7E 88 42 
  1288)      3045.3  Rx     022A027E  0  
  1289)      3045.9  Rx     0515027F  8  10 D3 30 89 41 1C 31 81 
  1290)      3046.2  Rx     022A027F  0  
  1291)      3046.8  Rx     05150280  8  B1 89 80 B2 88 42 09 D3 
  1292)      3047.1  Rx     022A0280  0  
  1293)      3047.7  Rx     05150281  8  00 20 30 81 B0 7D 00 28 
  1294)      3063.9  Rx     022A0281  0  
  1295)      3064.6  Rx     05150282  8  02 D0 B0 7D 40 1E B0 75 
  1296)      3064.9  Rx     022A0282  0  
  1297)      3065.5  Rx     05150283  8  B0 7D 70 76 71 7E E0 69 
  1298)      3065.8  Rx     022A0283  0  
  1299)      3066.4  Rx     05150284  8  03 F0 33 F9 BD E8 F1 83 
  1300)      3066.7  Rx     022A0284  0  
  1301)      3067.3  Rx     05150285  8  C2 6F 92 F8 00 02 00 28 
  1302)      3067.6  Rx     022A0285  0  
  1303)      3068.2  Rx     05150286  8  11 D0 B2 F8 02 02 43 1C 
  1304)      3068.4  Rx     022A0286  0  
  1305)      3069.0  Rx     05150287  8  A2 F8 02 32 80 B2 89 B2 
  1306)      3069.3  Rx     022A0287  0  
  1307)      3069.9  Rx     05150288  8  88 42 08 D3 00 20 A2 F8 
  1308)      3070.2  Rx     022A0288  0  
  1309)      3070.9  Rx     05150289  8  02 02 00 20 82 F8 FF 01 
  1310)      3071.1  Rx     022A0289  0  
  1311)      3071.8  Rx     0515028A  8  01 20 82 F8 01 02 92 F8 
  1312)      3072.0  Rx     022A028A  0  
  1313)      3072.7  Rx     0515028B  8  01 02 00 28 03 D0 01 20 
  1314)      3073.0  Rx     022A028B  0  
  1315)      3073.6  Rx     0515028C  8  82 F8 FE 01 02 E0 00 20 
  1316)      3073.9  Rx     022A028C  0  
  1317)      3074.5  Rx     0515028D  8  82 F8 FE 01 70 47 C2 6F 
  1318)      3074.8  Rx     022A028D  0  
  1319)      3075.4  Rx     0515028E  8  92 F8 FA 01 00 28 11 D0 
  1320)      3075.7  Rx     022A028E  0  
  1321)      3076.3  Rx     0515028F  8  B2 F8 FC 01 43 1C A2 F8 
  1322)      3076.5  Rx     022A028F  0  
  1323)      3077.2  Rx     05150290  8  FC 31 80 B2 89 B2 88 42 
  1324)      3077.5  Rx     022A0290  0  
  1325)      3078.0  Rx     05150291  8  08 D3 00 20 A2 F8 FC 01 
  1326)      3078.3  Rx     022A0291  0  
  1327)      3079.0  Rx     05150292  8  00 20 82 F8 F9 01 01 20 
  1328)      3079.2  Rx     022A0292  0  
  1329)      3079.9  Rx     05150293  8  82 F8 FB 01 92 F8 FB 01 
  1330)      3080.1  Rx     022A0293  0  
  1331)      3080.8  Rx     05150294  8  00 28 03 D0 01 20 82 F8 
  1332)      3081.1  Rx     022A0294  0  
  1333)      3081.7  Rx     05150295  8  F8 01 02 E0 00 20 82 F8 
  1334)      3082.0  Rx     022A0295  0  
  1335)      3082.6  Rx     05150296  8  F8 01 70 47 C2 6F 92 F8 
  1336)      3082.9  Rx     022A0296  0  
  1337)      3083.5  Rx     05150297  8  F4 01 00 28 11 D0 B2 F8 
  1338)      3083.8  Rx     022A0297  0  
  1339)      3084.4  Rx     05150298  8  F6 01 43 1C A2 F8 F6 31 
  1340)      3084.7  Rx     022A0298  0  
  1341)      3085.3  Rx     05150299  8  80 B2 89 B2 88 42 08 D3 
  1342)      3085.6  Rx     022A0299  0  
  1343)      3086.2  Rx     0515029A  8  00 20 A2 F8 F6 01 00 20 
  1344)      3086.5  Rx     022A029A  0  
  1345)      3087.1  Rx     0515029B  8  82 F8 F3 01 01 20 82 F8 
  1346)      3087.3  Rx     022A029B  0  
  1347)      3087.9  Rx     0515029C  8  F5 01 92 F8 F5 01 00 28 
  1348)      3088.2  Rx     022A029C  0  
  1349)      3088.9  Rx     0515029D  8  03 D0 01 20 82 F8 F2 01 
  1350)      3089.2  Rx     022A029D  0  
  1351)      3089.8  Rx     0515029E  8  02 E0 00 20 82 F8 F2 01 
  1352)      3090.1  Rx     022A029E  0  
  1353)      3090.7  Rx     0515029F  8  70 47 C0 6F 90 F8 F2 01 
  1354)      3091.0  Rx     022A029F  0  
  1355)      3091.6  Rx     051502A0  8  70 47 C0 6F 90 F8 FE 01 
  1356)      3091.9  Rx     022A02A0  0  
  1357)      3092.5  Rx     051502A1  8  70 47 C0 6F 90 F8 F8 01 
  1358)      3092.8  Rx     022A02A1  0  
  1359)      3093.4  Rx     051502A2  8  70 47 38 B5 10 F1 3C 04 
  1360)      3093.7  Rx     022A02A2  0  
  1361)      3094.3  Rx     051502A3  8  20 69 03 F0 51 FA 05 00 
  1362)      3094.6  Rx     022A02A3  0  
  1363)      3095.2  Rx     051502A4  8  20 69 03 F0 47 FA C0 88 
  1364)      3095.5  Rx     022A02A4  0  
  1365)      3096.1  Rx     051502A5  8  45 43 4F F4 7A 70 B5 FB 
  1366)      3096.4  Rx     022A02A5  0  
  1367)      3096.9  Rx     051502A6  8  F0 F0 10 F1 01 0F 00 D1 
  1368)      3097.2  Rx     022A02A6  0  
  1369)      3097.8  Rx     051502A7  8  00 20 32 BD 2D E9 FE 4F 
  1370)      3098.1  Rx     022A02A7  0  
  1371)      3098.7  Rx     051502A8  8  04 00 14 F1 3C 05 E6 6F 
  1372)      3099.0  Rx     022A02A8  0  
  1373)      3099.6  Rx     051502A9  8  16 F5 31 77 16 F5 04 78 
  1374)      3099.9  Rx     022A02A9  0  
  1375)      3100.5  Rx     051502AA  8  E8 69 03 F0 0F F8 A9 68 
  1376)      3100.8  Rx     022A02AA  0  
  1377)      3101.4  Rx     051502AB  8  01 A8 02 F0 C9 FF A8 68 
  1378)      3101.7  Rx     022A02AB  0  
  1379)      3102.3  Rx     051502AC  8  02 F0 C2 FF 81 46 68 6A 
  1380)      3102.6  Rx     022A02AC  0  
  1381)      3103.2  Rx     051502AD  8  03 F0 7B FA 86 F8 A4 05 
  1382)      3103.5  Rx     022A02AD  0  
  1383)      3104.1  Rx     051502AE  8  C9 F3 80 30 00 28 05 D0 
  1384)      3104.4  Rx     022A02AE  0  
  1385)      3105.0  Rx     051502AF  8  A8 6A 03 F0 91 FA AD F8 
  1386)      3105.3  Rx     022A02AF  0  
  1387)      3105.9  Rx     051502B0  8  00 00 03 E0 B6 F8 02 03 
  1388)      3106.2  Rx     022A02B0  0  
  1389)      3106.8  Rx     051502B1  8  AD F8 00 00 96 F8 F9 01 
  1390)      3107.1  Rx     022A02B1  0  
  1391)      3107.7  Rx     051502B2  8  00 28 0C D0 01 20 86 F8 
  1392)      3108.0  Rx     022A02B2  0  
  1393)      3108.6  Rx     051502B3  8  F8 01 E8 69 03 F0 78 F8 
  1394)      3108.9  Rx     022A02B3  0  
  1395)      3109.5  Rx     051502B4  8  87 F8 29 00 97 F8 29 00 
  1396)      3109.8  Rx     022A02B4  0  
  1397)      3110.4  Rx     051502B5  8  87 F8 26 00 02 E0 20 00 
  1398)      3110.7  Rx     022A02B5  0  
  1399)      3111.3  Rx     051502B6  8  FF F7 71 FE 20 00 FF F7 
  1400)      3111.6  Rx     022A02B6  0  
  1401)      3112.2  Rx     051502B7  8  AC FF 0A 21 B0 FB F1 FA 
  1402)      3112.5  Rx     022A02B7  0  
  1403)      3113.1  Rx     051502B8  8  D6 F8 AC B5 64 20 00 FB 
  1404)      3113.4  Rx     022A02B8  0  
  1405)      3114.0  Rx     051502B9  8  0B FB 96 F8 A4 05 00 28 
  1406)      3114.3  Rx     022A02B9  0  
  1407)      3114.9  Rx     051502BA  8  03 D0 96 F8 A4 05 06 28 
  1408)      3115.2  Rx     022A02BA  0  
  1409)      3115.8  Rx     051502BB  8  01 D1 4F F6 FF 7B 0A 21 
  1410)      3116.1  Rx     022A02BB  0  
  1411)      3116.7  Rx     051502BC  8  20 00 FF F7 21 FF 14 21 
  1412)      3117.0  Rx     022A02BC  0  
  1413)      3117.6  Rx     051502BD  8  20 00 FF F7 40 FF 4B 21 
  1414)      3117.9  Rx     022A02BD  0  
  1415)      3118.5  Rx     051502BE  8  20 00 FF F7 5F FF C9 F3 
  1416)      3118.8  Rx     022A02BE  0  
  1417)      3119.4  Rx     051502BF  8  00 10 00 28 06 D0 96 F8 
  1418)      3119.7  Rx     022A02BF  0  
  1419)      3120.3  Rx     051502C0  8  F9 01 00 28 02 D1 00 20 
  1420)      3120.6  Rx     022A02C0  0  
  1421)      3121.2  Rx     051502C1  8  87 F8 29 00 01 98 C0 F3 
  1422)      3121.5  Rx     022A02C1  0  
  1423)      3122.1  Rx     051502C2  8  C0 50 00 28 0E D0 01 98 
  1424)      3122.4  Rx     022A02C2  0  
  1425)      3123.0  Rx     051502C3  8  30 F4 00 00 01 90 20 00 
  1426)      3123.3  Rx     022A02C3  0  
  1427)      3124.0  Rx     051502C4  8  FF F7 A8 FD 87 F8 29 00 
  1428)      3124.3  Rx     022A02C4  0  
  1429)      3124.9  Rx     051502C5  8  01 9A D2 43 01 99 A8 68 
  1430)      3125.2  Rx     022A02C5  0  
  1431)      3125.7  Rx     051502C6  8  02 F0 3A FF 97 F8 29 00 
  1432)      3126.0  Rx     022A02C6  0  
  1433)      3126.6  Rx     051502C7  8  00 28 18 D1 C9 F3 00 10 
  1434)      3126.9  Rx     022A02C7  0  
  1435)      3127.5  Rx     051502C8  8  00 28 07 D1 96 F8 F9 01 
  1436)      3127.8  Rx     022A02C8  0  
  1437)      3128.4  Rx     051502C9  8  00 28 03 D1 01 20 87 F8 
  1438)      3128.7  Rx     022A02C9  0  
  1439)      3129.3  Rx     051502CA  8  29 00 1C E0 96 F8 F9 01 
  1440)      3129.6  Rx     022A02CA  0  
  1441)      3130.2  Rx     051502CB  8  00 28 18 D0 59 F0 10 09 
  1442)      3130.5  Rx     022A02CB  0  
  1443)      3131.1  Rx     051502CC  8  7F EA 09 02 49 46 A8 68 
  1444)      3131.4  Rx     022A02CC  0  
  1445)      3132.0  Rx     051502CD  8  02 F0 13 FF 0F E0 C9 F3 
  1446)      3132.3  Rx     022A02CD  0  
  1447)      3133.0  Rx     051502CE  8  00 10 00 28 0B D0 96 F8 
  1448)      3133.3  Rx     022A02CE  0  
  1449)      3133.9  Rx     051502CF  8  F9 01 00 28 07 D0 39 F0 
  1450)      3134.2  Rx     022A02CF  0  
  1451)      3134.8  Rx     051502D0  8  10 09 7F EA 09 02 49 46 
  1452)      3135.1  Rx     022A02D0  0  
  1453)      3135.7  Rx     051502D1  8  A8 68 02 F0 02 FF 02 20 
  1454)      3136.0  Rx     022A02D1  0  
  1455)      3136.6  Rx     051502D2  8  D8 F8 04 10 60 F3 1C 61 
  1456)      3136.9  Rx     022A02D2  0  
  1457)      3137.5  Rx     051502D3  8  C8 F8 04 10 D8 F8 04 00 
  1458)      3137.8  Rx     022A02D3  0  
  1459)      3138.4  Rx     051502D4  8  50 F4 78 00 C8 F8 04 00 
  1460)      3138.7  Rx     022A02D4  0  
  1461)      3139.3  Rx     051502D5  8  D8 F8 04 00 30 F4 E0 20 
  1462)      3139.6  Rx     022A02D5  0  
  1463)      3140.2  Rx     051502D6  8  C8 F8 04 00 32 20 D8 F8 
  1464)      3140.5  Rx     022A02D6  0  
  1465)      3141.1  Rx     051502D7  8  04 10 60 F3 0F 21 C8 F8 
  1466)      3141.4  Rx     022A02D7  0  
  1467)      3142.0  Rx     051502D8  8  04 10 D8 F8 04 00 00 0A 
  1468)      3142.3  Rx     022A02D8  0  
  1469)      3142.9  Rx     051502D9  8  00 02 C8 F8 04 00 01 20 
  1470)      3143.2  Rx     022A02D9  0  
  1471)      3143.8  Rx     051502DA  8  88 F8 08 00 00 20 88 F8 
  1472)      3144.1  Rx     022A02DA  0  
  1473)      3144.7  Rx     051502DB  8  09 00 08 20 88 F8 0A 00 
  1474)      3145.0  Rx     022A02DB  0  
  1475)      3145.6  Rx     051502DC  8  97 F8 29 00 88 F8 0B 00 
  1476)      3145.9  Rx     022A02DC  0  
  1477)      3146.5  Rx     051502DD  8  88 F8 0C A0 5F EA 1A 2A 
  1478)      3146.8  Rx     022A02DD  0  
  1479)      3147.4  Rx     051502DE  8  88 F8 0D A0 BD F8 00 00 
  1480)      3147.7  Rx     022A02DE  0  
  1481)      3148.3  Rx     051502DF  8  88 F8 0E 00 B6 F8 F8 02 
  1482)      3148.6  Rx     022A02DF  0  
  1483)      3149.2  Rx     051502E0  8  88 F8 0F 00 B6 F8 F8 02 
  1484)      3149.5  Rx     022A02E0  0  
  1485)      3150.1  Rx     051502E1  8  80 B2 00 0A 88 F8 10 00 
  1486)      3150.4  Rx     022A02E1  0  
  1487)      3151.0  Rx     051502E2  8  88 F8 11 B0 5F EA 1B 2B 
  1488)      3151.3  Rx     022A02E2  0  
  1489)      3151.9  Rx     051502E3  8  88 F8 12 B0 B6 F8 B6 05 
  1490)      3152.2  Rx     022A02E3  0  
  1491)      3152.8  Rx     051502E4  8  41 1C A6 F8 B6 15 80 B2 
  1492)      3153.1  Rx     022A02E4  0  
  1493)      3153.7  Rx     051502E5  8  05 28 07 DB 00 20 A6 F8 
  1494)      3154.0  Rx     022A02E5  0  
  1495)      3154.5  Rx     051502E6  8  B6 05 41 46 DF F8 E8 0C 
  1496)      3154.8  Rx     022A02E6  0  
  1497)      3155.4  Rx     051502E7  8  FF F7 9C FB BD E8 F7 8F 
  1498)      3155.7  Rx     022A02E7  0  
  1499)      3156.4  Rx     051502E8  8  B5 6D 00 00 83 6E 00 00 
  1500)      3156.7  Rx     022A02E8  0  
  1501)      3157.3  Rx     051502E9  8  2B 6E 00 00 2D E9 F8 4F 
  1502)      3157.6  Rx     022A02E9  0  
  1503)      3158.2  Rx     051502EA  8  2D ED 02 8B 83 46 1B F1 
  1504)      3158.5  Rx     022A02EA  0  
  1505)      3159.1  Rx     051502EB  8  3C 08 DB F8 7C 40 D8 F8 
  1506)      3159.4  Rx     022A02EB  0  
  1507)      3160.0  Rx     051502EC  8  08 00 02 F0 B1 FE 05 00 
  1508)      3160.3  Rx     022A02EC  0  
  1509)      3160.9  Rx     051502ED  8  D8 F8 24 00 03 F0 79 F9 
  1510)      3161.2  Rx     022A02ED  0  
  1511)      3161.8  Rx     051502EE  8  82 46 D8 F8 1C 00 02 F0 
  1512)      3162.1  Rx     022A02EE  0  
  1513)      3162.7  Rx     051502EF  8  8E FF 06 00 D8 F8 20 00 
  1514)      3163.0  Rx     022A02EF  0  
  1515)      3163.6  Rx     051502F0  8  03 F0 32 F8 07 00 D8 F8 
  1516)      3163.9  Rx     022A02F0  0  
  1517)      3164.5  Rx     051502F1  8  1C 00 02 F0 81 FF 81 46 
  1518)      3164.8  Rx     022A02F1  0  
  1519)      3165.4  Rx     051502F2  8  DF F8 90 8C 58 46 FF F7 
  1520)      3165.7  Rx     022A02F2  0  
  1521)      3166.3  Rx     051502F3  8  BC FE C8 F8 00 00 70 88 
  1522)      3166.6  Rx     022A02F3  0  
  1523)      3167.2  Rx     051502F4  8  64 28 29 DB 94 F8 F9 01 
  1524)      3167.5  Rx     022A02F4  0  
  1525)      3168.1  Rx     051502F5  8  01 28 25 D1 DF F8 78 0C 
  1526)      3168.4  Rx     022A02F5  0  
  1527)      3169.0  Rx     051502F6  8  01 88 33 29 20 DA 01 88 
  1528)      3169.3  Rx     022A02F6  0  
  1529)      3169.9  Rx     051502F7  8  49 1C 01 80 00 20 DF F8 
  1530)      3170.2  Rx     022A02F7  0  
  1531)      3170.8  Rx     051502F8  8  6C 1C 08 80 7D 20 DF F8 
  1532)      3171.1  Rx     022A02F8  0  
  1533)      3171.7  Rx     051502F9  8  68 1C 08 60 70 88 03 F0 
  1534)      3172.0  Rx     022A02F9  0  
  1535)      3172.6  Rx     051502FA  8  7B F9 00 22 DF F8 5C 3C 
  1536)      3172.9  Rx     022A02FA  0  
  1537)      3173.5  Rx     051502FB  8  03 F0 84 F9 00 22 DF F8 
  1538)      3173.8  Rx     022A02FB  0  
  1539)      3174.5  Rx     051502FC  8  58 3C 03 F0 A3 FA 03 F0 
  1540)      3174.7  Rx     022A02FC  0  
  1541)      3175.4  Rx     051502FD  8  73 FB 50 21 48 43 00 13 
  1542)      3175.7  Rx     022A02FD  0  
  1543)      3176.3  Rx     051502FE  8  DF F8 48 1C 08 80 3B E0 
  1544)      3176.6  Rx     022A02FE  0  
  1545)      3177.2  Rx     051502FF  8  94 F8 F9 01 00 28 33 D1 
  1546)      3177.5  Rx     022A02FF  0  
  1547)      3178.1  Rx     05150300  8  DF F8 28 0C 01 88 40 F2 
  1548)      3178.4  Rx     022A0300  0  
  1549)      3179.0  Rx     05150301  8  2D 12 91 42 2C DA 01 88 
  1550)      3187.9  Rx     022A0301  0  
  1551)      3188.5  Rx     05150302  8  49 1C 01 80 00 20 DF F8 
  1552)      3188.8  Rx     022A0302  0  
  1553)      3189.4  Rx     05150303  8  10 1C 08 80 7D 20 DF F8 
  1554)      3189.7  Rx     022A0303  0  
  1555)      3190.3  Rx     05150304  8  10 1C 08 60 DF F8 18 0C 
  1556)      3190.6  Rx     022A0304  0  
  1557)      3191.2  Rx     05150305  8  01 88 4A 1C 02 80 89 B2 
  1558)      3191.5  Rx     022A0305  0  
  1559)      3192.1  Rx     05150306  8  C8 29 15 DB 94 F8 ED 02 
  1560)      3192.4  Rx     022A0306  0  
  1561)      3193.0  Rx     05150307  8  03 F0 46 F9 00 22 DF F8 
  1562)      3193.3  Rx     022A0307  0  
  1563)      3194.0  Rx     05150308  8  04 3C 03 F0 4F F9 00 22 
  1564)      3194.2  Rx     022A0308  0  
  1565)      3194.8  Rx     05150309  8  DF F8 EC 3B 03 F0 6E FA 
  1566)      3195.1  Rx     022A0309  0  
  1567)      3195.7  Rx     0515030A  8  03 F0 3E FB 50 21 48 43 
  1568)      3196.0  Rx     022A030A  0  
  1569)      3196.7  Rx     0515030B  8  00 13 DF F8 E0 1B 08 80 
  1570)      3196.9  Rx     022A030B  0  
  1571)      3197.6  Rx     0515030C  8  42 F2 10 70 30 80 03 E0 
  1572)      3197.8  Rx     022A030C  0  
  1573)      3198.5  Rx     0515030D  8  00 20 DF F8 D4 1B 08 80 
  1574)      3198.8  Rx     022A030D  0  
  1575)      3199.3  Rx     0515030E  8  5F FA 8A FA BA F1 01 0F 
  1576)      3199.6  Rx     022A030E  0  
  1577)      3200.2  Rx     0515030F  8  09 D0 4D D3 BA F1 03 0F 
  1578)      3200.5  Rx     022A030F  0  
  1579)      3201.1  Rx     05150310  8  20 D0 12 D3 BA F1 05 0F 
  1580)      3201.4  Rx     022A0310  0  
  1581)      3202.0  Rx     05150311  8  38 D0 29 D3 44 E0 4F F4 
  1582)      3202.3  Rx     022A0311  0  
  1583)      3202.9  Rx     05150312  8  80 50 C4 F8 A8 05 DF F8 
  1584)      3203.2  Rx     022A0312  0  
  1585)      3203.8  Rx     05150313  8  A4 0B 01 88 4F F4 80 50 
  1586)      3204.1  Rx     022A0313  0  
  1587)      3204.7  Rx     05150314  8  41 43 09 13 C4 F8 AC 15 
  1588)      3205.0  Rx     022A0314  0  
  1589)      3205.6  Rx     05150315  8  43 E0 40 F6 99 50 C4 F8 
  1590)      3205.8  Rx     022A0315  0  
  1591)      3206.5  Rx     05150316  8  A8 05 DF F8 88 1B 09 88 
  1592)      3206.7  Rx     022A0316  0  
  1593)      3207.4  Rx     05150317  8  00 FB 01 F0 00 13 C4 F8 
  1594)      3207.7  Rx     022A0317  0  
  1595)      3208.3  Rx     05150318  8  AC 05 36 E0 40 F6 CC 40 
  1596)      3208.6  Rx     022A0318  0  
  1597)      3209.2  Rx     05150319  8  C4 F8 A8 05 DF F8 6C 0B 
  1598)      3209.5  Rx     022A0319  0  
  1599)      3210.1  Rx     0515031A  8  01 88 40 F6 66 20 41 43 
  1600)      3210.4  Rx     022A031A  0  
  1601)      3211.0  Rx     0515031B  8  09 13 C4 F8 AC 15 28 E0 
  1602)      3211.3  Rx     022A031B  0  
  1603)      3211.9  Rx     0515031C  8  4F F4 40 60 C4 F8 A8 05 
  1604)      3212.1  Rx     022A031C  0  
  1605)      3212.7  Rx     0515031D  8  DF F8 50 0B 01 88 40 F2 
  1606)      3213.0  Rx     022A031D  0  
  1607)      3213.6  Rx     0515031E  8  33 70 41 43 09 13 C4 F8 
  1608)      3213.9  Rx     022A031E  0  
  1609)      3214.5  Rx     0515031F  8  AC 15 1A E0 40 F6 66 20 
  1610)      3214.8  Rx     022A031F  0  
  1611)      3215.4  Rx     05150320  8  C4 F8 A8 05 DF F8 34 0B 
  1612)      3215.7  Rx     022A0320  0  
  1613)      3216.3  Rx     05150321  8  01 88 40 F2 99 50 41 43 
  1614)      3216.6  Rx     022A0321  0  
  1615)      3217.2  Rx     05150322  8  09 13 C4 F8 AC 15 0C E0 
  1616)      3217.5  Rx     022A0322  0  
  1617)      3218.1  Rx     05150323  8  4F F4 80 50 C4 F8 A8 05 
  1618)      3218.4  Rx     022A0323  0  
  1619)      3219.0  Rx     05150324  8  DF F8 18 0B 01 88 4F F4 
  1620)      3219.3  Rx     022A0324  0  
  1621)      3219.9  Rx     05150325  8  80 50 41 43 09 13 C4 F8 
  1622)      3220.2  Rx     022A0325  0  
  1623)      3220.8  Rx     05150326  8  AC 15 B7 F5 96 7F 09 DB 
  1624)      3221.1  Rx     022A0326  0  
  1625)      3221.7  Rx     05150327  8  D4 F8 A8 05 47 43 3F 13 
  1626)      3222.0  Rx     022A0327  0  
  1627)      3222.6  Rx     05150328  8  40 F2 2D 10 87 42 01 DA 
  1628)      3222.9  Rx     022A0328  0  
  1629)      3223.5  Rx     05150329  8  4F F4 96 77 C9 2F 00 DA 
  1630)      3223.8  Rx     022A0329  0  
  1631)      3224.3  Rx     0515032A  8  C8 27 28 00 C0 B2 0A 28 
  1632)      3224.6  Rx     022A032A  0  
  1633)      3225.2  Rx     0515032B  8  07 D0 28 00 C0 B2 0B 28 
  1634)      3225.5  Rx     022A032B  0  
  1635)      3226.1  Rx     0515032C  8  03 D0 ED B2 0C 2D 40 F0 
  1636)      3226.4  Rx     022A032C  0  
  1637)      3227.0  Rx     0515032D  8  BE 80 DF F8 34 1D D8 F8 
  1638)      3227.3  Rx     022A032D  0  
  1639)      3227.9  Rx     0515032E  8  00 20 08 68 12 1A B2 F5 
  1640)      3228.2  Rx     022A032E  0  
  1641)      3228.8  Rx     0515032F  8  FA 7F 6C D3 D8 F8 00 00 
  1642)      3229.1  Rx     022A032F  0  
  1643)      3229.7  Rx     05150330  8  08 60 DF F8 80 5D 28 68 
  1644)      3230.0  Rx     022A0330  0  
  1645)      3230.6  Rx     05150331  8  00 28 00 F0 BD 80 DF F8 
  1646)      3230.9  Rx     022A0331  0  
  1647)      3231.5  Rx     05150332  8  A0 7A 38 68 33 28 01 DA 
  1648)      3231.8  Rx     022A0332  0  
  1649)      3232.4  Rx     05150333  8  32 20 38 60 DF F8 04 1D 
  1650)      3232.7  Rx     022A0333  0  
  1651)      3233.3  Rx     05150334  8  DF F8 64 8D D8 F8 00 20 
  1652)      3233.6  Rx     022A0334  0  
  1653)      3234.2  Rx     05150335  8  0A 20 42 43 28 68 B2 FB 
  1654)      3234.5  Rx     022A0335  0  
  1655)      3235.1  Rx     05150336  8  F0 F0 08 60 9F ED A6 8B 
  1656)      3235.4  Rx     022A0336  0  
  1657)      3236.0  Rx     05150337  8  D1 F8 00 A0 28 68 03 F0 
  1658)      3236.3  Rx     022A0337  0  
  1659)      3236.9  Rx     05150338  8  83 F8 00 22 DF F8 7C 3A 
  1660)      3237.2  Rx     022A0338  0  
  1661)      3237.8  Rx     05150339  8  03 F0 8C F8 53 EC 18 2B 
  1662)      3238.1  Rx     022A0339  0  
  1663)      3238.7  Rx     0515033A  8  03 F0 AC F9 03 F0 7C FA 
  1664)      3239.0  Rx     022A033A  0  
  1665)      3239.6  Rx     0515033B  8  40 00 00 13 00 FB 0A F0 
  1666)      3239.9  Rx     022A033B  0  
  1667)      3240.5  Rx     0515033C  8  4F F4 61 61 90 FB F1 F1 
  1668)      3240.8  Rx     022A033C  0  
  1669)      3241.4  Rx     0515033D  8  3A 68 38 68 09 1A 40 F2 
  1670)      3241.7  Rx     022A033D  0  
  1671)      3242.3  Rx     0515033E  8  06 50 41 43 12 EB 21 32 
  1672)      3242.6  Rx     022A033E  0  
  1673)      3243.2  Rx     0515033F  8  3A 60 00 20 C8 F8 00 00 
  1674)      3243.5  Rx     022A033F  0  
  1675)      3244.1  Rx     05150340  8  00 20 28 60 70 88 64 28 
  1676)      3244.4  Rx     022A0340  0  
  1677)      3245.0  Rx     05150341  8  0B DB 94 F8 F9 01 01 28 
  1678)      3245.3  Rx     022A0341  0  
  1679)      3245.9  Rx     05150342  8  07 D1 70 88 39 68 90 FB 
  1680)      3246.2  Rx     022A0342  0  
  1681)      3246.8  Rx     05150343  8  F1 F0 DF F8 20 1A 08 80 
  1682)      3247.1  Rx     022A0343  0  
  1683)      3247.7  Rx     05150344  8  27 E0 35 88 48 46 C0 B2 
  1684)      3248.0  Rx     022A0344  0  
  1685)      3248.6  Rx     05150345  8  03 F0 4E F8 00 22 DF F8 
  1686)      3248.9  Rx     022A0345  0  
  1687)      3249.5  Rx     05150346  8  14 3A 03 F0 57 F8 53 EC 
  1688)      3249.8  Rx     022A0346  0  
  1689)      3250.4  Rx     05150347  8  18 2B 03 F0 77 F9 03 F0 
  1690)      3250.7  Rx     022A0347  0  
  1691)      3251.4  Rx     05150348  8  47 FA 00 FB 05 F0 00 13 
  1692)      3251.7  Rx     022A0348  0  
  1693)      3252.3  Rx     05150349  8  39 68 90 FB F1 F0 DF F8 
  1694)      3252.5  Rx     022A0349  0  
  1695)      3253.1  Rx     0515034A  8  EC 19 08 80 0D E0 DF F8 
  1696)      3253.4  Rx     022A034A  0  
  1697)      3254.0  Rx     0515034B  8  AC 0C 01 68 11 F1 01 0F 
  1698)      3254.3  Rx     022A034B  0  
  1699)      3255.0  Rx     0515034C  8  07 D0 01 68 49 1C 01 60 
  1700)      3255.3  Rx     022A034C  0  
  1701)      3255.9  Rx     0515034D  8  DF F8 9C 0C 01 68 7F 18 
  1702)      3256.2  Rx     022A034D  0  
  1703)      3256.8  Rx     0515034E  8  07 60 DF F8 54 0D 01 88 
  1704)      3257.1  Rx     022A034E  0  
  1705)      3257.6  Rx     0515034F  8  4A 46 D2 B2 92 B2 91 42 
  1706)      3257.9  Rx     022A034F  0  
  1707)      3258.5  Rx     05150350  8  42 D0 49 46 C9 B2 01 80 
  1708)      3258.8  Rx     022A0350  0  
  1709)      3259.4  Rx     05150351  8  DF F8 A4 59 28 68 01 28 
  1710)      3259.7  Rx     022A0351  0  
  1711)      3260.3  Rx     05150352  8  3A DB 70 88 64 28 0B DB 
  1712)      3260.6  Rx     022A0352  0  
  1713)      3261.2  Rx     05150353  8  94 F8 F9 01 01 28 07 D1 
  1714)      3261.5  Rx     022A0353  0  
  1715)      3262.1  Rx     05150354  8  70 88 29 68 90 FB F1 F0 
  1716)      3262.4  Rx     022A0354  0  
  1717)      3263.0  Rx     05150355  8  DF F8 90 19 08 80 2B E0 
  1718)      3263.3  Rx     022A0355  0  
  1719)      3263.9  Rx     05150356  8  34 88 5F FA 89 F9 48 46 
  1720)      3264.2  Rx     022A0356  0  
  1721)      3264.8  Rx     05150357  8  03 F0 06 F8 00 22 DF F8 
  1722)      3265.1  Rx     022A0357  0  
  1723)      3265.7  Rx     05150358  8  84 39 03 F0 0F F8 00 22 
  1724)      3265.9  Rx     022A0358  0  
  1725)      3266.6  Rx     05150359  8  DF F8 6C 39 03 F0 2E F9 
  1726)      3266.8  Rx     022A0359  0  
  1727)      3267.4  Rx     0515035A  8  03 F0 FE F9 44 43 24 13 
  1728)      3267.7  Rx     022A035A  0  
  1729)      3268.3  Rx     0515035B  8  28 68 94 FB F0 F0 DF F8 
  1730)      3268.6  Rx     022A035B  0  
  1731)      3269.3  Rx     0515035C  8  5C 19 08 80 10 E0 00 20 
  1732)      3269.6  Rx     022A035C  0  
  1733)      3270.2  Rx     0515035D  8  DF F8 1C 1C 08 60 00 20 
  1734)      3270.5  Rx     022A035D  0  
  1735)      3271.1  Rx     0515035E  8  DF F8 10 1C 08 60 D8 F8 
  1736)      3271.4  Rx     022A035E  0  
  1737)      3272.0  Rx     0515035F  8  00 00 DF F8 A4 1B 08 60 
  1738)      3272.3  Rx     022A035F  0  
  1739)      3272.9  Rx     05150360  8  7D 20 DF F8 2C 19 08 60 
  1740)      3273.2  Rx     022A0360  0  
  1741)      3273.8  Rx     05150361  8  BD EC 02 8B BD E8 F1 8F 
  1742)      3274.1  Rx     022A0361  0  
  1743)      3274.7  Rx     05150362  8  10 B5 10 F1 3C 01 C4 6F 
  1744)      3275.0  Rx     022A0362  0  
  1745)      3275.5  Rx     05150363  8  48 6A 02 F0 B4 FF 00 28 
  1746)      3275.8  Rx     022A0363  0  
  1747)      3276.4  Rx     05150364  8  23 D0 B4 F8 F8 12 4F F4 
  1748)      3276.7  Rx     022A0364  0  
  1749)      3277.3  Rx     05150365  8  80 50 41 43 4F F4 7A 70 
  1750)      3277.6  Rx     022A0365  0  
  1751)      3278.2  Rx     05150366  8  91 FB F0 F1 4F F4 00 60 
  1752)      3278.5  Rx     022A0366  0  
  1753)      3279.1  Rx     05150367  8  41 43 09 13 40 F2 33 10 
  1754)      3279.4  Rx     022A0367  0  
  1755)      3280.0  Rx     05150368  8  41 43 09 13 D4 F8 FC 02 
  1756)      3280.3  Rx     022A0368  0  
  1757)      3280.9  Rx     05150369  8  09 18 C4 F8 FC 12 D4 F8 
  1758)      3281.2  Rx     022A0369  0  
  1759)      3281.8  Rx     0515036A  8  FC 02 B0 F5 80 5F 03 D2 
  1760)      3282.1  Rx     022A036A  0  
  1761)      3282.7  Rx     0515036B  8  00 20 A4 F8 00 03 04 E0 
  1762)      3283.0  Rx     022A036B  0  
  1763)      3283.6  Rx     0515036C  8  D4 F8 FC 02 C0 12 A4 F8 
  1764)      3283.9  Rx     022A036C  0  
  1765)      3284.5  Rx     0515036D  8  00 03 B4 F8 00 03 10 BD 
  1766)      3284.8  Rx     022A036D  0  
  1767)      3285.4  Rx     0515036E  8  2D E9 FE 43 10 F1 3C 04 
  1768)      3285.7  Rx     022A036E  0  
  1769)      3286.3  Rx     0515036F  8  C7 6F A0 68 02 F0 A4 FC 
  1770)      3286.6  Rx     022A036F  0  
  1771)      3287.2  Rx     05150370  8  05 00 A0 68 02 F0 B0 FC 
  1772)      3287.5  Rx     022A0370  0  
  1773)      3288.1  Rx     05150371  8  06 00 A1 68 68 46 02 F0 
  1774)      3288.3  Rx     022A0371  0  
  1775)      3288.9  Rx     05150372  8  AF FC 17 F5 04 77 20 69 
  1776)      3289.2  Rx     022A0372  0  
  1777)      3289.8  Rx     05150373  8  02 F0 E3 FE 0A 21 10 FB 
  1778)      3290.1  Rx     022A0373  0  
  1779)      3290.8  Rx     05150374  8  01 F8 20 6A 02 F0 20 FE 
  1780)      3291.0  Rx     022A0374  0  
  1781)      3291.6  Rx     05150375  8  81 46 E0 69 02 F0 E4 FC 
  1782)      3291.9  Rx     022A0375  0  
  1783)      3292.5  Rx     05150376  8  01 00 B9 F1 01 00 4F F6 
  1784)      3292.8  Rx     022A0376  0  
  1785)      3293.4  Rx     05150377  8  E7 52 90 42 02 D2 ED B2 
  1786)      3293.7  Rx     022A0377  0  
  1787)      3294.3  Rx     05150378  8  00 2D 01 D1 5F F0 00 09 
  1788)      3294.6  Rx     022A0378  0  
  1789)      3295.3  Rx     05150379  8  C6 F3 00 10 00 28 00 D0 
  1790)      3295.6  Rx     022A0379  0  
  1791)      3296.2  Rx     0515037A  8  00 21 02 20 7A 68 60 F3 
  1792)      3296.5  Rx     022A037A  0  
  1793)      3297.1  Rx     0515037B  8  1C 62 7A 60 78 68 50 F4 
  1794)      3297.3  Rx     022A037B  0  
  1795)      3297.9  Rx     0515037C  8  78 00 78 60 78 68 30 F4 
  1796)      3298.2  Rx     022A037C  0  
  1797)      3298.8  Rx     0515037D  8  E0 20 78 60 32 20 7A 68 
  1798)      3299.1  Rx     022A037D  0  
  1799)      3299.7  Rx     0515037E  8  60 F3 0F 22 7A 60 01 20 
  1800)      3300.0  Rx     022A037E  0  
  1801)      3300.6  Rx     0515037F  8  7A 68 60 F3 07 02 7A 60 
  1802)      3300.9  Rx     022A037F  0  
  1803)      3301.5  Rx     05150380  8  01 20 38 72 00 20 78 72 
  1804)      3301.8  Rx     022A0380  0  
  1805)      3302.4  Rx     05150381  8  08 20 B8 72 87 F8 0B 80 
  1806)      3318.7  Rx     022A0381  0  
  1807)      3319.4  Rx     05150382  8  1F FA 88 F8 5F EA 18 28 
  1808)      3319.6  Rx     022A0382  0  
  1809)      3320.3  Rx     05150383  8  87 F8 0C 80 87 F8 0D 90 
  1810)      3320.6  Rx     022A0383  0  
  1811)      3321.2  Rx     05150384  8  5F EA 29 29 87 F8 0E 90 
  1812)      3321.5  Rx     022A0384  0  
  1813)      3322.1  Rx     05150385  8  F9 73 09 12 39 74 E0 6A 
  1814)      3322.4  Rx     022A0385  0  
  1815)      3323.0  Rx     05150386  8  03 F0 8C F9 28 30 78 74 
  1816)      3323.2  Rx     022A0386  0  
  1817)      3323.8  Rx     05150387  8  20 6B 03 F0 87 F9 28 30 
  1818)      3324.1  Rx     022A0387  0  
  1819)      3324.7  Rx     05150388  8  B8 74 39 00 DF F8 D8 07 
  1820)      3325.0  Rx     022A0388  0  
  1821)      3325.6  Rx     05150389  8  FF F7 14 F9 BD E8 F7 83 
  1822)      3325.9  Rx     022A0389  0  
  1823)      3326.5  Rx     0515038A  8  00 00 00 00 00 00 B0 40 
  1824)      3326.8  Rx     022A038A  0  
  1825)      3327.4  Rx     0515038B  8  3E B5 10 F1 3C 05 C0 6F 
  1826)      3327.7  Rx     022A038B  0  
  1827)      3328.3  Rx     0515038C  8  10 F5 1D 74 A8 68 02 F0 
  1828)      3328.6  Rx     022A038C  0  
  1829)      3329.2  Rx     0515038D  8  3F FC 28 69 02 F0 A2 FE 
  1830)      3329.5  Rx     022A038D  0  
  1831)      3330.1  Rx     0515038E  8  81 88 0A 22 91 FB F2 F3 
  1832)      3330.4  Rx     022A038E  0  
  1833)      3331.0  Rx     0515038F  8  02 FB 13 11 AD F8 00 10 
  1834)      3331.3  Rx     022A038F  0  
  1835)      3331.9  Rx     05150390  8  69 46 82 88 0A 23 92 FB 
  1836)      3332.2  Rx     022A0390  0  
  1837)      3332.8  Rx     05150391  8  F3 F2 4A 80 4A 88 BD F8 
  1838)      3333.0  Rx     022A0391  0  
  1839)      3333.7  Rx     05150392  8  00 30 53 EA 02 13 8B 80 
  1840)      3333.9  Rx     022A0392  0  
  1841)      3334.5  Rx     05150393  8  02 22 63 68 62 F3 1C 63 
  1842)      3334.8  Rx     022A0393  0  
  1843)      3335.5  Rx     05150394  8  63 60 62 68 52 F4 78 02 
  1844)      3335.7  Rx     022A0394  0  
