;$FILEVERSION=1.1
;$STARTTIME=44404.6996195486
;
;   Start time: 27/07/2021 16:47:27.129.0
;   Generated by PCAN-View v4.3.4.615
;
;   Message Number
;   |         Time Offset (ms)
;   |         |        Type
;   |         |        |        ID (hex)
;   |         |        |        |     Data Length
;   |         |        |        |     |   Data Bytes (hex) ...
;   |         |        |        |     |   |
;---+--   ----+----  --+--  ----+---  +  -+ -- -- -- -- -- -- --
     1)      2415.5  Rx     05FF3005  1  00 
     2)      2446.6  Rx     05112000  4  89 45 02 00 
     3)      2477.5  Rx     05FF3005  1  00 
     4)      2508.6  Rx     05112000  4  89 45 02 00 
     5)      2539.5  Rx     05FF3005  1  00 
     6)      2570.6  Rx     05112000  4  89 45 02 00 
     7)      2571.0  Rx     022A2000  3  89 45 82 
     8)      2601.5  Rx     05FF3005  1  00 
     9)      2632.6  Rx     05142001  3  01 17 0A 
    10)      2632.9  Rx     022A2001  0  
    11)      2633.6  Rx     05150000  8  00 00 00 00 00 00 00 00 
    12)      2633.9  Rx     022A0000  0  
    13)      2634.6  Rx     05150001  8  00 00 00 00 00 00 00 00 
    14)      2634.8  Rx     022A0001  0  
    15)      2635.5  Rx     05150002  8  00 30 00 20 DD 63 01 00 
    16)      2635.8  Rx     022A0002  0  
    17)      2636.3  Rx     05150003  8  81 64 01 00 83 64 01 00 
    18)      2636.6  Rx     022A0003  0  
    19)      2637.3  Rx     05150004  8  8B 64 01 00 93 64 01 00 
    20)      2637.5  Rx     022A0004  0  
    21)      2638.2  Rx     05150005  8  9B 64 01 00 00 00 00 00 
    22)      2638.5  Rx     022A0005  0  
    23)      2639.2  Rx     05150006  8  00 00 00 00 00 00 00 00 
    24)      2639.5  Rx     022A0006  0  
    25)      2640.1  Rx     05150007  8  00 00 00 00 A3 64 01 00 
    26)      2640.4  Rx     022A0007  0  
    27)      2641.0  Rx     05150008  8  A5 64 01 00 00 00 00 00 
    28)      2641.3  Rx     022A0008  0  
    29)      2641.9  Rx     05150009  8  A7 64 01 00 DB 59 01 00 
    30)      2642.2  Rx     022A0009  0  
    31)      2642.8  Rx     0515000A  8  F5 66 01 00 F5 66 01 00 
    32)      2643.1  Rx     022A000A  0  
    33)      2643.7  Rx     0515000B  8  F5 66 01 00 F5 66 01 00 
    34)      2644.0  Rx     022A000B  0  
    35)      2644.6  Rx     0515000C  8  F5 66 01 00 F5 66 01 00 
    36)      2644.9  Rx     022A000C  0  
    37)      2645.5  Rx     0515000D  8  F5 66 01 00 F5 66 01 00 
    38)      2645.8  Rx     022A000D  0  
    39)      2646.4  Rx     0515000E  8  F5 66 01 00 F5 66 01 00 
    40)      2646.7  Rx     022A000E  0  
    41)      2647.3  Rx     0515000F  8  F5 66 01 00 F5 66 01 00 
    42)      2647.6  Rx     022A000F  0  
    43)      2648.3  Rx     05150010  8  F5 66 01 00 F5 66 01 00 
    44)      2648.6  Rx     022A0010  0  
    45)      2649.1  Rx     05150011  8  F5 66 01 00 F5 66 01 00 
    46)      2649.4  Rx     022A0011  0  
    47)      2650.0  Rx     05150012  8  F5 66 01 00 F5 66 01 00 
    48)      2650.3  Rx     022A0012  0  
    49)      2650.9  Rx     05150013  8  F5 66 01 00 F5 66 01 00 
    50)      2651.2  Rx     022A0013  0  
    51)      2651.8  Rx     05150014  8  F5 66 01 00 F5 66 01 00 
    52)      2652.1  Rx     022A0014  0  
    53)      2652.7  Rx     05150015  8  F5 66 01 00 F5 66 01 00 
    54)      2653.0  Rx     022A0015  0  
    55)      2653.6  Rx     05150016  8  F5 66 01 00 F5 66 01 00 
    56)      2653.9  Rx     022A0016  0  
    57)      2654.5  Rx     05150017  8  F5 66 01 00 F5 66 01 00 
    58)      2654.8  Rx     022A0017  0  
    59)      2655.5  Rx     05150018  8  F5 66 01 00 F5 66 01 00 
    60)      2655.8  Rx     022A0018  0  
    61)      2656.4  Rx     05150019  8  F5 66 01 00 F5 66 01 00 
    62)      2656.7  Rx     022A0019  0  
    63)      2657.3  Rx     0515001A  8  F5 66 01 00 F5 66 01 00 
    64)      2657.6  Rx     022A001A  0  
    65)      2658.2  Rx     0515001B  8  F5 66 01 00 F5 66 01 00 
    66)      2658.5  Rx     022A001B  0  
    67)      2659.1  Rx     0515001C  8  F5 66 01 00 F5 66 01 00 
    68)      2659.3  Rx     022A001C  0  
    69)      2660.0  Rx     0515001D  8  F5 66 01 00 75 5E 01 00 
    70)      2660.2  Rx     022A001D  0  
    71)      2660.9  Rx     0515001E  8  F5 66 01 00 F5 66 01 00 
    72)      2661.1  Rx     022A001E  0  
    73)      2661.8  Rx     0515001F  8  F5 66 01 00 F5 66 01 00 
    74)      2662.1  Rx     022A001F  0  
    75)      2662.7  Rx     05150020  8  F9 66 01 00 F5 66 01 00 
    76)      2663.0  Rx     022A0020  0  
    77)      2663.6  Rx     05150021  8  F5 66 01 00 F5 66 01 00 
    78)      2663.9  Rx     022A0021  0  
    79)      2664.5  Rx     05150022  8  F5 66 01 00 F5 66 01 00 
    80)      2664.8  Rx     022A0022  0  
    81)      2665.4  Rx     05150023  8  F5 66 01 00 F5 66 01 00 
    82)      2665.7  Rx     022A0023  0  
    83)      2666.3  Rx     05150024  8  F5 1E 01 00 F5 66 01 00 
    84)      2666.6  Rx     022A0024  0  
    85)      2667.2  Rx     05150025  8  F5 66 01 00 F5 66 01 00 
    86)      2667.5  Rx     022A0025  0  
    87)      2668.1  Rx     05150026  8  F5 66 01 00 F5 66 01 00 
    88)      2668.3  Rx     022A0026  0  
    89)      2669.0  Rx     05150027  8  F5 66 01 00 F5 66 01 00 
    90)      2669.3  Rx     022A0027  0  
    91)      2669.9  Rx     05150028  8  F5 66 01 00 F5 66 01 00 
    92)      2670.2  Rx     022A0028  0  
    93)      2670.8  Rx     05150029  8  F5 66 01 00 F5 66 01 00 
    94)      2671.1  Rx     022A0029  0  
    95)      2671.7  Rx     0515002A  8  F5 66 01 00 F5 66 01 00 
    96)      2672.0  Rx     022A002A  0  
    97)      2672.6  Rx     0515002B  8  F5 66 01 00 F5 66 01 00 
    98)      2672.9  Rx     022A002B  0  
    99)      2673.5  Rx     0515002C  8  31 1F 01 00 F5 66 01 00 
   100)      2673.8  Rx     022A002C  0  
   101)      2674.4  Rx     0515002D  8  F5 66 01 00 F5 66 01 00 
   102)      2674.7  Rx     022A002D  0  
   103)      2675.3  Rx     0515002E  8  F5 66 01 00 F5 66 01 00 
   104)      2675.6  Rx     022A002E  0  
   105)      2676.2  Rx     0515002F  8  F5 66 01 00 F5 66 01 00 
   106)      2676.5  Rx     022A002F  0  
   107)      2677.1  Rx     05150030  8  F5 66 01 00 F5 66 01 00 
   108)      2677.4  Rx     022A0030  0  
   109)      2678.0  Rx     05150031  8  F5 66 01 00 F5 66 01 00 
   110)      2678.3  Rx     022A0031  0  
   111)      2678.9  Rx     05150032  8  F5 66 01 00 71 1F 01 00 
   112)      2679.2  Rx     022A0032  0  
   113)      2679.8  Rx     05150033  8  85 1F 01 00 F5 66 01 00 
   114)      2680.1  Rx     022A0033  0  
   115)      2680.7  Rx     05150034  8  F5 66 01 00 F5 66 01 00 
   116)      2681.0  Rx     022A0034  0  
   117)      2681.6  Rx     05150035  8  F5 66 01 00 F5 66 01 00 
   118)      2681.9  Rx     022A0035  0  
   119)      2682.5  Rx     05150036  8  F5 66 01 00 F5 66 01 00 
   120)      2682.8  Rx     022A0036  0  
   121)      2683.4  Rx     05150037  8  F5 66 01 00 F5 66 01 00 
   122)      2683.7  Rx     022A0037  0  
   123)      2684.3  Rx     05150038  8  F5 66 01 00 F5 66 01 00 
   124)      2684.6  Rx     022A0038  0  
   125)      2685.2  Rx     05150039  8  F5 66 01 00 F5 66 01 00 
   126)      2685.5  Rx     022A0039  0  
   127)      2686.1  Rx     0515003A  8  F5 66 01 00 F5 66 01 00 
   128)      2686.4  Rx     022A003A  0  
   129)      2687.0  Rx     0515003B  8  F5 66 01 00 F5 66 01 00 
   130)      2687.3  Rx     022A003B  0  
   131)      2687.9  Rx     0515003C  8  F5 66 01 00 F5 66 01 00 
   132)      2688.2  Rx     022A003C  0  
   133)      2688.8  Rx     0515003D  8  F5 66 01 00 F5 66 01 00 
   134)      2689.1  Rx     022A003D  0  
   135)      2689.7  Rx     0515003E  8  8D 1E 01 00 F5 66 01 00 
   136)      2690.0  Rx     022A003E  0  
   137)      2690.7  Rx     0515003F  8  F5 66 01 00 F5 66 01 00 
   138)      2690.9  Rx     022A003F  0  
   139)      2691.5  Rx     05150040  8  F5 66 01 00 F5 66 01 00 
   140)      2691.8  Rx     022A0040  0  
   141)      2692.5  Rx     05150041  8  F5 66 01 00 C5 1E 01 00 
   142)      2692.8  Rx     022A0041  0  
   143)      2693.4  Rx     05150042  8  F5 66 01 00 F5 66 01 00 
   144)      2693.6  Rx     022A0042  0  
   145)      2694.2  Rx     05150043  8  F5 66 01 00 F5 66 01 00 
   146)      2694.5  Rx     022A0043  0  
   147)      2695.1  Rx     05150044  8  B1 1E 01 00 F5 66 01 00 
   148)      2695.4  Rx     022A0044  0  
   149)      2696.0  Rx     05150045  8  F5 66 01 00 F5 66 01 00 
   150)      2696.3  Rx     022A0045  0  
   151)      2696.9  Rx     05150046  8  F5 66 01 00 F5 66 01 00 
   152)      2697.2  Rx     022A0046  0  
   153)      2697.8  Rx     05150047  8  F5 66 01 00 F5 66 01 00 
   154)      2698.1  Rx     022A0047  0  
   155)      2698.7  Rx     05150048  8  F5 66 01 00 F5 66 01 00 
   156)      2699.0  Rx     022A0048  0  
   157)      2699.6  Rx     05150049  8  F5 66 01 00 F5 66 01 00 
   158)      2699.9  Rx     022A0049  0  
   159)      2700.5  Rx     0515004A  8  F5 66 01 00 F5 66 01 00 
   160)      2700.8  Rx     022A004A  0  
   161)      2701.4  Rx     0515004B  8  F5 66 01 00 F5 66 01 00 
   162)      2701.7  Rx     022A004B  0  
   163)      2702.3  Rx     0515004C  8  F5 66 01 00 F5 66 01 00 
   164)      2702.6  Rx     022A004C  0  
   165)      2703.2  Rx     0515004D  8  F5 66 01 00 F5 66 01 00 
   166)      2703.5  Rx     022A004D  0  
   167)      2704.1  Rx     0515004E  8  F5 66 01 00 F5 66 01 00 
   168)      2704.4  Rx     022A004E  0  
   169)      2705.0  Rx     0515004F  8  F5 66 01 00 F5 66 01 00 
   170)      2705.3  Rx     022A004F  0  
   171)      2705.9  Rx     05150050  8  F5 66 01 00 F5 66 01 00 
   172)      2706.2  Rx     022A0050  0  
   173)      2706.8  Rx     05150051  8  F5 66 01 00 F5 66 01 00 
   174)      2707.1  Rx     022A0051  0  
   175)      2707.7  Rx     05150052  8  F5 66 01 00 F5 66 01 00 
   176)      2708.0  Rx     022A0052  0  
   177)      2708.6  Rx     05150053  8  F5 66 01 00 F5 66 01 00 
   178)      2708.9  Rx     022A0053  0  
   179)      2709.5  Rx     05150054  8  F5 66 01 00 F5 66 01 00 
   180)      2709.8  Rx     022A0054  0  
   181)      2710.4  Rx     05150055  8  F5 66 01 00 F5 66 01 00 
   182)      2710.7  Rx     022A0055  0  
   183)      2711.3  Rx     05150056  8  F5 66 01 00 F5 66 01 00 
   184)      2711.5  Rx     022A0056  0  
   185)      2712.2  Rx     05150057  8  F5 66 01 00 F5 66 01 00 
   186)      2712.4  Rx     022A0057  0  
   187)      2713.1  Rx     05150058  8  F5 66 01 00 F5 66 01 00 
   188)      2713.4  Rx     022A0058  0  
   189)      2714.0  Rx     05150059  8  F5 66 01 00 F5 66 01 00 
   190)      2714.3  Rx     022A0059  0  
   191)      2714.9  Rx     0515005A  8  F5 66 01 00 F5 66 01 00 
   192)      2715.2  Rx     022A005A  0  
   193)      2715.8  Rx     0515005B  8  F5 66 01 00 F5 66 01 00 
   194)      2716.0  Rx     022A005B  0  
   195)      2716.7  Rx     0515005C  8  F5 66 01 00 F5 66 01 00 
   196)      2717.0  Rx     022A005C  0  
   197)      2717.6  Rx     0515005D  8  F5 66 01 00 F5 66 01 00 
   198)      2717.9  Rx     022A005D  0  
   199)      2718.5  Rx     0515005E  8  F5 66 01 00 F5 66 01 00 
   200)      2718.7  Rx     022A005E  0  
   201)      2719.4  Rx     0515005F  8  F5 66 01 00 F5 66 01 00 
   202)      2719.6  Rx     022A005F  0  
   203)      2720.2  Rx     05150060  8  F5 66 01 00 F5 66 01 00 
   204)      2720.5  Rx     022A0060  0  
   205)      2721.1  Rx     05150061  8  F5 66 01 00 F5 66 01 00 
   206)      2721.4  Rx     022A0061  0  
   207)      2722.0  Rx     05150062  8  F5 66 01 00 F5 66 01 00 
   208)      2722.3  Rx     022A0062  0  
   209)      2722.9  Rx     05150063  8  F5 66 01 00 F5 66 01 00 
   210)      2723.2  Rx     022A0063  0  
   211)      2723.8  Rx     05150064  8  F5 66 01 00 F5 66 01 00 
   212)      2724.1  Rx     022A0064  0  
   213)      2724.8  Rx     05150065  8  F5 66 01 00 F5 66 01 00 
   214)      2725.1  Rx     022A0065  0  
   215)      2725.6  Rx     05150066  8  F5 66 01 00 F5 66 01 00 
   216)      2725.9  Rx     022A0066  0  
   217)      2726.5  Rx     05150067  8  F5 66 01 00 F5 66 01 00 
   218)      2726.8  Rx     022A0067  0  
   219)      2727.4  Rx     05150068  8  F5 66 01 00 F5 66 01 00 
   220)      2727.7  Rx     022A0068  0  
   221)      2728.3  Rx     05150069  8  F5 66 01 00 F5 66 01 00 
   222)      2728.6  Rx     022A0069  0  
   223)      2729.2  Rx     0515006A  8  F5 66 01 00 F5 66 01 00 
   224)      2729.5  Rx     022A006A  0  
   225)      2730.1  Rx     0515006B  8  F5 66 01 00 F5 66 01 00 
   226)      2730.4  Rx     022A006B  0  
   227)      2731.0  Rx     0515006C  8  F5 66 01 00 F5 66 01 00 
   228)      2731.3  Rx     022A006C  0  
   229)      2731.9  Rx     0515006D  8  F5 66 01 00 F5 66 01 00 
   230)      2732.2  Rx     022A006D  0  
   231)      2732.8  Rx     0515006E  8  F5 66 01 00 F5 66 01 00 
   232)      2733.1  Rx     022A006E  0  
   233)      2733.7  Rx     0515006F  8  F5 66 01 00 F5 66 01 00 
   234)      2734.0  Rx     022A006F  0  
   235)      2734.6  Rx     05150070  8  F5 66 01 00 F5 66 01 00 
   236)      2734.9  Rx     022A0070  0  
   237)      2735.5  Rx     05150071  8  F5 66 01 00 F5 66 01 00 
   238)      2735.7  Rx     022A0071  0  
   239)      2736.3  Rx     05150072  8  F5 66 01 00 F5 66 01 00 
   240)      2736.6  Rx     022A0072  0  
   241)      2737.2  Rx     05150073  8  F5 66 01 00 F5 66 01 00 
   242)      2737.5  Rx     022A0073  0  
   243)      2738.1  Rx     05150074  8  F5 66 01 00 F5 66 01 00 
   244)      2738.4  Rx     022A0074  0  
   245)      2739.0  Rx     05150075  8  F5 66 01 00 F5 66 01 00 
   246)      2739.3  Rx     022A0075  0  
   247)      2739.9  Rx     05150076  8  F5 66 01 00 F5 66 01 00 
   248)      2740.2  Rx     022A0076  0  
   249)      2740.8  Rx     05150077  8  F5 66 01 00 F5 66 01 00 
   250)      2741.1  Rx     022A0077  0  
   251)      2741.7  Rx     05150078  8  F5 66 01 00 F5 66 01 00 
   252)      2742.0  Rx     022A0078  0  
   253)      2742.6  Rx     05150079  8  F5 66 01 00 F5 66 01 00 
   254)      2742.9  Rx     022A0079  0  
   255)      2743.5  Rx     0515007A  8  F5 66 01 00 F5 66 01 00 
   256)      2743.8  Rx     022A007A  0  
   257)      2744.4  Rx     0515007B  8  F5 66 01 00 F5 66 01 00 
   258)      2744.7  Rx     022A007B  0  
   259)      2745.3  Rx     0515007C  8  F5 66 01 00 F5 66 01 00 
   260)      2745.6  Rx     022A007C  0  
   261)      2746.2  Rx     0515007D  8  F5 66 01 00 F5 66 01 00 
   262)      2746.5  Rx     022A007D  0  
   263)      2747.1  Rx     0515007E  8  F5 66 01 00 F5 66 01 00 
   264)      2747.4  Rx     022A007E  0  
   265)      2748.0  Rx     0515007F  8  F5 66 01 00 F5 66 01 00 
   266)      2748.3  Rx     022A007F  0  
   267)      2748.9  Rx     05150080  8  F5 66 01 00 F5 66 01 00 
   268)      2749.2  Rx     022A0080  0  
   269)      2749.8  Rx     05150081  8  F5 66 01 00 FF FF FF FF 
   270)      2766.1  Rx     022A0081  0  
   271)      2766.7  Rx     05150082  8  FF FF FF FF FF FF FF FF 
   272)      2767.0  Rx     022A0082  0  
   273)      2767.7  Rx     05150083  8  FF FF FF FF FE 7F FF FF 
   274)      2768.0  Rx     022A0083  0  
   275)      2768.6  Rx     05150084  8  38 B5 0C 00 02 F0 F8 FC 
   276)      2768.9  Rx     022A0084  0  
   277)      2769.5  Rx     05150085  8  DF F8 98 29 11 78 00 29 
   278)      2769.8  Rx     022A0085  0  
   279)      2770.4  Rx     05150086  8  0B D1 DF F8 94 39 15 78 
   280)      2770.6  Rx     022A0086  0  
   281)      2771.3  Rx     05150087  8  40 F6 9C 41 4D 43 03 EB 
   282)      2771.5  Rx     022A0087  0  
   283)      2772.2  Rx     05150088  8  05 01 13 78 5B 1C 13 70 
   284)      2772.4  Rx     022A0088  0  
   285)      2773.1  Rx     05150089  8  00 E0 00 21 C1 F8 98 4C 
   286)      2773.3  Rx     022A0089  0  
   287)      2773.9  Rx     0515008A  8  C1 67 DF F8 78 19 01 60 
   288)      2774.2  Rx     022A008A  0  
   289)      2774.8  Rx     0515008B  8  0F F2 65 01 41 60 DF F8 
   290)      2775.1  Rx     022A008B  0  
   291)      2775.7  Rx     0515008C  8  70 19 81 60 DF F8 6C 19 
   292)      2776.1  Rx     022A008C  0  
   293)      2776.7  Rx     0515008D  8  C1 60 DF F8 6C 19 01 61 
   294)      2777.0  Rx     022A008D  0  
   295)      2777.6  Rx     0515008E  8  DF F8 68 19 41 61 DF F8 
   296)      2777.9  Rx     022A008E  0  
   297)      2778.5  Rx     0515008F  8  68 19 81 61 DF F8 64 19 
   298)      2778.8  Rx     022A008F  0  
   299)      2779.4  Rx     05150090  8  C1 61 DF F8 64 19 01 62 
   300)      2779.7  Rx     022A0090  0  
   301)      2780.3  Rx     05150091  8  DF F8 60 19 41 62 DF F8 
   302)      2780.6  Rx     022A0091  0  
   303)      2781.2  Rx     05150092  8  60 19 81 62 DF F8 5C 19 
   304)      2781.5  Rx     022A0092  0  
   305)      2782.1  Rx     05150093  8  C1 62 DF F8 5C 19 01 63 
   306)      2782.4  Rx     022A0093  0  
   307)      2783.0  Rx     05150094  8  DF F8 58 19 41 63 DF F8 
   308)      2783.3  Rx     022A0094  0  
   309)      2783.9  Rx     05150095  8  58 19 81 63 DF F8 54 19 
   310)      2784.2  Rx     022A0095  0  
   311)      2784.8  Rx     05150096  8  C1 63 DF F8 54 19 01 64 
   312)      2785.1  Rx     022A0096  0  
   313)      2785.7  Rx     05150097  8  DF F8 50 19 41 64 32 BD 
   314)      2786.0  Rx     022A0097  0  
   315)      2786.6  Rx     05150098  8  10 B5 04 00 5F F0 8C 40 
   316)      2786.8  Rx     022A0098  0  
   317)      2787.5  Rx     05150099  8  DF F8 44 19 08 60 20 00 
   318)      2787.7  Rx     022A0099  0  
   319)      2788.4  Rx     0515009A  8  00 F0 1B F8 20 00 00 F0 
   320)      2788.7  Rx     022A009A  0  
   321)      2789.3  Rx     0515009B  8  C4 F8 20 00 00 F0 46 F8 
   322)      2789.6  Rx     022A009B  0  
   323)      2790.2  Rx     0515009C  8  DF F8 30 09 5F F4 80 11 
   324)      2790.5  Rx     022A009C  0  
   325)      2791.1  Rx     0515009D  8  01 60 DF F8 2C 29 11 60 
   326)      2791.4  Rx     022A009D  0  
   327)      2792.0  Rx     0515009E  8  20 21 DF F8 28 39 19 70 
   328)      2792.3  Rx     022A009E  0  
   329)      2792.9  Rx     0515009F  8  4F F4 00 41 01 60 11 60 
   330)      2793.2  Rx     022A009F  0  
   331)      2793.8  Rx     051500A0  8  20 20 DF F8 1C 19 08 70 
   332)      2794.1  Rx     022A00A0  0  
   333)      2794.7  Rx     051500A1  8  10 BD 10 B4 DF F8 14 09 
   334)      2795.0  Rx     022A00A1  0  
   335)      2795.6  Rx     051500A2  8  01 68 49 08 49 00 01 60 
   336)      2795.9  Rx     022A00A2  0  
   337)      2796.5  Rx     051500A3  8  DF F8 0C 19 4F F4 80 62 
   338)      2796.8  Rx     022A00A3  0  
   339)      2797.4  Rx     051500A4  8  0A 60 48 F2 50 03 0C 68 
   340)      2797.6  Rx     022A00A4  0  
   341)      2798.3  Rx     051500A5  8  1C 43 0C 60 01 68 31 F0 
   342)      2798.5  Rx     022A00A5  0  
   343)      2799.2  Rx     051500A6  8  02 01 01 60 DF F8 F4 08 
   344)      2799.5  Rx     022A00A6  0  
   345)      2800.1  Rx     051500A7  8  02 60 01 68 19 43 01 60 
   346)      2800.4  Rx     022A00A7  0  
   347)      2801.0  Rx     051500A8  8  DF F8 EC 08 01 68 31 F0 
   348)      2801.3  Rx     022A00A8  0  
   349)      2801.9  Rx     051500A9  8  08 01 01 60 DF F8 E4 08 
   350)      2802.2  Rx     022A00A9  0  
   351)      2802.8  Rx     051500AA  8  4F F4 00 71 01 60 01 68 
   352)      2803.1  Rx     022A00AA  0  
   353)      2803.7  Rx     051500AB  8  0B 43 03 60 DF F8 D8 08 
   354)      2804.0  Rx     022A00AB  0  
   355)      2804.6  Rx     051500AC  8  01 68 51 F4 80 71 01 60 
   356)      2804.9  Rx     022A00AC  0  
   357)      2805.5  Rx     051500AD  8  10 BC 70 47 10 B4 5F F0 
   358)      2805.8  Rx     022A00AD  0  
   359)      2806.3  Rx     051500AE  8  8C 41 DF F8 C8 08 01 60 
   360)      2806.6  Rx     022A00AE  0  
   361)      2807.2  Rx     051500AF  8  DF F8 94 08 01 60 DF F8 
   362)      2807.5  Rx     022A00AF  0  
   363)      2808.1  Rx     051500B0  8  C0 08 00 22 02 60 DF F8 
   364)      2808.4  Rx     022A00B0  0  
   365)      2809.0  Rx     051500B1  8  BC 28 13 68 53 F0 81 03 
   366)      2809.3  Rx     022A00B1  0  
   367)      2809.9  Rx     051500B2  8  13 60 40 22 DF F8 B0 38 
   368)      2810.2  Rx     022A00B2  0  
   369)      2810.8  Rx     051500B3  8  1A 60 4F F4 40 72 DF F8 
   370)      2811.1  Rx     022A00B3  0  
   371)      2811.8  Rx     051500B4  8  AC 38 1A 60 4F F6 FF 72 
   372)      2812.1  Rx     022A00B4  0  
   373)      2812.7  Rx     051500B5  8  DF F8 A4 38 1A 60 00 23 
   374)      2813.0  Rx     022A00B5  0  
   375)      2813.6  Rx     051500B6  8  DF F8 A0 48 23 60 0C 23 
   376)      2813.9  Rx     022A00B6  0  
   377)      2814.5  Rx     051500B7  8  DF F8 9C 48 23 60 F0 23 
   378)      2814.7  Rx     022A00B7  0  
   379)      2815.4  Rx     051500B8  8  DF F8 98 48 23 60 00 23 
   380)      2815.6  Rx     022A00B8  0  
   381)      2816.2  Rx     051500B9  8  DF F8 94 48 23 60 03 68 
   382)      2816.5  Rx     022A00B9  0  
   383)      2817.1  Rx     051500BA  8  43 F0 70 63 53 F0 0B 03 
   384)      2817.4  Rx     022A00BA  0  
   385)      2818.0  Rx     051500BB  8  03 60 DF F8 88 38 00 20 
   386)      2818.3  Rx     022A00BB  0  
   387)      2818.9  Rx     051500BC  8  18 60 DF F8 84 08 04 68 
   388)      2819.2  Rx     022A00BC  0  
   389)      2819.8  Rx     051500BD  8  54 F0 81 04 04 60 40 20 
   390)      2820.1  Rx     022A00BD  0  
   391)      2820.7  Rx     051500BE  8  DF F8 78 48 20 60 DF F8 
   392)      2821.0  Rx     022A00BE  0  
   393)      2821.7  Rx     051500BF  8  78 08 02 60 00 20 DF F8 
   394)      2821.9  Rx     022A00BF  0  
   395)      2822.6  Rx     051500C0  8  74 48 20 60 0C 20 DF F8 
   396)      2822.9  Rx     022A00C0  0  
   397)      2823.5  Rx     051500C1  8  70 48 20 60 4E 20 DF F8 
   398)      2823.8  Rx     022A00C1  0  
   399)      2824.4  Rx     051500C2  8  6C 48 20 60 FF 20 DF F8 
   400)      2824.7  Rx     022A00C2  0  
   401)      2825.3  Rx     051500C3  8  68 48 20 60 00 20 DF F8 
   402)      2825.6  Rx     022A00C3  0  
   403)      2826.2  Rx     051500C4  8  64 48 20 60 1C 68 DF F8 
   404)      2826.5  Rx     022A00C4  0  
   405)      2827.1  Rx     051500C5  8  60 08 04 43 1C 60 DF F8 
   406)      2827.4  Rx     022A00C5  0  
   407)      2828.0  Rx     051500C6  8  5C 08 01 60 DF F8 58 08 
   408)      2828.3  Rx     022A00C6  0  
   409)      2828.9  Rx     051500C7  8  00 21 01 60 DF F8 54 18 
   410)      2829.2  Rx     022A00C7  0  
   411)      2829.8  Rx     051500C8  8  0A 60 00 21 DF F8 50 28 
   412)      2830.1  Rx     022A00C8  0  
   413)      2830.7  Rx     051500C9  8  11 60 00 21 DF F8 4C 28 
   414)      2831.0  Rx     022A00C9  0  
   415)      2831.6  Rx     051500CA  8  11 60 01 68 41 F0 70 61 
   416)      2831.9  Rx     022A00CA  0  
   417)      2832.5  Rx     051500CB  8  51 F0 0F 01 01 60 10 BC 
   418)      2832.8  Rx     022A00CB  0  
   419)      2833.4  Rx     051500CC  8  70 47 2D E9 F8 4F 04 00 
   420)      2833.7  Rx     022A00CC  0  
   421)      2834.3  Rx     051500CD  8  14 F1 48 05 A1 6F E6 6F 
   422)      2834.6  Rx     022A00CD  0  
   423)      2835.2  Rx     051500CE  8  E0 6F D0 F8 98 7C 5F F0 
   424)      2835.5  Rx     022A00CE  0  
   425)      2836.1  Rx     051500CF  8  01 0A 91 F8 10 E0 5F F0 
   426)      2836.4  Rx     022A00CF  0  
   427)      2837.0  Rx     051500D0  8  0A 0C 0A 88 70 46 C0 B2 
   428)      2837.3  Rx     022A00D0  0  
   429)      2837.9  Rx     051500D1  8  42 43 0C FB 02 F2 3C 20 
   430)      2838.2  Rx     022A00D1  0  
   431)      2838.8  Rx     051500D2  8  B2 FB F0 F2 4B 88 70 46 
   432)      2839.1  Rx     022A00D2  0  
   433)      2839.7  Rx     051500D3  8  C0 B2 43 43 0C FB 03 F3 
   434)      2840.0  Rx     022A00D3  0  
   435)      2840.6  Rx     051500D4  8  3C 20 B3 FB F0 F8 8B 88 
   436)      2840.9  Rx     022A00D4  0  
   437)      2841.5  Rx     051500D5  8  70 46 C0 B2 43 43 0C FB 
   438)      2841.8  Rx     022A00D5  0  
   439)      2842.4  Rx     051500D6  8  03 F3 3C 20 B3 FB F0 F9 
   440)      2842.6  Rx     022A00D6  0  
   441)      2843.3  Rx     051500D7  8  CB 88 70 46 C0 B2 43 43 
   442)      2843.5  Rx     022A00D7  0  
   443)      2844.1  Rx     051500D8  8  0C FB 03 F3 3C 20 B3 FB 
   444)      2844.4  Rx     022A00D8  0  
   445)      2845.0  Rx     051500D9  8  F0 F3 B1 F8 08 B0 70 46 
   446)      2845.3  Rx     022A00D9  0  
   447)      2845.9  Rx     051500DA  8  C0 B2 00 FB 0B FB 0C FB 
   448)      2846.2  Rx     022A00DA  0  
   449)      2846.8  Rx     051500DB  8  0B FB 3C 20 BB FB F0 FB 
   450)      2847.1  Rx     022A00DB  0  
   451)      2847.7  Rx     051500DC  8  86 F8 8C EB A6 F8 90 8B 
   452)      2848.0  Rx     022A00DC  0  
   453)      2848.6  Rx     051500DD  8  A6 F8 8E 9B 1F FA 8B FB 
   454)      2848.9  Rx     022A00DD  0  
   455)      2849.5  Rx     051500DE  8  5F F4 80 30 00 FB 0B FB 
   456)      2849.8  Rx     022A00DE  0  
   457)      2850.4  Rx     051500DF  8  C8 89 0C FB 00 F0 BB FB 
   458)      2850.7  Rx     022A00DF  0  
   459)      2851.3  Rx     051500E0  8  F0 F0 A6 F8 4C 00 10 00 
   460)      2851.6  Rx     022A00E0  0  
   461)      2852.2  Rx     051500E1  8  80 B2 00 28 0A D1 96 20 
   462)      2852.5  Rx     022A00E1  0  
   463)      2853.1  Rx     051500E2  8  A6 F8 60 00 A4 20 A6 F8 
   464)      2853.4  Rx     022A00E2  0  
   465)      2854.0  Rx     051500E3  8  52 00 40 F6 0E 18 DF F8 
   466)      2854.3  Rx     022A00E3  0  
   467)      2854.9  Rx     051500E4  8  80 97 25 E0 42 F2 10 7E 
   468)      2855.2  Rx     022A00E4  0  
   469)      2855.8  Rx     051500E5  8  90 46 1F FA 88 F8 06 20 
   470)      2856.1  Rx     022A00E5  0  
   471)      2856.7  Rx     051500E6  8  00 FB 08 F8 BE FB F8 F0 
   472)      2856.9  Rx     022A00E6  0  
   473)      2857.6  Rx     051500E7  8  A6 F8 60 00 B6 F8 60 E0 
   474)      2857.9  Rx     022A00E7  0  
   475)      2858.5  Rx     051500E8  8  DF F8 60 07 00 FB 0E FE 
   476)      2858.8  Rx     022A00E8  0  
   477)      2859.4  Rx     051500E9  8  5F EA 1E 4E A6 F8 52 E0 
   478)      2859.7  Rx     022A00E9  0  
   479)      2860.3  Rx     051500EA  8  C8 89 0C FB 00 FC 06 20 
   480)      2860.6  Rx     022A00EA  0  
   481)      2861.2  Rx     051500EB  8  BC FB F0 F0 94 46 1F FA 
   482)      2861.5  Rx     022A00EB  0  
   483)      2862.1  Rx     051500EC  8  8C FC B0 FB FC F8 DF F8 
   484)      2862.4  Rx     022A00EC  0  
   485)      2863.0  Rx     051500ED  8  40 07 92 B2 B0 FB F2 F9 
   486)      2863.3  Rx     022A00ED  0  
   487)      2863.9  Rx     051500EE  8  18 00 80 B2 00 28 00 D1 
   488)      2864.2  Rx     022A00EE  0  
   489)      2864.8  Rx     051500EF  8  01 23 A6 F8 54 30 DF F8 
   490)      2865.1  Rx     022A00EF  0  
   491)      2865.7  Rx     051500F0  8  2C 07 C9 89 B0 FB F1 F0 
   492)      2866.0  Rx     022A00F0  0  
   493)      2866.6  Rx     051500F1  8  B0 65 DF F8 1C 07 9B B2 
   494)      2866.8  Rx     022A00F1  0  
   495)      2867.4  Rx     051500F2  8  B0 FB F3 F0 F0 65 40 F2 
   496)      2867.7  Rx     022A00F2  0  
   497)      2868.3  Rx     051500F3  8  C4 40 A6 F8 62 00 05 20 
   498)      2868.6  Rx     022A00F3  0  
   499)      2869.2  Rx     051500F4  8  02 F0 0C FD 01 28 05 D1 
   500)      2869.5  Rx     022A00F4  0  
   501)      2870.2  Rx     051500F5  8  05 20 02 F0 B8 FC 86 F8 
   502)      2870.5  Rx     022A00F5  0  
   503)      2871.1  Rx     051500F6  8  8E 00 01 E0 5F F0 00 0A 
   504)      2871.4  Rx     022A00F6  0  
   505)      2872.0  Rx     051500F7  8  06 20 02 F0 FF FC 01 28 
   506)      2872.3  Rx     022A00F7  0  
   507)      2872.9  Rx     051500F8  8  05 D1 06 20 02 F0 AB FC 
   508)      2873.2  Rx     022A00F8  0  
   509)      2873.8  Rx     051500F9  8  86 F8 8F 00 01 E0 5F F0 
   510)      2874.1  Rx     022A00F9  0  
   511)      2874.7  Rx     051500FA  8  00 0A 07 20 02 F0 F2 FC 
   512)      2875.0  Rx     022A00FA  0  
   513)      2875.6  Rx     051500FB  8  01 28 05 D1 07 20 02 F0 
   514)      2875.9  Rx     022A00FB  0  
   515)      2876.5  Rx     051500FC  8  9E FC 86 F8 90 00 01 E0 
   516)      2876.8  Rx     022A00FC  0  
   517)      2877.4  Rx     051500FD  8  5F F0 00 0A 08 20 02 F0 
   518)      2877.7  Rx     022A00FD  0  
   519)      2878.3  Rx     051500FE  8  E5 FC 01 28 05 D1 08 20 
   520)      2878.6  Rx     022A00FE  0  
   521)      2879.3  Rx     051500FF  8  02 F0 91 FC 86 F8 91 00 
   522)      2879.6  Rx     022A00FF  0  
   523)      2880.2  Rx     05150100  8  01 E0 5F F0 00 0A 09 20 
   524)      2880.5  Rx     022A0100  0  
   525)      2881.1  Rx     05150101  8  02 F0 D8 FC 01 28 05 D1 
   526)      2890.1  Rx     022A0101  0  
   527)      2890.7  Rx     05150102  8  09 20 02 F0 84 FC 86 F8 
   528)      2891.0  Rx     022A0102  0  
   529)      2891.6  Rx     05150103  8  92 00 01 E0 5F F0 00 0A 
   530)      2891.9  Rx     022A0103  0  
   531)      2892.5  Rx     05150104  8  0A 20 02 F0 CB FC 01 28 
   532)      2892.8  Rx     022A0104  0  
   533)      2893.4  Rx     05150105  8  05 D1 0A 20 02 F0 77 FC 
   534)      2893.7  Rx     022A0105  0  
   535)      2894.3  Rx     05150106  8  86 F8 93 00 01 E0 5F F0 
   536)      2894.6  Rx     022A0106  0  
   537)      2895.2  Rx     05150107  8  00 0A 5F FA 8A FA BA F1 
   538)      2895.5  Rx     022A0107  0  
   539)      2896.2  Rx     05150108  8  00 0F 11 D1 78 78 86 F8 
   540)      2896.4  Rx     022A0108  0  
   541)      2897.1  Rx     05150109  8  8E 00 B8 78 86 F8 8F 00 
   542)      2897.3  Rx     022A0109  0  
   543)      2898.0  Rx     0515010A  8  F8 78 86 F8 90 00 38 79 
   544)      2898.2  Rx     022A010A  0  
   545)      2898.8  Rx     0515010B  8  86 F8 91 00 78 79 86 F8 
   546)      2899.1  Rx     022A010B  0  
   547)      2899.7  Rx     0515010C  8  92 00 B8 79 86 F8 93 00 
   548)      2900.0  Rx     022A010C  0  
   549)      2900.6  Rx     0515010D  8  F8 79 86 F8 94 00 38 7A 
   550)      2900.9  Rx     022A010D  0  
   551)      2901.5  Rx     0515010E  8  86 F8 95 00 04 20 02 F0 
   552)      2901.7  Rx     022A010E  0  
   553)      2902.3  Rx     0515010F  8  A1 FC 01 28 19 D1 04 20 
   554)      2902.6  Rx     022A010F  0  
   555)      2903.2  Rx     05150110  8  02 F0 4D FC 01 00 49 B2 
   556)      2903.5  Rx     022A0110  0  
   557)      2904.1  Rx     05150111  8  01 29 03 D1 01 20 86 F8 
   558)      2904.4  Rx     022A0111  0  
   559)      2905.0  Rx     05150112  8  64 00 12 E0 5F F0 FF 31 
   560)      2905.3  Rx     022A0112  0  
   561)      2905.9  Rx     05150113  8  40 B2 88 42 04 D1 5F F0 
   562)      2906.2  Rx     022A0113  0  
   563)      2906.8  Rx     05150114  8  FF 30 86 F8 64 00 08 E0 
   564)      2907.1  Rx     022A0114  0  
   565)      2907.7  Rx     05150115  8  5F F0 FF 30 86 F8 64 00 
   566)      2908.0  Rx     022A0115  0  
   567)      2908.6  Rx     05150116  8  03 E0 5F F0 FF 30 86 F8 
   568)      2908.9  Rx     022A0116  0  
   569)      2909.5  Rx     05150117  8  64 00 96 F8 64 00 86 F8 
   570)      2909.8  Rx     022A0117  0  
   571)      2910.5  Rx     05150118  8  65 00 96 F8 64 00 86 F8 
   572)      2910.8  Rx     022A0118  0  
   573)      2911.3  Rx     05150119  8  66 00 00 20 02 E1 01 00 
   574)      2911.6  Rx     022A0119  0  
   575)      2912.2  Rx     0515011A  8  C9 B2 31 44 91 F8 8E 10 
   576)      2912.5  Rx     022A011A  0  
   577)      2913.1  Rx     0515011B  8  02 00 D2 B2 32 44 82 F8 
   578)      2913.4  Rx     022A011B  0  
   579)      2914.0  Rx     0515011C  8  86 10 02 00 D2 B2 07 EB 
   580)      2914.3  Rx     022A011C  0  
   581)      2914.9  Rx     0515011D  8  42 02 B2 F9 1A 20 0B 00 
   582)      2915.2  Rx     022A011D  0  
   583)      2915.8  Rx     0515011E  8  DB B2 06 EB 43 03 A3 F8 
   584)      2916.1  Rx     022A011E  0  
   585)      2916.7  Rx     0515011F  8  C8 22 0B 00 DB B2 06 EB 
   586)      2917.0  Rx     022A011F  0  
   587)      2917.6  Rx     05150120  8  43 03 A3 F8 D8 22 0B 00 
   588)      2917.9  Rx     022A0120  0  
   589)      2918.5  Rx     05150121  8  DB B2 06 EB 43 03 A3 F8 
   590)      2918.7  Rx     022A0121  0  
   591)      2919.3  Rx     05150122  8  E8 22 0B 00 DB B2 06 EB 
   592)      2919.6  Rx     022A0122  0  
   593)      2920.2  Rx     05150123  8  43 03 A3 F8 F8 22 0B 00 
   594)      2920.5  Rx     022A0123  0  
   595)      2921.1  Rx     05150124  8  DB B2 06 EB 43 03 A3 F8 
   596)      2921.4  Rx     022A0124  0  
   597)      2922.0  Rx     05150125  8  C8 23 0B 00 DB B2 06 EB 
   598)      2922.3  Rx     022A0125  0  
   599)      2922.9  Rx     05150126  8  43 03 A3 F8 D8 23 0B 00 
   600)      2923.2  Rx     022A0126  0  
   601)      2923.8  Rx     05150127  8  DB B2 06 EB 43 03 A3 F8 
   602)      2924.0  Rx     022A0127  0  
   603)      2924.7  Rx     05150128  8  E8 23 0B 00 DB B2 06 EB 
   604)      2925.0  Rx     022A0128  0  
   605)      2925.6  Rx     05150129  8  43 03 A3 F8 F8 23 DF F8 
   606)      2925.9  Rx     022A0129  0  
   607)      2926.5  Rx     0515012A  8  60 35 13 EB 02 0C 8E 46 
   608)      2926.8  Rx     022A012A  0  
   609)      2927.3  Rx     0515012B  8  5F FA 8E FE 06 EB 4E 0E 
   610)      2927.6  Rx     022A012B  0  
   611)      2928.2  Rx     0515012C  8  AE F8 08 C4 13 EB 02 0C 
   612)      2928.5  Rx     022A012C  0  
   613)      2929.1  Rx     0515012D  8  8E 46 5F FA 8E FE 06 EB 
   614)      2929.4  Rx     022A012D  0  
   615)      2930.0  Rx     0515012E  8  4E 0E AE F8 18 C4 13 EB 
   616)      2930.3  Rx     022A012E  0  
   617)      2930.9  Rx     0515012F  8  02 0C 8E 46 5F FA 8E FE 
   618)      2931.2  Rx     022A012F  0  
   619)      2931.8  Rx     05150130  8  06 EB 4E 0E AE F8 28 C4 
   620)      2932.1  Rx     022A0130  0  
   621)      2932.7  Rx     05150131  8  13 EB 02 0C 8E 46 5F FA 
   622)      2933.0  Rx     022A0131  0  
   623)      2933.6  Rx     05150132  8  8E FE 06 EB 4E 0E AE F8 
   624)      2933.9  Rx     022A0132  0  
   625)      2934.5  Rx     05150133  8  38 C4 13 EB 02 0C 8E 46 
   626)      2934.8  Rx     022A0133  0  
   627)      2935.4  Rx     05150134  8  5F FA 8E FE 06 EB 4E 0E 
   628)      2935.7  Rx     022A0134  0  
   629)      2936.3  Rx     05150135  8  AE F8 08 C5 13 EB 02 0C 
   630)      2936.6  Rx     022A0135  0  
   631)      2937.2  Rx     05150136  8  8E 46 5F FA 8E FE 06 EB 
   632)      2937.4  Rx     022A0136  0  
   633)      2938.1  Rx     05150137  8  4E 0E AE F8 18 C5 13 EB 
   634)      2938.3  Rx     022A0137  0  
   635)      2939.0  Rx     05150138  8  02 0C 8E 46 5F FA 8E FE 
   636)      2939.3  Rx     022A0138  0  
   637)      2939.8  Rx     05150139  8  06 EB 4E 0E AE F8 28 C5 
   638)      2940.1  Rx     022A0139  0  
   639)      2940.7  Rx     0515013A  8  9B 18 8C 46 5F FA 8C FC 
   640)      2941.0  Rx     022A013A  0  
   641)      2941.6  Rx     0515013B  8  06 EB 4C 0C AC F8 38 35 
   642)      2941.9  Rx     022A013B  0  
   643)      2942.5  Rx     0515013C  8  41 F2 55 53 13 EB 02 0C 
   644)      2942.8  Rx     022A013C  0  
   645)      2943.4  Rx     0515013D  8  8E 46 5F FA 8E FE 06 EB 
   646)      2943.7  Rx     022A013D  0  
   647)      2944.3  Rx     0515013E  8  4E 0E AE F8 48 C5 13 EB 
   648)      2944.6  Rx     022A013E  0  
   649)      2945.2  Rx     0515013F  8  02 0C 8E 46 5F FA 8E FE 
   650)      2945.5  Rx     022A013F  0  
   651)      2946.1  Rx     05150140  8  06 EB 4E 0E AE F8 58 C5 
   652)      2946.4  Rx     022A0140  0  
   653)      2947.0  Rx     05150141  8  13 EB 02 0C 8E 46 5F FA 
   654)      2947.3  Rx     022A0141  0  
   655)      2947.9  Rx     05150142  8  8E FE 06 EB 4E 0E AE F8 
   656)      2948.2  Rx     022A0142  0  
   657)      2948.8  Rx     05150143  8  68 C5 13 EB 02 0C 8E 46 
   658)      2949.1  Rx     022A0143  0  
   659)      2949.7  Rx     05150144  8  5F FA 8E FE 06 EB 4E 0E 
   660)      2950.0  Rx     022A0144  0  
   661)      2950.6  Rx     05150145  8  AE F8 78 C5 13 EB 02 0C 
   662)      2950.9  Rx     022A0145  0  
   663)      2951.5  Rx     05150146  8  8E 46 5F FA 8E FE 06 EB 
   664)      2951.8  Rx     022A0146  0  
   665)      2952.4  Rx     05150147  8  4E 0E AE F8 48 C6 13 EB 
   666)      2952.7  Rx     022A0147  0  
   667)      2953.3  Rx     05150148  8  02 0C 8E 46 5F FA 8E FE 
   668)      2953.5  Rx     022A0148  0  
   669)      2954.2  Rx     05150149  8  06 EB 4E 0E AE F8 58 C6 
   670)      2954.4  Rx     022A0149  0  
   671)      2955.1  Rx     0515014A  8  13 EB 02 0C 8E 46 5F FA 
   672)      2955.3  Rx     022A014A  0  
   673)      2956.0  Rx     0515014B  8  8E FE 06 EB 4E 0E AE F8 
   674)      2956.3  Rx     022A014B  0  
   675)      2956.8  Rx     0515014C  8  68 C6 9A 18 0B 00 DB B2 
   676)      2957.1  Rx     022A014C  0  
   677)      2957.7  Rx     0515014D  8  06 EB 43 03 A3 F8 78 26 
   678)      2958.0  Rx     022A014D  0  
   679)      2958.6  Rx     0515014E  8  42 F6 AA 22 0B 00 DB B2 
   680)      2958.9  Rx     022A014E  0  
   681)      2959.5  Rx     0515014F  8  06 EB 43 03 A3 F8 88 26 
   682)      2959.8  Rx     022A014F  0  
   683)      2960.4  Rx     05150150  8  0B 00 DB B2 06 EB 43 03 
   684)      2960.7  Rx     022A0150  0  
   685)      2961.3  Rx     05150151  8  A3 F8 98 26 0B 00 DB B2 
   686)      2961.6  Rx     022A0151  0  
   687)      2962.2  Rx     05150152  8  06 EB 43 03 A3 F8 A8 26 
   688)      2962.5  Rx     022A0152  0  
   689)      2963.1  Rx     05150153  8  0B 00 DB B2 06 EB 43 03 
   690)      2963.4  Rx     022A0153  0  
   691)      2964.0  Rx     05150154  8  A3 F8 B8 26 0B 00 DB B2 
   692)      2964.3  Rx     022A0154  0  
   693)      2964.9  Rx     05150155  8  06 EB 43 03 A3 F8 88 27 
   694)      2965.2  Rx     022A0155  0  
   695)      2965.8  Rx     05150156  8  0B 00 DB B2 06 EB 43 03 
   696)      2966.0  Rx     022A0156  0  
   697)      2966.7  Rx     05150157  8  A3 F8 98 27 0B 00 DB B2 
   698)      2966.9  Rx     022A0157  0  
   699)      2967.5  Rx     05150158  8  06 EB 43 03 A3 F8 A8 27 
   700)      2967.8  Rx     022A0158  0  
   701)      2968.4  Rx     05150159  8  C9 B2 06 EB 41 01 A1 F8 
   702)      2968.7  Rx     022A0159  0  
   703)      2969.3  Rx     0515015A  8  B8 27 40 1C 01 00 C9 B2 
   704)      2969.6  Rx     022A015A  0  
   705)      2970.2  Rx     0515015B  8  08 29 FF F4 F8 AE 20 00 
   706)      2970.5  Rx     022A015B  0  
   707)      2971.1  Rx     0515015C  8  00 F0 E8 F9 01 28 02 D1 
   708)      2971.4  Rx     022A015C  0  
   709)      2972.0  Rx     0515015D  8  20 00 00 F0 84 FB 00 21 
   710)      2972.3  Rx     022A015D  0  
   711)      2972.9  Rx     0515015E  8  5E E0 10 00 C0 B2 30 44 
   712)      2973.2  Rx     022A015E  0  
   713)      2973.8  Rx     0515015F  8  90 F8 86 30 08 00 C0 B2 
   714)      2974.1  Rx     022A015F  0  
   715)      2974.7  Rx     05150160  8  00 01 30 44 9C 46 5F FA 
   716)      2975.0  Rx     022A0160  0  
   717)      2975.6  Rx     05150161  8  8C FC 00 EB 4C 00 B0 F9 
   718)      2975.9  Rx     022A0161  0  
   719)      2976.5  Rx     05150162  8  88 C6 5F EA DC 1C 40 46 
   720)      2976.8  Rx     022A0162  0  
   721)      2977.4  Rx     05150163  8  80 B2 00 FB 0C FC 55 20 
   722)      2977.7  Rx     022A0163  0  
   723)      2978.3  Rx     05150164  8  BC FB F0 F0 8C 46 5F FA 
   724)      2978.5  Rx     022A0164  0  
   725)      2979.2  Rx     05150165  8  8C FC 5F EA 0C 1C B4 44 
   726)      2979.5  Rx     022A0165  0  
   727)      2980.1  Rx     05150166  8  9E 46 5F FA 8E FE 0C EB 
   728)      2980.3  Rx     022A0166  0  
   729)      2981.0  Rx     05150167  8  4E 0C AC F8 C8 07 08 00 
   730)      2981.2  Rx     022A0167  0  
   731)      2981.8  Rx     05150168  8  C0 B2 00 01 30 44 9C 46 
   732)      2982.1  Rx     022A0168  0  
   733)      2982.7  Rx     05150169  8  5F FA 8C FC 00 EB 4C 00 
   734)      2983.0  Rx     022A0169  0  
   735)      2983.6  Rx     0515016A  8  A0 F8 C8 88 08 00 C0 B2 
   736)      2983.9  Rx     022A016A  0  
   737)      2984.5  Rx     0515016B  8  00 01 30 44 9C 46 5F FA 
   738)      2984.8  Rx     022A016B  0  
   739)      2985.4  Rx     0515016C  8  8C FC 00 EB 4C 00 B0 F9 
   740)      2985.7  Rx     022A016C  0  
   741)      2986.3  Rx     0515016D  8  88 06 C0 09 09 FB 00 F0 
   742)      2986.6  Rx     022A016D  0  
   743)      2987.2  Rx     0515016E  8  5F F0 55 0C B0 FB FC F0 
   744)      2987.5  Rx     022A016E  0  
   745)      2988.1  Rx     0515016F  8  8C 46 5F FA 8C FC 5F EA 
   746)      2988.4  Rx     022A016F  0  
   747)      2989.0  Rx     05150170  8  4C 1C B4 44 9E 46 5F FA 
   748)      2989.3  Rx     022A0170  0  
   749)      2989.9  Rx     05150171  8  8E FE 0C EB 8E 0C CC F8 
   750)      2990.2  Rx     022A0171  0  
   751)      2990.8  Rx     05150172  8  08 09 08 00 C0 B2 40 01 
   752)      2991.0  Rx     022A0172  0  
   753)      2991.6  Rx     05150173  8  30 44 DB B2 00 EB 83 00 
   754)      2991.9  Rx     022A0173  0  
   755)      2992.5  Rx     05150174  8  C0 F8 08 9B 52 1C 10 00 
   756)      2992.8  Rx     022A0174  0  
   757)      2993.5  Rx     05150175  8  C0 B2 08 28 A1 D3 49 1C 
   758)      2993.8  Rx     022A0175  0  
   759)      2994.4  Rx     05150176  8  08 00 C0 B2 04 28 01 D2 
   760)      2994.7  Rx     022A0176  0  
   761)      2995.3  Rx     05150177  8  00 22 F4 E7 97 F8 30 10 
   762)      2995.5  Rx     022A0177  0  
   763)      2996.2  Rx     05150178  8  00 20 0D E0 02 00 D2 B2 
   764)      2996.5  Rx     022A0178  0  
   765)      2997.1  Rx     05150179  8  06 EB C2 02 C2 F8 08 90 
   766)      2997.3  Rx     022A0179  0  
   767)      2998.0  Rx     0515017A  8  96 F8 64 20 03 00 DB B2 
   768)      2998.2  Rx     022A017A  0  
   769)      2998.8  Rx     0515017B  8  06 EB C3 03 1A 73 40 1C 
   770)      2999.1  Rx     022A017B  0  
   771)      2999.7  Rx     0515017C  8  02 00 0B 00 D2 B2 DB B2 
   772)      3000.0  Rx     022A017C  0  
   773)      3000.6  Rx     0515017D  8  9A 42 EB D3 00 20 86 F8 
   774)      3000.9  Rx     022A017D  0  
   775)      3001.5  Rx     0515017E  8  38 00 00 20 86 F8 39 00 
   776)      3001.8  Rx     022A017E  0  
   777)      3002.4  Rx     0515017F  8  20 00 01 F0 6E FB 86 F8 
   778)      3002.7  Rx     022A017F  0  
   779)      3003.3  Rx     05150180  8  82 00 96 F8 82 00 86 F8 
   780)      3003.6  Rx     022A0180  0  
   781)      3004.3  Rx     05150181  8  83 00 96 F8 82 00 86 F8 
   782)      3020.5  Rx     022A0181  0  
   783)      3021.2  Rx     05150182  8  84 00 00 20 86 F8 85 00 
   784)      3021.4  Rx     022A0182  0  
   785)      3022.1  Rx     05150183  8  00 20 86 F8 7C 00 00 20 
   786)      3022.4  Rx     022A0183  0  
   787)      3023.0  Rx     05150184  8  86 F8 7F 00 00 20 86 F8 
   788)      3023.3  Rx     022A0184  0  
   789)      3023.9  Rx     05150185  8  7E 00 00 20 86 F8 80 00 
   790)      3024.2  Rx     022A0185  0  
   791)      3024.8  Rx     05150186  8  96 F8 7C 00 86 F8 7D 00 
   792)      3025.1  Rx     022A0186  0  
   793)      3025.7  Rx     05150187  8  00 20 86 F8 81 00 00 20 
   794)      3026.0  Rx     022A0187  0  
   795)      3026.6  Rx     05150188  8  70 71 00 20 F0 71 00 20 
   796)      3026.9  Rx     022A0188  0  
   797)      3027.5  Rx     05150189  8  B0 71 A6 F8 70 80 C6 F8 
   798)      3027.8  Rx     022A0189  0  
   799)      3028.4  Rx     0515018A  8  74 90 C6 F8 78 90 00 20 
   800)      3028.7  Rx     022A018A  0  
   801)      3029.3  Rx     0515018B  8  B0 70 00 20 F0 70 01 20 
   802)      3029.6  Rx     022A018B  0  
   803)      3030.2  Rx     0515018C  8  30 71 47 20 02 F0 AA FA 
   804)      3030.5  Rx     022A018C  0  
   805)      3031.1  Rx     0515018D  8  01 28 05 D1 47 20 02 F0 
   806)      3031.4  Rx     022A018D  0  
   807)      3032.0  Rx     0515018E  8  56 FA 86 F8 8E 0C 07 E0 
   808)      3032.3  Rx     022A018E  0  
   809)      3032.9  Rx     0515018F  8  96 F8 86 00 86 F8 8E 0C 
   810)      3033.2  Rx     022A018F  0  
   811)      3033.8  Rx     05150190  8  96 F8 8B 00 86 F8 8F 0C 
   812)      3034.1  Rx     022A0190  0  
   813)      3034.7  Rx     05150191  8  48 20 02 F0 97 FA 01 28 
   814)      3035.0  Rx     022A0191  0  
   815)      3035.6  Rx     05150192  8  05 D1 48 20 02 F0 43 FA 
   816)      3035.8  Rx     022A0192  0  
   817)      3036.4  Rx     05150193  8  86 F8 8F 0C 07 E0 96 F8 
   818)      3036.7  Rx     022A0193  0  
   819)      3037.3  Rx     05150194  8  86 00 86 F8 8E 0C 96 F8 
   820)      3037.6  Rx     022A0194  0  
   821)      3038.2  Rx     05150195  8  8B 00 86 F8 8F 0C 00 20 
   822)      3038.5  Rx     022A0195  0  
   823)      3039.1  Rx     05150196  8  86 F8 8C 0C 00 20 86 F8 
   824)      3039.4  Rx     022A0196  0  
   825)      3040.0  Rx     05150197  8  8D 0C 00 20 86 F8 90 0C 
   826)      3040.3  Rx     022A0197  0  
   827)      3040.9  Rx     05150198  8  00 20 30 70 96 F8 7C 10 
   828)      3041.2  Rx     022A0198  0  
   829)      3041.8  Rx     05150199  8  40 20 41 43 06 EB 01 00 
   830)      3042.1  Rx     022A0199  0  
   831)      3042.8  Rx     0515019A  8  96 F8 8C 1C 09 01 08 44 
   832)      3043.1  Rx     022A019A  0  
   833)      3043.7  Rx     0515019B  8  96 F8 82 10 00 EB 41 00 
   834)      3043.9  Rx     022A019B  0  
   835)      3044.6  Rx     0515019C  8  B0 F8 C8 02 A6 F8 6A 00 
   836)      3044.8  Rx     022A019C  0  
   837)      3045.4  Rx     0515019D  8  96 F8 7C 10 40 20 41 43 
   838)      3045.7  Rx     022A019D  0  
   839)      3046.3  Rx     0515019E  8  06 EB 01 00 96 F8 8C 1C 
   840)      3046.6  Rx     022A019E  0  
   841)      3047.2  Rx     0515019F  8  09 01 08 44 96 F8 82 10 
   842)      3047.5  Rx     022A019F  0  
   843)      3048.1  Rx     051501A0  8  00 EB 41 00 B0 F8 88 06 
   844)      3048.4  Rx     022A01A0  0  
   845)      3049.0  Rx     051501A1  8  A6 F8 88 0B 00 20 A6 F8 
   846)      3049.3  Rx     022A01A1  0  
   847)      3049.9  Rx     051501A2  8  8A 0B 00 20 A6 F8 50 00 
   848)      3050.2  Rx     022A01A2  0  
   849)      3050.8  Rx     051501A3  8  00 20 B0 87 00 20 A8 80 
   850)      3051.1  Rx     022A01A3  0  
   851)      3051.7  Rx     051501A4  8  00 20 E8 80 00 20 28 81 
   852)      3052.0  Rx     022A01A4  0  
   853)      3052.6  Rx     051501A5  8  B6 F8 6A 00 28 80 B6 F8 
   854)      3052.9  Rx     022A01A5  0  
   855)      3053.5  Rx     051501A6  8  6A 00 A6 F8 4E 00 00 20 
   856)      3053.8  Rx     022A01A6  0  
   857)      3054.5  Rx     051501A7  8  A6 F8 6C 00 4F F6 FF 70 
   858)      3054.7  Rx     022A01A7  0  
   859)      3055.4  Rx     051501A8  8  A6 F8 6E 00 00 20 86 F8 
   860)      3055.6  Rx     022A01A8  0  
   861)      3056.2  Rx     051501A9  8  91 0C 00 20 86 F8 92 0C 
   862)      3056.5  Rx     022A01A9  0  
   863)      3057.1  Rx     051501AA  8  00 20 86 F8 93 0C 20 20 
   864)      3057.4  Rx     022A01AA  0  
   865)      3058.0  Rx     051501AB  8  86 F8 94 0C 00 20 E8 81 
   866)      3058.3  Rx     022A01AB  0  
   867)      3059.0  Rx     051501AC  8  00 20 86 F8 95 0C 00 20 
   868)      3059.2  Rx     022A01AC  0  
   869)      3059.9  Rx     051501AD  8  28 74 00 20 68 82 00 20 
   870)      3060.1  Rx     022A01AD  0  
   871)      3060.8  Rx     051501AE  8  28 75 00 20 E8 82 00 20 
   872)      3061.0  Rx     022A01AE  0  
   873)      3061.7  Rx     051501AF  8  28 83 00 20 68 83 00 20 
   874)      3062.0  Rx     022A01AF  0  
   875)      3062.6  Rx     051501B0  8  A8 83 00 20 E8 83 00 20 
   876)      3062.9  Rx     022A01B0  0  
   877)      3063.5  Rx     051501B1  8  28 84 00 20 68 84 00 20 
   878)      3063.8  Rx     022A01B1  0  
   879)      3064.3  Rx     051501B2  8  A8 84 00 20 E8 84 00 20 
   880)      3064.6  Rx     022A01B2  0  
   881)      3065.2  Rx     051501B3  8  28 85 46 20 02 F0 0E FA 
   882)      3065.5  Rx     022A01B3  0  
   883)      3066.2  Rx     051501B4  8  01 28 04 D1 46 20 02 F0 
   884)      3066.4  Rx     022A01B4  0  
   885)      3067.0  Rx     051501B5  8  BA F9 68 85 01 E0 B8 8D 
   886)      3067.3  Rx     022A01B5  0  
   887)      3067.9  Rx     051501B6  8  68 85 00 20 85 F8 2C 00 
   888)      3068.2  Rx     022A01B6  0  
   889)      3068.8  Rx     051501B7  8  00 20 85 F8 2D 00 BD E8 
   890)      3069.1  Rx     022A01B7  0  
   891)      3069.7  Rx     051501B8  8  F1 8F 00 00 4D 25 00 20 
   892)      3070.0  Rx     022A01B8  0  
   893)      3070.6  Rx     051501B9  8  58 0A 00 20 AF 6F 00 00 
   894)      3070.9  Rx     022A01B9  0  
   895)      3071.5  Rx     051501BA  8  25 65 00 00 0D 66 00 00 
   896)      3071.8  Rx     022A01BA  0  
   897)      3072.4  Rx     051501BB  8  13 69 00 00 01 72 00 00 
   898)      3072.7  Rx     022A01BB  0  
   899)      3073.4  Rx     051501BC  8  0B 69 00 00 03 72 00 00 
   900)      3073.6  Rx     022A01BC  0  
   901)      3074.2  Rx     051501BD  8  F1 63 00 00 A9 68 00 00 
   902)      3074.5  Rx     022A01BD  0  
   903)      3075.1  Rx     051501BE  8  D7 68 00 00 F5 75 00 00 
   904)      3075.4  Rx     022A01BE  0  
   905)      3076.0  Rx     051501BF  8  F1 68 00 00 05 69 00 00 
   906)      3076.3  Rx     022A01BF  0  
   907)      3076.9  Rx     051501C0  8  FD 75 00 00 51 76 00 00 
   908)      3077.2  Rx     022A01C0  0  
   909)      3077.9  Rx     051501C1  8  59 76 00 00 E1 78 00 00 
   910)      3078.2  Rx     022A01C1  0  
   911)      3078.8  Rx     051501C2  8  E8 50 06 40 8C E2 00 E0 
   912)      3079.0  Rx     022A01C2  0  
   913)      3079.7  Rx     051501C3  8  0C E1 00 E0 74 E4 00 E0 
   914)      3079.9  Rx     022A01C3  0  
   915)      3080.6  Rx     051501C4  8  6F E4 00 E0 D4 F0 0F 40 
   916)      3080.9  Rx     022A01C4  0  
   917)      3081.5  Rx     051501C5  8  00 C0 04 40 04 C0 04 40 
   918)      3081.8  Rx     022A01C5  0  
   919)      3082.4  Rx     051501C6  8  54 F0 0F 40 0C A0 04 40 
   920)      3082.7  Rx     022A01C6  0  
   921)      3083.3  Rx     051501C7  8  1C 80 04 40 E4 50 06 40 
   922)      3083.5  Rx     022A01C7  0  
   923)      3084.1  Rx     051501C8  8  00 90 03 40 58 90 03 40 
   924)      3084.4  Rx     022A01C8  0  
   925)      3085.1  Rx     051501C9  8  84 90 03 40 8C 90 03 40 
   926)      3085.3  Rx     022A01C9  0  
   927)      3086.0  Rx     051501CA  8  08 90 03 40 4C 90 03 40 
   928)      3086.2  Rx     022A01CA  0  
   929)      3086.9  Rx     051501CB  8  14 90 03 40 78 90 03 40 
   930)      3087.2  Rx     022A01CB  0  
   931)      3087.8  Rx     051501CC  8  04 90 03 40 00 A0 03 40 
   932)      3088.1  Rx     022A01CC  0  
   933)      3088.7  Rx     051501CD  8  58 A0 03 40 84 A0 03 40 
   934)      3089.0  Rx     022A01CD  0  
   935)      3089.6  Rx     051501CE  8  08 A0 03 40 4C A0 03 40 
   936)      3089.9  Rx     022A01CE  0  
   937)      3090.5  Rx     051501CF  8  0C A0 03 40 14 A0 03 40 
   938)      3090.8  Rx     022A01CF  0  
   939)      3091.4  Rx     051501D0  8  78 A0 03 40 04 A0 03 40 
   940)      3091.7  Rx     022A01D0  0  
   941)      3092.3  Rx     051501D1  8  0B 01 00 0F 98 50 06 40 
   942)      3092.6  Rx     022A01D1  0  
   943)      3093.2  Rx     051501D2  8  00 60 02 40 08 60 02 40 
   944)      3093.5  Rx     022A01D2  0  
   945)      3094.1  Rx     051501D3  8  4C 60 02 40 04 60 02 40 
   946)      3094.4  Rx     022A01D3  0  
   947)      3095.0  Rx     051501D4  8  80 96 98 00 80 38 01 00 
   948)      3095.3  Rx     022A01D4  0  
   949)      3095.9  Rx     051501D5  8  55 81 F2 07 00 B4 C4 04 
   950)      3096.2  Rx     022A01D5  0  
   951)      3096.8  Rx     051501D6  8  AB EA FF FF 70 B4 C2 6F 
   952)      3097.1  Rx     022A01D6  0  
   953)      3097.7  Rx     051501D7  8  81 6F 01 20 92 F8 8C 3B 
   954)      3098.0  Rx     022A01D7  0  
   955)      3098.6  Rx     051501D8  8  00 20 A2 F8 9A 0B 00 20 
   956)      3098.9  Rx     022A01D8  0  
   957)      3099.5  Rx     051501D9  8  82 F8 99 0B 00 20 3A E0 
   958)      3099.8  Rx     022A01D9  0  
   959)      3100.4  Rx     051501DA  8  04 00 E4 B2 14 44 94 F8 
   960)      3100.7  Rx     022A01DA  0  
   961)      3101.3  Rx     051501DB  8  86 40 42 F6 AA 25 26 00 
   962)      3101.6  Rx     022A01DB  0  
   963)      3102.2  Rx     051501DC  8  F6 B2 02 EB 46 06 A6 F8 
   964)      3102.5  Rx     022A01DC  0  
   965)      3103.0  Rx     051501DD  8  4C 5C 26 00 F6 B2 02 EB 
   966)      3103.3  Rx     022A01DD  0  
   967)      3103.9  Rx     051501DE  8  46 06 A6 F8 5C 5C 26 00 
   968)      3104.2  Rx     022A01DE  0  
   969)      3104.8  Rx     051501DF  8  F6 B2 02 EB 46 06 A6 F8 
   970)      3105.1  Rx     022A01DF  0  
   971)      3105.7  Rx     051501E0  8  6C 5C E4 B2 02 EB 44 04 
   972)      3106.0  Rx     022A01E0  0  
   973)      3106.6  Rx     051501E1  8  A4 F8 7C 5C 00 24 05 00 
   974)      3106.9  Rx     022A01E1  0  
   975)      3107.5  Rx     051501E2  8  ED B2 02 EB 85 05 C5 F8 
   976)      3107.8  Rx     022A01E2  0  
   977)      3108.4  Rx     051501E3  8  CC 4B 00 24 05 00 ED B2 
   978)      3108.7  Rx     022A01E3  0  
   979)      3109.3  Rx     051501E4  8  02 EB 85 05 C5 F8 EC 4B 
   980)      3109.6  Rx     022A01E4  0  
   981)      3110.2  Rx     051501E5  8  00 24 05 00 ED B2 02 EB 
   982)      3110.5  Rx     022A01E5  0  
   983)      3111.1  Rx     051501E6  8  85 05 C5 F8 0C 4C 00 24 
   984)      3111.4  Rx     022A01E6  0  
   985)      3112.0  Rx     051501E7  8  05 00 ED B2 02 EB 85 05 
   986)      3112.3  Rx     022A01E7  0  
   987)      3112.9  Rx     051501E8  8  C5 F8 2C 4C 40 1C 04 00 
   988)      3113.2  Rx     022A01E8  0  
   989)      3113.8  Rx     051501E9  8  E4 B2 08 2C C0 D3 0A 24 
   990)      3114.1  Rx     022A01E9  0  
   991)      3114.7  Rx     051501EA  8  4D 89 18 00 C0 B2 45 43 
   992)      3115.0  Rx     022A01EA  0  
   993)      3115.5  Rx     051501EB  8  65 43 3C 20 B5 FB F0 F0 
   994)      3115.8  Rx     022A01EB  0  
   995)      3116.4  Rx     051501EC  8  A2 F8 92 0B 88 89 DB B2 
   996)      3116.7  Rx     022A01EC  0  
   997)      3117.3  Rx     051501ED  8  03 FB 00 F3 63 43 3C 20 
   998)      3117.6  Rx     022A01ED  0  
   999)      3118.2  Rx     051501EE  8  B3 FB F0 F0 A2 F8 94 0B 
  1000)      3118.5  Rx     022A01EE  0  
  1001)      3119.1  Rx     051501EF  8  00 20 A2 F8 96 0B 00 20 
  1002)      3119.4  Rx     022A01EF  0  
  1003)      3120.1  Rx     051501F0  8  00 20 00 20 00 20 00 20 
  1004)      3120.3  Rx     022A01F0  0  
  1005)      3121.0  Rx     051501F1  8  00 20 01 00 C9 B2 01 29 
  1006)      3121.3  Rx     022A01F1  0  
  1007)      3121.9  Rx     051501F2  8  25 D1 00 23 18 E0 29 00 
  1008)      3122.2  Rx     022A01F2  0  
  1009)      3122.8  Rx     051501F3  8  C9 B2 09 01 11 44 26 00 
  1010)      3123.1  Rx     022A01F3  0  
  1011)      3123.7  Rx     051501F4  8  F6 B2 01 EB 46 01 B1 F8 
  1012)      3124.0  Rx     022A01F4  0  
  1013)      3124.6  Rx     051501F5  8  4C 6C B6 B2 41 F2 55 51 
  1014)      3124.9  Rx     022A01F5  0  
  1015)      3125.4  Rx     051501F6  8  76 1A 42 F6 AC 21 8E 42 
  1016)      3125.7  Rx     022A01F6  0  
  1017)      3126.4  Rx     051501F7  8  00 D3 00 20 6D 1C 29 00 
  1018)      3126.6  Rx     022A01F7  0  
  1019)      3127.3  Rx     051501F8  8  C9 B2 04 29 E7 DB 5B 1C 
  1020)      3127.5  Rx     022A01F8  0  
  1021)      3128.2  Rx     051501F9  8  19 00 C9 B2 06 29 06 DA 
  1022)      3128.4  Rx     022A01F9  0  
  1023)      3129.0  Rx     051501FA  8  19 00 C9 B2 11 44 91 F8 
  1024)      3129.3  Rx     022A01FA  0  
  1025)      3130.0  Rx     051501FB  8  86 40 00 25 EF E7 C0 B2 
  1026)      3130.2  Rx     022A01FB  0  
  1027)      3130.8  Rx     051501FC  8  70 BC 70 47 10 B4 C2 6F 
  1028)      3131.1  Rx     022A01FC  0  
  1029)      3131.7  Rx     051501FD  8  92 F8 99 0B 01 28 40 F0 
  1030)      3132.0  Rx     022A01FD  0  
  1031)      3132.7  Rx     051501FE  8  98 80 92 F8 7C 00 00 28 
  1032)      3132.9  Rx     022A01FE  0  
  1033)      3133.6  Rx     051501FF  8  30 D1 92 F8 98 0B 01 28 
  1034)      3133.8  Rx     022A01FF  0  
  1035)      3134.4  Rx     05150200  8  2C D1 92 F8 90 0C 01 28 
  1036)      3134.7  Rx     022A0200  0  
  1037)      3135.3  Rx     05150201  8  28 D1 92 F8 8D 0C 40 01 
  1038)      3144.3  Rx     022A0201  0  
  1039)      3144.9  Rx     05150202  8  10 44 92 F8 83 30 00 EB 
  1040)      3145.2  Rx     022A0202  0  
  1041)      3145.8  Rx     05150203  8  83 00 92 F8 8D 3C 5B 01 
  1042)      3146.1  Rx     022A0203  0  
  1043)      3146.7  Rx     05150204  8  13 44 92 F8 83 40 03 EB 
  1044)      3147.0  Rx     022A0204  0  
  1045)      3147.6  Rx     05150205  8  84 03 D3 F8 CC 3B 3F 24 
  1046)      3147.9  Rx     022A0205  0  
  1047)      3148.5  Rx     05150206  8  04 FB 03 11 89 09 C0 F8 
  1048)      3148.7  Rx     022A0206  0  
  1049)      3149.4  Rx     05150207  8  CC 1B B2 F8 9A 0B F0 28 
  1050)      3149.7  Rx     022A0207  0  
  1051)      3150.3  Rx     05150208  8  05 DA B2 F8 9A 0B 40 1C 
  1052)      3150.6  Rx     022A0208  0  
  1053)      3151.2  Rx     05150209  8  A2 F8 9A 0B 69 E0 00 20 
  1054)      3151.5  Rx     022A0209  0  
  1055)      3152.1  Rx     0515020A  8  A2 F8 9A 0B 02 20 82 F8 
  1056)      3152.4  Rx     022A020A  0  
  1057)      3153.0  Rx     0515020B  8  99 0B 62 E0 00 20 A2 F8 
  1058)      3153.3  Rx     022A020B  0  
  1059)      3153.9  Rx     0515020C  8  9A 0B 00 20 C2 F8 CC 0B 
  1060)      3154.2  Rx     022A020C  0  
  1061)      3154.8  Rx     0515020D  8  00 20 C2 F8 D0 0B 00 20 
  1062)      3155.1  Rx     022A020D  0  
  1063)      3155.7  Rx     0515020E  8  C2 F8 D4 0B 00 20 C2 F8 
  1064)      3156.0  Rx     022A020E  0  
  1065)      3156.7  Rx     0515020F  8  D8 0B 00 20 C2 F8 DC 0B 
  1066)      3156.9  Rx     022A020F  0  
  1067)      3157.6  Rx     05150210  8  00 20 C2 F8 E0 0B 00 20 
  1068)      3157.8  Rx     022A0210  0  
  1069)      3158.5  Rx     05150211  8  C2 F8 E4 0B 00 20 C2 F8 
  1070)      3158.7  Rx     022A0211  0  
  1071)      3159.4  Rx     05150212  8  E8 0B 00 20 C2 F8 EC 0B 
  1072)      3159.7  Rx     022A0212  0  
  1073)      3160.3  Rx     05150213  8  00 20 C2 F8 F0 0B 00 20 
  1074)      3160.6  Rx     022A0213  0  
  1075)      3161.2  Rx     05150214  8  C2 F8 F4 0B 00 20 C2 F8 
  1076)      3161.5  Rx     022A0214  0  
  1077)      3162.1  Rx     05150215  8  F8 0B 00 20 C2 F8 FC 0B 
  1078)      3162.4  Rx     022A0215  0  
  1079)      3163.0  Rx     05150216  8  00 20 C2 F8 00 0C 00 20 
  1080)      3163.2  Rx     022A0216  0  
  1081)      3163.9  Rx     05150217  8  C2 F8 04 0C 00 20 C2 F8 
  1082)      3164.1  Rx     022A0217  0  
  1083)      3164.8  Rx     05150218  8  08 0C 00 20 C2 F8 0C 0C 
  1084)      3165.1  Rx     022A0218  0  
  1085)      3165.7  Rx     05150219  8  00 20 C2 F8 10 0C 00 20 
  1086)      3166.0  Rx     022A0219  0  
  1087)      3166.6  Rx     0515021A  8  C2 F8 14 0C 00 20 C2 F8 
  1088)      3166.9  Rx     022A021A  0  
  1089)      3167.5  Rx     0515021B  8  18 0C 00 20 C2 F8 1C 0C 
  1090)      3167.8  Rx     022A021B  0  
  1091)      3168.5  Rx     0515021C  8  00 20 C2 F8 20 0C 00 20 
  1092)      3168.7  Rx     022A021C  0  
  1093)      3169.4  Rx     0515021D  8  C2 F8 24 0C 00 20 C2 F8 
  1094)      3169.6  Rx     022A021D  0  
  1095)      3170.2  Rx     0515021E  8  28 0C 00 20 C2 F8 2C 0C 
  1096)      3170.5  Rx     022A021E  0  
  1097)      3171.2  Rx     0515021F  8  00 20 C2 F8 30 0C 00 20 
  1098)      3171.4  Rx     022A021F  0  
  1099)      3172.1  Rx     05150220  8  C2 F8 34 0C 00 20 C2 F8 
  1100)      3172.4  Rx     022A0220  0  
  1101)      3173.0  Rx     05150221  8  38 0C 00 20 C2 F8 3C 0C 
  1102)      3173.3  Rx     022A0221  0  
  1103)      3173.9  Rx     05150222  8  00 20 C2 F8 40 0C 00 20 
  1104)      3174.2  Rx     022A0222  0  
  1105)      3174.8  Rx     05150223  8  C2 F8 44 0C 00 20 C2 F8 
  1106)      3175.1  Rx     022A0223  0  
  1107)      3175.7  Rx     05150224  8  48 0C 10 BC 70 47 2D E9 
  1108)      3176.0  Rx     022A0224  0  
  1109)      3176.6  Rx     05150225  8  F0 43 C4 6F 01 25 5F F0 
  1110)      3176.9  Rx     022A0225  0  
  1111)      3177.5  Rx     05150226  8  00 09 00 21 14 E0 08 00 
  1112)      3177.8  Rx     022A0226  0  
  1113)      3178.4  Rx     05150227  8  C0 B2 40 01 20 44 13 00 
  1114)      3178.7  Rx     022A0227  0  
  1115)      3179.2  Rx     05150228  8  DB B2 23 44 93 F8 86 30 
  1116)      3179.5  Rx     022A0228  0  
  1117)      3180.2  Rx     05150229  8  00 EB 83 00 D0 F8 CC 0B 
  1118)      3180.4  Rx     022A0229  0  
  1119)      3181.0  Rx     0515022A  8  10 EB 09 09 52 1C 10 00 
  1120)      3181.3  Rx     022A022A  0  
  1121)      3181.9  Rx     0515022B  8  C0 B2 06 28 EB DB 49 1C 
  1122)      3182.2  Rx     022A022B  0  
  1123)      3182.8  Rx     0515022C  8  08 00 C0 B2 04 28 01 DA 
  1124)      3183.1  Rx     022A022C  0  
  1125)      3183.7  Rx     0515022D  8  00 22 F4 E7 5F EA 99 09 
  1126)      3184.0  Rx     022A022D  0  
  1127)      3184.6  Rx     0515022E  8  B9 F1 00 0F 01 D1 00 20 
  1128)      3184.9  Rx     022A022E  0  
  1129)      3185.6  Rx     0515022F  8  3B E0 00 26 00 E0 76 1C 
  1130)      3185.9  Rx     022A022F  0  
  1131)      3186.5  Rx     05150230  8  30 00 C0 B2 04 28 32 DA 
  1132)      3186.8  Rx     022A0230  0  
  1133)      3187.4  Rx     05150231  8  00 27 38 00 C0 B2 06 28 
  1134)      3187.7  Rx     022A0231  0  
  1135)      3188.3  Rx     05150232  8  F5 DA 38 00 C0 B2 20 44 
  1136)      3188.5  Rx     022A0232  0  
  1137)      3189.1  Rx     05150233  8  90 F8 86 80 30 00 C0 B2 
  1138)      3189.4  Rx     022A0233  0  
  1139)      3190.0  Rx     05150234  8  40 01 20 44 41 46 C9 B2 
  1140)      3190.3  Rx     022A0234  0  
  1141)      3190.9  Rx     05150235  8  00 EB 81 00 D0 F8 CC 0B 
  1142)      3191.2  Rx     022A0235  0  
  1143)      3191.8  Rx     05150236  8  5F F4 80 31 A1 FB 00 01 
  1144)      3192.1  Rx     022A0236  0  
  1145)      3192.7  Rx     05150237  8  4A 46 00 23 02 F0 68 F8 
  1146)      3193.0  Rx     022A0237  0  
  1147)      3193.6  Rx     05150238  8  02 00 92 B2 41 F2 55 51 
  1148)      3193.9  Rx     022A0238  0  
  1149)      3194.4  Rx     05150239  8  52 1A 42 F6 AC 21 8A 42 
  1150)      3194.7  Rx     022A0239  0  
  1151)      3195.3  Rx     0515023A  8  0A D2 31 00 C9 B2 09 01 
  1152)      3195.6  Rx     022A023A  0  
  1153)      3196.2  Rx     0515023B  8  21 44 5F FA 88 F8 01 EB 
  1154)      3196.5  Rx     022A023B  0  
  1155)      3197.1  Rx     0515023C  8  48 01 A1 F8 4C 0C 00 E0 
  1156)      3197.4  Rx     022A023C  0  
  1157)      3198.0  Rx     0515023D  8  00 25 7F 1C CD E7 28 00 
  1158)      3198.3  Rx     022A023D  0  
  1159)      3198.9  Rx     0515023E  8  C0 B2 BD E8 F0 83 2D E9 
  1160)      3199.2  Rx     022A023E  0  
  1161)      3199.9  Rx     0515023F  8  F0 41 C1 6F C0 6F D0 F8 
  1162)      3200.2  Rx     022A023F  0  
  1163)      3200.8  Rx     05150240  8  98 2C 00 20 91 F8 86 40 
  1164)      3201.1  Rx     022A0240  0  
  1165)      3201.6  Rx     05150241  8  23 00 DB B2 01 EB 43 03 
  1166)      3201.9  Rx     022A0241  0  
  1167)      3202.5  Rx     05150242  8  B3 F8 4C 5C 23 00 DB B2 
  1168)      3202.8  Rx     022A0242  0  
  1169)      3203.4  Rx     05150243  8  01 EB 43 03 B3 F8 88 66 
  1170)      3203.7  Rx     022A0243  0  
  1171)      3204.3  Rx     05150244  8  23 00 DB B2 01 EB 43 03 
  1172)      3204.6  Rx     022A0244  0  
  1173)      3205.2  Rx     05150245  8  A3 F8 88 56 93 8D 27 00 
  1174)      3205.5  Rx     022A0245  0  
  1175)      3206.1  Rx     05150246  8  FF B2 01 EB 47 07 A7 F8 
  1176)      3206.4  Rx     022A0246  0  
  1177)      3207.0  Rx     05150247  8  08 34 93 8D EB 18 E4 B2 
  1178)      3207.3  Rx     022A0247  0  
  1179)      3207.9  Rx     05150248  8  01 EB 44 04 A4 F8 48 35 
  1180)      3208.2  Rx     022A0248  0  
  1181)      3208.8  Rx     05150249  8  34 00 A4 B2 04 F2 8E 34 
  1182)      3209.1  Rx     022A0249  0  
  1183)      3209.7  Rx     0515024A  8  2F 00 BF B2 BC 42 05 DB 
  1184)      3210.0  Rx     022A024A  0  
  1185)      3210.5  Rx     0515024B  8  AD B2 B6 B2 A6 F2 8E 36 
  1186)      3210.8  Rx     022A024B  0  
  1187)      3211.4  Rx     0515024C  8  B5 42 00 DA 01 20 00 24 
  1188)      3211.7  Rx     022A024C  0  
  1189)      3212.3  Rx     0515024D  8  59 E0 2E 00 F6 B2 0E 44 
  1190)      3212.6  Rx     022A024D  0  
  1191)      3213.2  Rx     0515024E  8  96 F8 86 60 27 00 FF B2 
  1192)      3213.5  Rx     022A024E  0  
  1193)      3214.1  Rx     0515024F  8  3F 01 0F 44 B4 46 5F FA 
  1194)      3214.4  Rx     022A024F  0  
  1195)      3215.0  Rx     05150250  8  8C FC 07 EB 4C 07 B7 F8 
  1196)      3215.3  Rx     022A0250  0  
  1197)      3215.9  Rx     05150251  8  4C 7C A4 46 5F FA 8C FC 
  1198)      3216.2  Rx     022A0251  0  
  1199)      3216.8  Rx     05150252  8  5F EA 0C 1C 8C 44 B6 46 
  1200)      3217.1  Rx     022A0252  0  
  1201)      3217.7  Rx     05150253  8  5F FA 8E FE 0C EB 4E 0C 
  1202)      3218.0  Rx     022A0253  0  
  1203)      3218.6  Rx     05150254  8  BC F8 88 C6 A6 46 5F FA 
  1204)      3218.9  Rx     022A0254  0  
  1205)      3219.5  Rx     05150255  8  8E FE 5F EA 0E 1E 8E 44 
  1206)      3219.7  Rx     022A0255  0  
  1207)      3220.4  Rx     05150256  8  B0 46 5F FA 88 F8 0E EB 
  1208)      3220.6  Rx     022A0256  0  
  1209)      3221.2  Rx     05150257  8  48 0E AE F8 88 76 A6 46 
  1210)      3221.5  Rx     022A0257  0  
  1211)      3222.1  Rx     05150258  8  5F FA 8E FE 5F EA 0E 1E 
  1212)      3222.4  Rx     022A0258  0  
  1213)      3223.0  Rx     05150259  8  8E 44 B0 46 5F FA 88 F8 
  1214)      3223.3  Rx     022A0259  0  
  1215)      3223.9  Rx     0515025A  8  0E EB 48 0E AE F8 08 34 
  1216)      3224.2  Rx     022A025A  0  
  1217)      3224.8  Rx     0515025B  8  FB 18 A6 46 5F FA 8E FE 
  1218)      3225.1  Rx     022A025B  0  
  1219)      3225.7  Rx     0515025C  8  5F EA 0E 1E 8E 44 F6 B2 
  1220)      3226.0  Rx     022A025C  0  
  1221)      3226.6  Rx     0515025D  8  0E EB 46 06 A6 F8 48 35 
  1222)      3226.9  Rx     022A025D  0  
  1223)      3227.5  Rx     0515025E  8  66 46 B6 B2 06 F2 8E 36 
  1224)      3227.8  Rx     022A025E  0  
  1225)      3228.4  Rx     0515025F  8  BE 46 1F FA 8E FE 76 45 
  1226)      3228.7  Rx     022A025F  0  
  1227)      3229.3  Rx     05150260  8  06 DB BF B2 1F FA 8C FC 
  1228)      3229.6  Rx     022A0260  0  
  1229)      3230.1  Rx     05150261  8  AC F2 8E 3C 67 45 00 DA 
  1230)      3230.4  Rx     022A0261  0  
  1231)      3231.0  Rx     05150262  8  01 20 6D 1C 2E 00 F6 B2 
  1232)      3231.3  Rx     022A0262  0  
  1233)      3231.9  Rx     05150263  8  06 2E A6 DB 64 1C 25 00 
  1234)      3232.2  Rx     022A0263  0  
  1235)      3232.8  Rx     05150264  8  ED B2 04 2D 60 DA 25 00 
  1236)      3233.1  Rx     022A0264  0  
  1237)      3233.7  Rx     05150265  8  ED B2 00 2D 5A D1 01 25 
  1238)      3234.0  Rx     022A0265  0  
  1239)      3234.6  Rx     05150266  8  2E 00 F6 B2 06 2E F1 DA 
  1240)      3234.9  Rx     022A0266  0  
  1241)      3235.5  Rx     05150267  8  2E 00 F6 B2 0E 44 96 F8 
  1242)      3235.8  Rx     022A0267  0  
  1243)      3236.4  Rx     05150268  8  86 60 27 00 FF B2 3F 01 
  1244)      3236.7  Rx     022A0268  0  
  1245)      3237.3  Rx     05150269  8  0F 44 B4 46 5F FA 8C FC 
  1246)      3237.6  Rx     022A0269  0  
  1247)      3238.2  Rx     0515026A  8  07 EB 4C 07 B7 F8 4C 7C 
  1248)      3238.5  Rx     022A026A  0  
  1249)      3239.1  Rx     0515026B  8  A4 46 5F FA 8C FC 5F EA 
  1250)      3239.4  Rx     022A026B  0  
  1251)      3240.0  Rx     0515026C  8  0C 1C 8C 44 B6 46 5F FA 
  1252)      3240.3  Rx     022A026C  0  
  1253)      3240.9  Rx     0515026D  8  8E FE 0C EB 4E 0C BC F8 
  1254)      3241.1  Rx     022A026D  0  
  1255)      3241.7  Rx     0515026E  8  88 C6 A6 46 5F FA 8E FE 
  1256)      3242.0  Rx     022A026E  0  
  1257)      3242.7  Rx     0515026F  8  5F EA 0E 1E 8E 44 B0 46 
  1258)      3242.9  Rx     022A026F  0  
  1259)      3243.5  Rx     05150270  8  5F FA 88 F8 0E EB 48 0E 
  1260)      3243.8  Rx     022A0270  0  
  1261)      3244.4  Rx     05150271  8  AE F8 88 76 A6 46 5F FA 
  1262)      3244.7  Rx     022A0271  0  
  1263)      3245.3  Rx     05150272  8  8E FE 5F EA 0E 1E 8E 44 
  1264)      3245.6  Rx     022A0272  0  
  1265)      3246.2  Rx     05150273  8  B0 46 5F FA 88 F8 0E EB 
  1266)      3246.5  Rx     022A0273  0  
  1267)      3247.1  Rx     05150274  8  48 0E AE F8 08 34 FB 18 
  1268)      3247.4  Rx     022A0274  0  
  1269)      3248.0  Rx     05150275  8  A6 46 5F FA 8E FE 5F EA 
  1270)      3248.2  Rx     022A0275  0  
  1271)      3248.8  Rx     05150276  8  0E 1E 8E 44 F6 B2 0E EB 
  1272)      3249.1  Rx     022A0276  0  
  1273)      3249.7  Rx     05150277  8  46 06 A6 F8 48 35 66 46 
  1274)      3250.0  Rx     022A0277  0  
  1275)      3250.6  Rx     05150278  8  B6 B2 06 F2 8E 36 BE 46 
  1276)      3250.9  Rx     022A0278  0  
  1277)      3251.5  Rx     05150279  8  1F FA 8E FE 76 45 06 DB 
  1278)      3251.8  Rx     022A0279  0  
  1279)      3252.4  Rx     0515027A  8  BF B2 1F FA 8C FC AC F2 
  1280)      3252.7  Rx     022A027A  0  
  1281)      3253.3  Rx     0515027B  8  8E 3C 67 45 00 DA 01 20 
  1282)      3253.5  Rx     022A027B  0  
  1283)      3254.1  Rx     0515027C  8  6D 1C A5 E7 00 25 95 E7 
  1284)      3254.4  Rx     022A027C  0  
  1285)      3255.0  Rx     0515027D  8  91 F8 8B 30 92 8D DB B2 
  1286)      3255.3  Rx     022A027D  0  
  1287)      3255.9  Rx     0515027E  8  01 EB 43 01 A1 F8 78 25 
  1288)      3256.2  Rx     022A027E  0  
  1289)      3256.8  Rx     0515027F  8  C0 B2 BD E8 F0 81 70 47 
  1290)      3257.1  Rx     022A027F  0  
  1291)      3257.7  Rx     05150280  8  10 B5 C4 6F 94 F8 99 1B 
  1292)      3258.0  Rx     022A0280  0  
  1293)      3258.6  Rx     05150281  8  00 29 08 D0 02 29 0B D0 
  1294)      3274.9  Rx     022A0281  0  
  1295)      3275.5  Rx     05150282  8  09 D3 04 29 20 D0 13 D3 
  1296)      3275.8  Rx     022A0282  0  
  1297)      3276.4  Rx     05150283  8  05 29 23 D0 89 E0 01 20 
  1298)      3276.7  Rx     022A0283  0  
  1299)      3277.3  Rx     05150284  8  84 F8 99 0B 85 E0 84 E0 
  1300)      3277.6  Rx     022A0284  0  
  1301)      3278.2  Rx     05150285  8  FF F7 7D FE 01 28 03 D1 
  1302)      3278.4  Rx     022A0285  0  
  1303)      3279.0  Rx     05150286  8  03 20 84 F8 99 0B 02 E0 
  1304)      3279.3  Rx     022A0286  0  
  1305)      3279.9  Rx     05150287  8  05 20 84 F8 99 0B 78 E0 
  1306)      3280.2  Rx     022A0287  0  
  1307)      3280.8  Rx     05150288  8  FF F7 D9 FE 01 28 03 D1 
  1308)      3281.1  Rx     022A0288  0  
  1309)      3281.7  Rx     05150289  8  04 20 84 F8 99 0B 02 E0 
  1310)      3282.0  Rx     022A0289  0  
  1311)      3282.6  Rx     0515028A  8  00 20 84 F8 99 0B 6C E0 
  1312)      3282.9  Rx     022A028A  0  
  1313)      3283.5  Rx     0515028B  8  FF F7 D1 FF 00 20 84 F8 
  1314)      3283.8  Rx     022A028B  0  
  1315)      3284.4  Rx     0515028C  8  99 0B 66 E0 00 20 A4 F8 
  1316)      3284.7  Rx     022A028C  0  
  1317)      3285.3  Rx     0515028D  8  9A 0B 00 20 C4 F8 CC 0B 
  1318)      3285.6  Rx     022A028D  0  
  1319)      3286.2  Rx     0515028E  8  00 20 C4 F8 D0 0B 00 20 
  1320)      3286.5  Rx     022A028E  0  
  1321)      3287.1  Rx     0515028F  8  C4 F8 D4 0B 00 20 C4 F8 
  1322)      3287.4  Rx     022A028F  0  
  1323)      3288.0  Rx     05150290  8  D8 0B 00 20 C4 F8 DC 0B 
  1324)      3288.3  Rx     022A0290  0  
  1325)      3288.9  Rx     05150291  8  00 20 C4 F8 E0 0B 00 20 
  1326)      3289.2  Rx     022A0291  0  
  1327)      3289.8  Rx     05150292  8  C4 F8 E4 0B 00 20 C4 F8 
  1328)      3290.1  Rx     022A0292  0  
  1329)      3290.7  Rx     05150293  8  E8 0B 00 20 C4 F8 EC 0B 
  1330)      3291.0  Rx     022A0293  0  
  1331)      3291.6  Rx     05150294  8  00 20 C4 F8 F0 0B 00 20 
  1332)      3291.9  Rx     022A0294  0  
  1333)      3292.5  Rx     05150295  8  C4 F8 F4 0B 00 20 C4 F8 
  1334)      3292.8  Rx     022A0295  0  
  1335)      3293.4  Rx     05150296  8  F8 0B 00 20 C4 F8 FC 0B 
  1336)      3293.7  Rx     022A0296  0  
  1337)      3294.3  Rx     05150297  8  00 20 C4 F8 00 0C 00 20 
  1338)      3294.6  Rx     022A0297  0  
  1339)      3295.2  Rx     05150298  8  C4 F8 04 0C 00 20 C4 F8 
  1340)      3295.5  Rx     022A0298  0  
  1341)      3296.2  Rx     05150299  8  08 0C 00 20 C4 F8 0C 0C 
  1342)      3296.4  Rx     022A0299  0  
  1343)      3297.0  Rx     0515029A  8  00 20 C4 F8 10 0C 00 20 
  1344)      3297.3  Rx     022A029A  0  
  1345)      3297.9  Rx     0515029B  8  C4 F8 14 0C 00 20 C4 F8 
  1346)      3298.2  Rx     022A029B  0  
  1347)      3298.8  Rx     0515029C  8  18 0C 00 20 C4 F8 1C 0C 
  1348)      3299.1  Rx     022A029C  0  
  1349)      3299.8  Rx     0515029D  8  00 20 C4 F8 20 0C 00 20 
  1350)      3300.1  Rx     022A029D  0  
  1351)      3300.7  Rx     0515029E  8  C4 F8 24 0C 00 20 C4 F8 
  1352)      3301.0  Rx     022A029E  0  
  1353)      3301.6  Rx     0515029F  8  28 0C 00 20 C4 F8 2C 0C 
  1354)      3301.9  Rx     022A029F  0  
  1355)      3302.5  Rx     051502A0  8  00 20 C4 F8 30 0C 00 20 
  1356)      3302.8  Rx     022A02A0  0  
  1357)      3303.4  Rx     051502A1  8  C4 F8 34 0C 00 20 C4 F8 
  1358)      3303.7  Rx     022A02A1  0  
  1359)      3304.3  Rx     051502A2  8  38 0C 00 20 C4 F8 3C 0C 
  1360)      3304.6  Rx     022A02A2  0  
  1361)      3305.2  Rx     051502A3  8  00 20 C4 F8 40 0C 00 20 
  1362)      3305.5  Rx     022A02A3  0  
  1363)      3306.1  Rx     051502A4  8  C4 F8 44 0C 00 20 C4 F8 
  1364)      3306.4  Rx     022A02A4  0  
  1365)      3307.0  Rx     051502A5  8  48 0C 00 20 84 F8 99 0B 
  1366)      3307.3  Rx     022A02A5  0  
  1367)      3307.9  Rx     051502A6  8  FF E7 10 BD 30 B4 10 F1 
  1368)      3308.2  Rx     022A02A6  0  
  1369)      3308.8  Rx     051502A7  8  48 02 C1 6F C0 6F D0 F8 
  1370)      3309.1  Rx     022A02A7  0  
  1371)      3309.7  Rx     051502A8  8  98 3C 91 F8 8D 0C 40 01 
  1372)      3310.0  Rx     022A02A8  0  
  1373)      3310.6  Rx     051502A9  8  08 44 D0 F8 08 4B 08 79 
  1374)      3310.9  Rx     022A02A9  0  
  1375)      3311.5  Rx     051502AA  8  01 28 61 D1 00 20 08 70 
  1376)      3311.8  Rx     022A02AA  0  
  1377)      3312.4  Rx     051502AB  8  00 20 81 F8 3A 00 00 20 
  1378)      3312.7  Rx     022A02AB  0  
  1379)      3313.3  Rx     051502AC  8  81 F8 3B 00 00 20 88 87 
  1380)      3313.6  Rx     022A02AC  0  
  1381)      3314.2  Rx     051502AD  8  00 20 A1 F8 50 00 00 20 
  1382)      3314.5  Rx     022A02AD  0  
  1383)      3315.1  Rx     051502AE  8  90 80 00 20 D0 80 00 20 
  1384)      3315.4  Rx     022A02AE  0  
  1385)      3316.0  Rx     051502AF  8  10 81 91 F8 7C 50 40 20 
  1386)      3316.3  Rx     022A02AF  0  
  1387)      3316.9  Rx     051502B0  8  45 43 01 EB 05 00 91 F8 
  1388)      3317.2  Rx     022A02B0  0  
  1389)      3317.8  Rx     051502B1  8  8C 5C 2D 01 28 44 91 F8 
  1390)      3318.0  Rx     022A02B1  0  
  1391)      3318.7  Rx     051502B2  8  82 50 00 EB 45 00 B0 F8 
  1392)      3318.9  Rx     022A02B2  0  
  1393)      3319.5  Rx     051502B3  8  C8 02 A1 F8 6A 00 91 F8 
  1394)      3319.8  Rx     022A02B3  0  
  1395)      3320.4  Rx     051502B4  8  7C 50 40 20 45 43 01 EB 
  1396)      3320.7  Rx     022A02B4  0  
  1397)      3321.3  Rx     051502B5  8  05 00 91 F8 8C 5C 2D 01 
  1398)      3321.6  Rx     022A02B5  0  
  1399)      3322.2  Rx     051502B6  8  28 44 91 F8 82 50 00 EB 
  1400)      3322.5  Rx     022A02B6  0  
  1401)      3323.1  Rx     051502B7  8  45 00 B0 F8 88 06 A1 F8 
  1402)      3323.4  Rx     022A02B7  0  
  1403)      3324.0  Rx     051502B8  8  88 0B B1 F8 6A 00 10 80 
  1404)      3324.3  Rx     022A02B8  0  
  1405)      3324.9  Rx     051502B9  8  10 88 A1 F8 4E 00 00 20 
  1406)      3325.2  Rx     022A02B9  0  
  1407)      3325.8  Rx     051502BA  8  A1 F8 4A 00 00 20 A1 F8 
  1408)      3326.1  Rx     022A02BA  0  
  1409)      3326.7  Rx     051502BB  8  8A 0B 00 20 C8 71 00 20 
  1410)      3327.0  Rx     022A02BB  0  
  1411)      3327.6  Rx     051502BC  8  81 F8 38 00 00 20 81 F8 
  1412)      3327.9  Rx     022A02BC  0  
  1413)      3328.5  Rx     051502BD  8  39 00 00 20 0C E0 02 00 
  1414)      3328.8  Rx     022A02BD  0  
  1415)      3329.4  Rx     051502BE  8  D2 B2 01 EB C2 02 94 60 
  1416)      3329.7  Rx     022A02BE  0  
  1417)      3330.3  Rx     051502BF  8  91 F8 64 20 05 00 ED B2 
  1418)      3330.6  Rx     022A02BF  0  
  1419)      3331.2  Rx     051502C0  8  01 EB C5 05 2A 73 40 1C 
  1420)      3331.5  Rx     022A02C0  0  
  1421)      3332.1  Rx     051502C1  8  02 00 93 F8 30 50 D2 B2 
  1422)      3332.4  Rx     022A02C1  0  
  1423)      3333.0  Rx     051502C2  8  AA 42 EC D3 00 20 48 70 
  1424)      3333.3  Rx     022A02C2  0  
  1425)      3333.9  Rx     051502C3  8  30 BC 70 47 70 B5 10 F1 
  1426)      3334.2  Rx     022A02C3  0  
  1427)      3334.8  Rx     051502C4  8  48 02 C4 6F C1 6F D1 F8 
  1428)      3335.1  Rx     022A02C4  0  
  1429)      3335.7  Rx     051502C5  8  98 3C 94 F8 7C 50 40 21 
  1430)      3336.0  Rx     022A02C5  0  
  1431)      3336.6  Rx     051502C6  8  4D 43 04 EB 05 01 94 F8 
  1432)      3336.9  Rx     022A02C6  0  
  1433)      3337.5  Rx     051502C7  8  8C 5C 2D 01 29 44 94 F8 
  1434)      3337.8  Rx     022A02C7  0  
  1435)      3338.4  Rx     051502C8  8  82 50 01 EB 45 01 B1 F8 
  1436)      3338.7  Rx     022A02C8  0  
  1437)      3339.3  Rx     051502C9  8  C8 17 B4 F8 70 50 89 B2 
  1438)      3339.6  Rx     022A02C9  0  
  1439)      3340.2  Rx     051502CA  8  8D 42 79 D2 B4 F8 70 10 
  1440)      3340.5  Rx     022A02CA  0  
  1441)      3341.1  Rx     051502CB  8  49 1C A4 F8 70 10 B4 F8 
  1442)      3341.3  Rx     022A02CB  0  
  1443)      3341.9  Rx     051502CC  8  88 3B B4 F8 8A 1B CB 18 
  1444)      3342.2  Rx     022A02CC  0  
  1445)      3342.8  Rx     051502CD  8  94 F9 65 10 01 29 34 D1 
  1446)      3343.1  Rx     022A02CD  0  
  1447)      3343.7  Rx     051502CE  8  15 88 B4 F8 6A 10 69 1A 
  1448)      3344.0  Rx     022A02CE  0  
  1449)      3344.6  Rx     051502CF  8  1D 00 09 B2 2D B2 A9 42 
  1450)      3344.9  Rx     022A02CF  0  
  1451)      3345.5  Rx     051502D0  8  07 DA 13 88 95 88 B4 F8 
  1452)      3345.8  Rx     022A02D0  0  
  1453)      3346.4  Rx     051502D1  8  50 10 4D 19 EB 18 13 80 
  1454)      3346.7  Rx     022A02D1  0  
  1455)      3347.3  Rx     051502D2  8  03 E0 B4 F8 6A 10 5B 18 
  1456)      3347.6  Rx     022A02D2  0  
  1457)      3348.2  Rx     051502D3  8  13 80 B4 F8 4E 30 B4 F8 
  1458)      3348.5  Rx     022A02D3  0  
  1459)      3349.1  Rx     051502D4  8  6A 10 59 1A 42 F6 AA 23 
  1460)      3349.4  Rx     022A02D4  0  
  1461)      3350.0  Rx     051502D5  8  B4 F9 88 5B 5D 19 09 B2 
  1462)      3350.3  Rx     022A02D5  0  
  1463)      3350.9  Rx     051502D6  8  8D 42 09 DB B4 F8 4E 30 
  1464)      3351.1  Rx     022A02D6  0  
  1465)      3351.7  Rx     051502D7  8  92 88 B4 F8 50 10 8A 18 
  1466)      3352.0  Rx     022A02D7  0  
  1467)      3352.6  Rx     051502D8  8  D3 18 A4 F8 4E 30 B9 E0 
  1468)      3352.9  Rx     022A02D8  0  
  1469)      3353.5  Rx     051502D9  8  B4 F8 6A 20 B4 F8 88 1B 
  1470)      3353.8  Rx     022A02D9  0  
  1471)      3354.4  Rx     051502DA  8  8A 18 9B 18 A4 F8 4E 30 
  1472)      3354.7  Rx     022A02DA  0  
  1473)      3355.3  Rx     051502DB  8  B0 E0 B4 F8 6A 50 11 88 
  1474)      3355.5  Rx     022A02DB  0  
  1475)      3356.2  Rx     051502DC  8  69 1A 1D 00 2D B2 09 B2 
  1476)      3356.4  Rx     022A02DC  0  
  1477)      3357.0  Rx     051502DD  8  8D 42 07 DB 13 88 95 88 
  1478)      3357.3  Rx     022A02DD  0  
  1479)      3357.9  Rx     051502DE  8  B4 F8 50 10 4D 19 EB 18 
  1480)      3358.2  Rx     022A02DE  0  
  1481)      3358.8  Rx     051502DF  8  13 80 03 E0 B4 F8 6A 10 
  1482)      3359.1  Rx     022A02DF  0  
  1483)      3359.7  Rx     051502E0  8  CB 1A 13 80 B4 F8 6A 30 
  1484)      3360.0  Rx     022A02E0  0  
  1485)      3360.6  Rx     051502E1  8  B4 F8 4E 10 59 1A B4 F9 
  1486)      3360.9  Rx     022A02E1  0  
  1487)      3361.5  Rx     051502E2  8  88 3B 03 F5 28 53 AA 33 
  1488)      3361.8  Rx     022A02E2  0  
  1489)      3362.4  Rx     051502E3  8  09 B2 8B 42 09 DB B4 F8 
  1490)      3362.7  Rx     022A02E3  0  
  1491)      3363.3  Rx     051502E4  8  4E 30 92 88 B4 F8 50 10 
  1492)      3363.6  Rx     022A02E4  0  
  1493)      3364.2  Rx     051502E5  8  8A 18 D3 18 A4 F8 4E 30 
  1494)      3364.4  Rx     022A02E5  0  
  1495)      3365.1  Rx     051502E6  8  84 E0 B4 F8 6A 20 B4 F8 
  1496)      3365.4  Rx     022A02E6  0  
  1497)      3366.0  Rx     051502E7  8  88 1B 52 1A 42 F6 AA 21 
  1498)      3366.3  Rx     022A02E7  0  
  1499)      3366.9  Rx     051502E8  8  51 1A A4 F8 4E 10 79 E0 
  1500)      3367.1  Rx     022A02E8  0  
  1501)      3367.7  Rx     051502E9  8  94 F8 8C 1C 49 01 21 44 
  1502)      3368.0  Rx     022A02E9  0  
  1503)      3368.6  Rx     051502EA  8  D1 F8 08 5B 01 21 21 71 
  1504)      3368.9  Rx     022A02EA  0  
  1505)      3369.5  Rx     051502EB  8  00 21 21 70 00 21 84 F8 
  1506)      3369.8  Rx     022A02EB  0  
  1507)      3370.4  Rx     051502EC  8  3A 10 00 21 84 F8 3B 10 
  1508)      3370.7  Rx     022A02EC  0  
  1509)      3371.3  Rx     051502ED  8  00 21 A4 F8 50 10 00 21 
  1510)      3371.6  Rx     022A02ED  0  
  1511)      3372.2  Rx     051502EE  8  A1 87 00 21 91 80 00 21 
  1512)      3372.5  Rx     022A02EE  0  
  1513)      3373.1  Rx     051502EF  8  D1 80 00 21 11 81 94 F8 
  1514)      3373.4  Rx     022A02EF  0  
  1515)      3374.0  Rx     051502F0  8  7C 60 40 21 4E 43 04 EB 
  1516)      3374.3  Rx     022A02F0  0  
  1517)      3374.9  Rx     051502F1  8  06 01 94 F8 8C 6C 36 01 
  1518)      3375.1  Rx     022A02F1  0  
  1519)      3375.8  Rx     051502F2  8  31 44 94 F8 82 60 01 EB 
  1520)      3376.0  Rx     022A02F2  0  
  1521)      3376.6  Rx     051502F3  8  46 01 B1 F8 C8 12 A4 F8 
  1522)      3376.9  Rx     022A02F3  0  
  1523)      3377.5  Rx     051502F4  8  6A 10 94 F8 7C 60 40 21 
  1524)      3377.8  Rx     022A02F4  0  
  1525)      3378.4  Rx     051502F5  8  4E 43 04 EB 06 01 94 F8 
  1526)      3378.7  Rx     022A02F5  0  
  1527)      3379.3  Rx     051502F6  8  8C 6C 36 01 31 44 94 F8 
  1528)      3379.6  Rx     022A02F6  0  
  1529)      3380.2  Rx     051502F7  8  82 60 01 EB 46 01 B1 F8 
  1530)      3380.5  Rx     022A02F7  0  
  1531)      3381.1  Rx     051502F8  8  88 16 A4 F8 88 1B B4 F8 
  1532)      3381.4  Rx     022A02F8  0  
  1533)      3382.0  Rx     051502F9  8  6A 60 11 88 76 1A A4 F8 
  1534)      3382.3  Rx     022A02F9  0  
  1535)      3382.9  Rx     051502FA  8  4A 60 B4 F9 4A 10 B4 F9 
  1536)      3383.2  Rx     022A02FA  0  
  1537)      3383.8  Rx     051502FB  8  4C 60 11 FB 06 F1 11 F5 
  1538)      3384.1  Rx     022A02FB  0  
  1539)      3384.7  Rx     051502FC  8  80 41 C9 13 A4 F8 50 10 
  1540)      3385.0  Rx     022A02FC  0  
  1541)      3385.6  Rx     051502FD  8  16 88 B4 F8 50 10 8E 19 
  1542)      3385.9  Rx     022A02FD  0  
  1543)      3386.5  Rx     051502FE  8  16 80 11 88 A4 F8 4E 10 
  1544)      3386.8  Rx     022A02FE  0  
  1545)      3387.4  Rx     051502FF  8  00 21 A4 F8 8A 1B 00 21 
  1546)      3387.7  Rx     022A02FF  0  
  1547)      3388.3  Rx     05150300  8  E1 71 00 21 84 F8 38 10 
  1548)      3388.6  Rx     022A0300  0  
  1549)      3389.3  Rx     05150301  8  00 21 84 F8 39 10 00 21 
  1550)      3398.2  Rx     022A0301  0  
  1551)      3398.8  Rx     05150302  8  0C E0 0A 00 D2 B2 04 EB 
  1552)      3399.1  Rx     022A0302  0  
  1553)      3399.7  Rx     05150303  8  C2 02 95 60 94 F8 64 20 
  1554)      3400.0  Rx     022A0303  0  
  1555)      3400.6  Rx     05150304  8  0E 00 F6 B2 04 EB C6 06 
  1556)      3400.9  Rx     022A0304  0  
  1557)      3401.5  Rx     05150305  8  32 73 49 1C 0A 00 93 F8 
  1558)      3401.8  Rx     022A0305  0  
  1559)      3402.4  Rx     05150306  8  30 60 D2 B2 B2 42 EC D3 
  1560)      3402.7  Rx     022A0306  0  
  1561)      3403.3  Rx     05150307  8  00 21 61 70 94 F8 92 1C 
  1562)      3403.6  Rx     022A0307  0  
  1563)      3404.2  Rx     05150308  8  00 29 32 D0 94 F8 94 1C 
  1564)      3404.5  Rx     022A0308  0  
  1565)      3405.1  Rx     05150309  8  00 29 1E D0 00 F0 45 FD 
  1566)      3405.4  Rx     022A0309  0  
  1567)      3406.0  Rx     0515030A  8  94 F8 83 10 C0 B2 88 42 
  1568)      3406.3  Rx     022A030A  0  
  1569)      3406.9  Rx     0515030B  8  13 D0 94 F8 93 0C 0A 28 
  1570)      3407.2  Rx     022A030B  0  
  1571)      3407.8  Rx     0515030C  8  05 DA 94 F8 93 0C 40 1C 
  1572)      3408.0  Rx     022A030C  0  
  1573)      3408.7  Rx     0515030D  8  84 F8 93 0C 13 E0 01 20 
  1574)      3408.9  Rx     022A030D  0  
  1575)      3409.6  Rx     0515030E  8  84 F8 91 0C 00 20 84 F8 
  1576)      3409.8  Rx     022A030E  0  
  1577)      3410.4  Rx     0515030F  8  92 0C 00 20 84 F8 93 0C 
  1578)      3410.7  Rx     022A030F  0  
  1579)      3411.4  Rx     05150310  8  09 E0 00 20 84 F8 93 0C 
  1580)      3411.7  Rx     022A0310  0  
  1581)      3412.3  Rx     05150311  8  05 E0 00 20 84 F8 92 0C 
  1582)      3412.5  Rx     022A0311  0  
  1583)      3413.2  Rx     05150312  8  00 20 84 F8 91 0C 94 F8 
  1584)      3413.4  Rx     022A0312  0  
  1585)      3414.1  Rx     05150313  8  94 0C 00 28 0B D0 94 F8 
  1586)      3414.3  Rx     022A0313  0  
  1587)      3415.0  Rx     05150314  8  94 0C 40 1E 84 F8 94 0C 
  1588)      3415.2  Rx     022A0314  0  
  1589)      3415.8  Rx     05150315  8  05 E0 20 20 84 F8 94 0C 
  1590)      3416.1  Rx     022A0315  0  
  1591)      3416.7  Rx     05150316  8  00 20 84 F8 93 0C 70 BD 
  1592)      3417.0  Rx     022A0316  0  
  1593)      3417.7  Rx     05150317  8  82 6F C0 6F 90 F8 8C 0B 
  1594)      3417.9  Rx     022A0317  0  
  1595)      3418.5  Rx     05150318  8  D2 89 0A 23 89 B2 C0 B2 
  1596)      3418.8  Rx     022A0318  0  
  1597)      3419.4  Rx     05150319  8  41 43 59 43 3C 20 B1 FB 
  1598)      3419.7  Rx     022A0319  0  
  1599)      3420.3  Rx     0515031A  8  F0 F1 89 B2 5F F4 80 30 
  1600)      3420.6  Rx     022A031A  0  
  1601)      3421.2  Rx     0515031B  8  41 43 92 B2 5A 43 B1 FB 
  1602)      3421.5  Rx     022A031B  0  
  1603)      3422.1  Rx     0515031C  8  F2 F0 80 B2 70 47 C0 6F 
  1604)      3422.4  Rx     022A031C  0  
  1605)      3423.0  Rx     0515031D  8  90 F8 8C 0B 89 B2 C0 B2 
  1606)      3423.3  Rx     022A031D  0  
  1607)      3423.9  Rx     0515031E  8  41 43 0A 20 41 43 3C 20 
  1608)      3424.1  Rx     022A031E  0  
  1609)      3424.7  Rx     0515031F  8  B1 FB F0 F0 80 B2 70 47 
  1610)      3425.0  Rx     022A031F  0  
  1611)      3425.7  Rx     05150320  8  C1 6F 48 78 00 28 03 D0 
  1612)      3425.9  Rx     022A0320  0  
  1613)      3426.6  Rx     05150321  8  00 20 48 70 01 20 00 E0 
  1614)      3426.8  Rx     022A0321  0  
  1615)      3427.5  Rx     05150322  8  00 20 70 47 C0 6F 00 78 
  1616)      3427.7  Rx     022A0322  0  
  1617)      3428.4  Rx     05150323  8  70 47 C0 6F 80 F8 8C 1B 
  1618)      3428.6  Rx     022A0323  0  
  1619)      3429.2  Rx     05150324  8  70 47 2D E9 FE 43 10 F1 
  1620)      3429.5  Rx     022A0324  0  
  1621)      3430.1  Rx     05150325  8  48 02 85 6F C4 6F C1 6F 
  1622)      3430.4  Rx     022A0325  0  
  1623)      3431.0  Rx     05150326  8  D1 F8 98 EC 00 21 00 21 
  1624)      3431.3  Rx     022A0326  0  
  1625)      3431.9  Rx     05150327  8  00 21 5F F0 00 08 94 F8 
  1626)      3432.2  Rx     022A0327  0  
  1627)      3432.8  Rx     05150328  8  7C 30 40 21 4B 43 04 EB 
  1628)      3433.1  Rx     022A0328  0  
  1629)      3433.7  Rx     05150329  8  03 01 94 F8 8C 3C 1B 01 
  1630)      3434.0  Rx     022A0329  0  
  1631)      3434.6  Rx     0515032A  8  19 44 94 F8 82 30 01 EB 
  1632)      3434.9  Rx     022A032A  0  
  1633)      3435.5  Rx     0515032B  8  43 01 B1 F9 88 36 94 F8 
  1634)      3435.8  Rx     022A032B  0  
  1635)      3436.4  Rx     0515032C  8  7C 60 40 21 4E 43 04 EB 
  1636)      3436.7  Rx     022A032C  0  
  1637)      3437.3  Rx     0515032D  8  06 01 94 F8 8D 6C 36 01 
  1638)      3437.6  Rx     022A032D  0  
  1639)      3438.2  Rx     0515032E  8  31 44 94 F8 83 60 01 EB 
  1640)      3438.5  Rx     022A032E  0  
  1641)      3439.1  Rx     0515032F  8  46 01 B1 F8 88 96 21 79 
  1642)      3439.3  Rx     022A032F  0  
  1643)      3440.0  Rx     05150330  8  01 29 0F D1 00 21 84 F8 
  1644)      3440.2  Rx     022A0330  0  
  1645)      3440.9  Rx     05150331  8  3A 10 00 21 84 F8 3B 10 
  1646)      3441.1  Rx     022A0331  0  
  1647)      3441.8  Rx     05150332  8  00 21 A1 87 00 21 A4 F8 
  1648)      3442.0  Rx     022A0332  0  
  1649)      3442.7  Rx     05150333  8  50 10 00 21 21 70 00 26 
  1650)      3442.9  Rx     022A0333  0  
  1651)      3443.6  Rx     05150334  8  00 21 6F E0 94 F8 39 10 
  1652)      3443.8  Rx     022A0334  0  
  1653)      3444.4  Rx     05150335  8  C9 B2 04 EB C1 01 D1 E9 
  1654)      3444.7  Rx     022A0335  0  
  1655)      3445.3  Rx     05150336  8  02 67 CD E9 00 67 00 99 
  1656)      3445.6  Rx     022A0336  0  
  1657)      3446.2  Rx     05150337  8  00 29 01 D1 00 20 FC E2 
  1658)      3446.5  Rx     022A0337  0  
  1659)      3447.1  Rx     05150338  8  A1 6D 1F FA 89 F9 09 FB 
  1660)      3447.4  Rx     022A0338  0  
  1661)      3448.0  Rx     05150339  8  01 F9 00 99 B9 FB F1 F1 
  1662)      3448.3  Rx     022A0339  0  
  1663)      3448.9  Rx     0515033A  8  9D F9 04 60 11 FB 06 F6 
  1664)      3449.2  Rx     022A033A  0  
  1665)      3449.8  Rx     0515033B  8  94 F9 66 10 94 F9 65 70 
  1666)      3450.0  Rx     022A033B  0  
  1667)      3450.6  Rx     0515033C  8  B9 42 0D D0 00 21 84 F8 
  1668)      3450.9  Rx     022A033C  0  
  1669)      3451.6  Rx     0515033D  8  3A 10 00 21 84 F8 3B 10 
  1670)      3451.9  Rx     022A033D  0  
  1671)      3452.5  Rx     0515033E  8  00 21 A1 87 DF F8 10 1A 
  1672)      3452.8  Rx     022A033E  0  
  1673)      3453.4  Rx     0515033F  8  0F 78 7F 1C 0F 70 41 E0 
  1674)      3453.7  Rx     022A033F  0  
  1675)      3454.3  Rx     05150340  8  94 F8 3B 10 9E F8 31 70 
  1676)      3454.6  Rx     022A0340  0  
  1677)      3455.2  Rx     05150341  8  B9 42 0D D2 94 F8 3B 10 
  1678)      3455.5  Rx     022A0341  0  
  1679)      3456.1  Rx     05150342  8  49 1C 84 F8 3B 10 A1 8F 
  1680)      3456.3  Rx     022A0342  0  
  1681)      3456.9  Rx     05150343  8  71 18 A1 87 94 F8 3A 10 
  1682)      3457.2  Rx     022A0343  0  
  1683)      3457.8  Rx     05150344  8  04 EB 41 01 CE 87 1F E0 
  1684)      3458.1  Rx     022A0344  0  
  1685)      3458.7  Rx     05150345  8  A1 8F 71 18 A1 87 A7 8F 
  1686)      3459.0  Rx     022A0345  0  
  1687)      3459.6  Rx     05150346  8  94 F8 3A 10 04 EB 41 01 
  1688)      3459.9  Rx     022A0346  0  
  1689)      3460.5  Rx     05150347  8  C9 8F 7F 1A A7 87 94 F8 
  1690)      3460.8  Rx     022A0347  0  
  1691)      3461.4  Rx     05150348  8  3A 10 04 EB 41 01 CE 87 
  1692)      3461.7  Rx     022A0348  0  
  1693)      3462.3  Rx     05150349  8  B4 F9 3C 10 9E F8 31 60 
  1694)      3462.5  Rx     022A0349  0  
  1695)      3463.1  Rx     0515034A  8  91 FB F6 F6 37 00 3F B2 
  1696)      3463.4  Rx     022A034A  0  
  1697)      3464.0  Rx     0515034B  8  E9 89 4F 43 0A 21 4F 43 
  1698)      3464.3  Rx     022A034B  0  
  1699)      3464.9  Rx     0515034C  8  5F F4 80 31 97 FB F1 F8 
  1700)      3465.2  Rx     022A034C  0  
  1701)      3465.8  Rx     0515034D  8  94 F8 3A 10 49 1C 84 F8 
  1702)      3466.1  Rx     022A034D  0  
  1703)      3466.7  Rx     0515034E  8  3A 10 94 F8 3A 10 9E F8 
  1704)      3467.0  Rx     022A034E  0  
  1705)      3467.6  Rx     0515034F  8  31 70 B9 42 02 D1 00 21 
  1706)      3467.9  Rx     022A034F  0  
  1707)      3468.5  Rx     05150350  8  84 F8 3A 10 DF F8 84 19 
  1708)      3468.8  Rx     022A0350  0  
  1709)      3469.4  Rx     05150351  8  0F 78 30 2F 03 DA 0F 78 
  1710)      3469.7  Rx     022A0351  0  
  1711)      3470.3  Rx     05150352  8  7F 1C 0F 70 17 E0 DF F8 
  1712)      3470.6  Rx     022A0352  0  
  1713)      3471.2  Rx     05150353  8  70 79 97 F8 00 C0 BC F1 
  1714)      3471.5  Rx     022A0353  0  
  1715)      3472.1  Rx     05150354  8  02 0F 06 DB 92 F8 0C C0 
  1716)      3472.4  Rx     022A0354  0  
  1717)      3473.0  Rx     05150355  8  1C F1 01 0C 82 F8 0C C0 
  1718)      3473.3  Rx     022A0355  0  
  1719)      3473.9  Rx     05150356  8  03 E0 5F F0 00 0C 82 F8 
  1720)      3474.2  Rx     022A0356  0  
  1721)      3474.8  Rx     05150357  8  0C C0 5F F0 00 0C 81 F8 
  1722)      3475.1  Rx     022A0357  0  
  1723)      3475.7  Rx     05150358  8  00 C0 00 21 39 70 DF F8 
  1724)      3476.0  Rx     022A0358  0  
  1725)      3476.6  Rx     05150359  8  40 19 09 78 DF F8 40 79 
  1726)      3476.9  Rx     022A0359  0  
  1727)      3477.5  Rx     0515035A  8  39 70 37 00 3F B2 E9 89 
  1728)      3477.8  Rx     022A035A  0  
  1729)      3478.4  Rx     0515035B  8  4F 43 0A 21 4F 43 5F F4 
  1730)      3478.7  Rx     022A035B  0  
  1731)      3479.4  Rx     0515035C  8  80 31 97 FB F1 F1 0D 00 
  1732)      3479.6  Rx     022A035C  0  
  1733)      3480.3  Rx     0515035D  8  2D B2 00 2D 02 D4 0D 00 
  1734)      3480.5  Rx     022A035D  0  
  1735)      3481.2  Rx     0515035E  8  2D B2 02 E0 0D 00 2D B2 
  1736)      3481.4  Rx     022A035E  0  
  1737)      3482.0  Rx     0515035F  8  6D 42 B4 F8 90 7B BD 42 
  1738)      3482.3  Rx     022A035F  0  
  1739)      3482.9  Rx     05150360  8  02 DA 00 21 21 70 0D E0 
  1740)      3483.2  Rx     022A0360  0  
  1741)      3483.8  Rx     05150361  8  0D 00 2D B2 00 2D 01 D4 
  1742)      3484.1  Rx     022A0361  0  
  1743)      3484.7  Rx     05150362  8  09 B2 01 E0 09 B2 49 42 
  1744)      3485.0  Rx     022A0362  0  
  1745)      3485.5  Rx     05150363  8  B4 F8 8E 5B 8D 42 01 DA 
  1746)      3485.8  Rx     022A0363  0  
  1747)      3486.4  Rx     05150364  8  01 21 21 70 41 46 09 B2 
  1748)      3486.7  Rx     022A0364  0  
  1749)      3487.3  Rx     05150365  8  00 29 02 D4 41 46 09 B2 
  1750)      3487.6  Rx     022A0365  0  
  1751)      3488.2  Rx     05150366  8  02 E0 41 46 09 B2 49 42 
  1752)      3488.5  Rx     022A0366  0  
  1753)      3489.1  Rx     05150367  8  B4 F8 92 5B 8D 42 20 DA 
  1754)      3489.4  Rx     022A0367  0  
  1755)      3490.0  Rx     05150368  8  B4 F8 96 1B D5 88 B8 EB 
  1756)      3490.3  Rx     022A0368  0  
  1757)      3490.8  Rx     05150369  8  05 05 69 18 A4 F8 96 1B 
  1758)      3491.1  Rx     022A0369  0  
  1759)      3491.7  Rx     0515036A  8  B4 F9 96 1B 00 29 02 D4 
  1760)      3492.0  Rx     022A036A  0  
  1761)      3492.6  Rx     0515036B  8  B4 F9 96 1B 02 E0 B4 F9 
  1762)      3492.9  Rx     022A036B  0  
  1763)      3493.5  Rx     0515036C  8  96 1B 49 42 B4 F8 94 5B 
  1764)      3493.8  Rx     022A036C  0  
  1765)      3494.4  Rx     0515036D  8  8D 42 06 DA 00 21 A4 F8 
  1766)      3494.7  Rx     022A036D  0  
  1767)      3495.3  Rx     0515036E  8  96 1B 00 21 84 F8 98 1B 
  1768)      3495.6  Rx     022A036E  0  
  1769)      3496.2  Rx     0515036F  8  09 E0 01 21 84 F8 98 1B 
  1770)      3496.5  Rx     022A036F  0  
  1771)      3497.1  Rx     05150370  8  05 E0 00 21 A4 F8 96 1B 
  1772)      3497.4  Rx     022A0370  0  
  1773)      3498.0  Rx     05150371  8  00 21 84 F8 98 1B 94 F8 
  1774)      3498.3  Rx     022A0371  0  
  1775)      3498.9  Rx     05150372  8  8C 1B 00 29 01 D1 00 20 
  1776)      3499.2  Rx     022A0372  0  
  1777)      3499.8  Rx     05150373  8  0F E2 41 46 09 B2 94 F8 
  1778)      3500.1  Rx     022A0373  0  
  1779)      3500.7  Rx     05150374  8  8C 5B 91 FB F5 F1 11 81 
  1780)      3501.0  Rx     022A0374  0  
  1781)      3501.5  Rx     05150375  8  94 F9 66 10 11 F1 01 0F 
  1782)      3501.8  Rx     022A0375  0  
  1783)      3502.4  Rx     05150376  8  59 D1 B2 F9 08 10 00 29 
  1784)      3502.7  Rx     022A0376  0  
  1785)      3503.3  Rx     05150377  8  02 D4 B2 F9 08 10 02 E0 
  1786)      3503.6  Rx     022A0377  0  
  1787)      3504.2  Rx     05150378  8  B2 F9 08 10 49 42 22 29 
  1788)      3504.5  Rx     022A0378  0  
  1789)      3505.1  Rx     05150379  8  1A DA 94 F8 7C 50 40 21 
  1790)      3505.4  Rx     022A0379  0  
  1791)      3506.0  Rx     0515037A  8  4D 43 04 EB 05 01 94 F8 
  1792)      3506.3  Rx     022A037A  0  
  1793)      3506.9  Rx     0515037B  8  8C 5C 2D 01 29 44 94 F8 
  1794)      3507.2  Rx     022A037B  0  
  1795)      3507.8  Rx     0515037C  8  82 50 01 EB 45 01 B1 F9 
  1796)      3508.1  Rx     022A037C  0  
  1797)      3508.7  Rx     0515037D  8  48 15 11 80 A4 F8 4E 10 
  1798)      3509.0  Rx     022A037D  0  
  1799)      3509.6  Rx     0515037E  8  00 25 DF F8 20 78 3D 80 
  1800)      3509.9  Rx     022A037E  0  
  1801)      3510.6  Rx     0515037F  8  00 25 84 F8 95 5C 8B E0 
  1802)      3510.8  Rx     022A037F  0  
  1803)      3511.4  Rx     05150380  8  DF F8 10 58 29 88 1E 29 
  1804)      3511.7  Rx     022A0380  0  
  1805)      3512.3  Rx     05150381  8  19 DA 94 F8 7C 70 40 21 
  1806)      3528.7  Rx     022A0381  0  
  1807)      3529.3  Rx     05150382  8  4F 43 04 EB 07 01 94 F8 
  1808)      3529.6  Rx     022A0382  0  
  1809)      3530.2  Rx     05150383  8  8C 7C 3F 01 39 44 94 F8 
  1810)      3530.5  Rx     022A0383  0  
  1811)      3531.1  Rx     05150384  8  82 70 01 EB 47 01 B1 F9 
  1812)      3531.4  Rx     022A0384  0  
  1813)      3532.0  Rx     05150385  8  48 15 11 80 A4 F8 4E 10 
  1814)      3532.3  Rx     022A0385  0  
  1815)      3532.9  Rx     05150386  8  2F 88 7F 1C 2F 80 00 25 
  1816)      3533.2  Rx     022A0386  0  
  1817)      3533.8  Rx     05150387  8  84 F8 95 5C 6C E0 94 F8 
  1818)      3534.1  Rx     022A0387  0  
  1819)      3534.7  Rx     05150388  8  7C 50 40 21 4D 43 04 EB 
  1820)      3535.0  Rx     022A0388  0  
  1821)      3535.6  Rx     05150389  8  05 01 94 F8 8C 5C 2D 01 
  1822)      3535.9  Rx     022A0389  0  
  1823)      3536.4  Rx     0515038A  8  29 44 94 F8 82 50 01 EB 
  1824)      3536.7  Rx     022A038A  0  
  1825)      3537.3  Rx     0515038B  8  45 01 B1 F9 48 15 01 25 
  1826)      3537.6  Rx     022A038B  0  
  1827)      3538.2  Rx     0515038C  8  84 F8 95 5C 58 E0 B2 F9 
  1828)      3538.5  Rx     022A038C  0  
  1829)      3539.1  Rx     0515038D  8  08 10 00 29 02 D4 B2 F9 
  1830)      3539.4  Rx     022A038D  0  
  1831)      3540.0  Rx     0515038E  8  08 10 02 E0 B2 F9 08 10 
  1832)      3540.3  Rx     022A038E  0  
  1833)      3540.9  Rx     0515038F  8  49 42 22 29 1A DA 94 F8 
  1834)      3541.2  Rx     022A038F  0  
  1835)      3541.8  Rx     05150390  8  7C 50 40 21 4D 43 04 EB 
  1836)      3542.1  Rx     022A0390  0  
  1837)      3542.6  Rx     05150391  8  05 01 94 F8 8C 5C 2D 01 
  1838)      3542.9  Rx     022A0391  0  
  1839)      3543.5  Rx     05150392  8  29 44 94 F8 82 50 01 EB 
  1840)      3543.8  Rx     022A0392  0  
  1841)      3544.4  Rx     05150393  8  45 01 B1 F9 08 14 11 80 
  1842)      3544.7  Rx     022A0393  0  
  1843)      3545.3  Rx     05150394  8  A4 F8 4E 10 00 25 DF F8 
  1844)      3545.6  Rx     022A0394  0  
