    307      3868.800 DT 05150000 Rx 8  00 00 00 00 00 00 00 00 
    308      3869.100 DT 022A0000 Rx 0  
    309      3869.800 DT 05150001 Rx 8  00 00 00 00 00 00 00 00 
    310      3870.000 DT 022A0001 Rx 0  
    311      3870.700 DT 05150002 Rx 8  00 30 00 20 F9 6E 01 00 
    312      3871.000 DT 022A0002 Rx 0  
    313      3871.600 DT 05150003 Rx 8  9D 6F 01 00 9F 6F 01 00 
    314      3871.900 DT 022A0003 Rx 0  
    315      3872.500 DT 05150004 Rx 8  A7 6F 01 00 AF 6F 01 00 
    316      3872.800 DT 022A0004 Rx 0  
    317      3873.400 DT 05150005 Rx 8  B7 6F 01 00 00 00 00 00 
    318      3873.700 DT 022A0005 Rx 0  
    319      3874.400 DT 05150006 Rx 8  00 00 00 00 00 00 00 00 
    320      3874.700 DT 022A0006 Rx 0  
    321      3875.300 DT 05150007 Rx 8  00 00 00 00 BF 6F 01 00 
    322      3875.600 DT 022A0007 Rx 0  
    323      3876.200 DT 05150008 Rx 8  C1 6F 01 00 00 00 00 00 
    324      3876.500 DT 022A0008 Rx 0  
    325      3877.200 DT 05150009 Rx 8  C3 6F 01 00 F3 64 01 00 
    326      3877.400 DT 022A0009 Rx 0  
    327      3878.100 DT 0515000A Rx 8  15 72 01 00 15 72 01 00 
    328      3878.400 DT 022A000A Rx 0  
    329      3879.000 DT 0515000B Rx 8  15 72 01 00 15 72 01 00 
    330      3879.300 DT 022A000B Rx 0  
    331      3879.900 DT 0515000C Rx 8  15 72 01 00 15 72 01 00 
    332      3880.200 DT 022A000C Rx 0  
    333      3880.800 DT 0515000D Rx 8  15 72 01 00 15 72 01 00 
    334      3881.100 DT 022A000D Rx 0  
    335      3881.700 DT 0515000E Rx 8  15 72 01 00 15 72 01 00 
    336      3882.000 DT 022A000E Rx 0  
    337      3882.700 DT 0515000F Rx 8  15 72 01 00 15 72 01 00 
    338      3882.900 DT 022A000F Rx 0  
    339      3883.600 DT 05150010 Rx 8  15 72 01 00 15 72 01 00 
    340      3883.900 DT 022A0010 Rx 0  
    341      3884.500 DT 05150011 Rx 8  15 72 01 00 15 72 01 00 
    342      3884.800 DT 022A0011 Rx 0  
    343      3885.400 DT 05150012 Rx 8  15 72 01 00 15 72 01 00 
    344      3885.600 DT 022A0012 Rx 0  
    345      3886.300 DT 05150013 Rx 8  15 72 01 00 15 72 01 00 
    346      3886.600 DT 022A0013 Rx 0  
    347      3887.200 DT 05150014 Rx 8  15 72 01 00 15 72 01 00 
    348      3887.500 DT 022A0014 Rx 0  
    349      3888.100 DT 05150015 Rx 8  15 72 01 00 15 72 01 00 
    350      3888.400 DT 022A0015 Rx 0  
    351      3889.100 DT 05150016 Rx 8  15 72 01 00 15 72 01 00 
    352      3889.400 DT 022A0016 Rx 0  
    353      3890.000 DT 05150017 Rx 8  15 72 01 00 15 72 01 00 
    354      3890.300 DT 022A0017 Rx 0  
    355      3890.900 DT 05150018 Rx 8  15 72 01 00 15 72 01 00 
    356      3891.200 DT 022A0018 Rx 0  
    357      3891.800 DT 05150019 Rx 8  15 72 01 00 15 72 01 00 
    358      3892.100 DT 022A0019 Rx 0  
    359      3892.700 DT 0515001A Rx 8  15 72 01 00 15 72 01 00 
    360      3893.000 DT 022A001A Rx 0  
    361      3893.600 DT 0515001B Rx 8  15 72 01 00 15 72 01 00 
    362      3893.900 DT 022A001B Rx 0  
    363      3894.500 DT 0515001C Rx 8  15 72 01 00 15 72 01 00 
    364      3894.800 DT 022A001C Rx 0  
    365      3895.400 DT 0515001D Rx 8  15 72 01 00 91 69 01 00 
    366      3895.700 DT 022A001D Rx 0  
    367      3896.300 DT 0515001E Rx 8  15 72 01 00 15 72 01 00 
    368      3896.600 DT 022A001E Rx 0  
    369      3897.300 DT 0515001F Rx 8  15 72 01 00 15 72 01 00 
    370      3897.600 DT 022A001F Rx 0  
    371      3898.100 DT 05150020 Rx 8  19 72 01 00 15 72 01 00 
    372      3898.400 DT 022A0020 Rx 0  
    373      3899.000 DT 05150021 Rx 8  15 72 01 00 15 72 01 00 
    374      3899.300 DT 022A0021 Rx 0  
    375      3899.900 DT 05150022 Rx 8  15 72 01 00 15 72 01 00 
    376      3900.200 DT 022A0022 Rx 0  
    377      3900.800 DT 05150023 Rx 8  15 72 01 00 15 72 01 00 
    378      3901.100 DT 022A0023 Rx 0  
    379      3901.800 DT 05150024 Rx 8  C1 25 01 00 15 72 01 00 
    380      3902.100 DT 022A0024 Rx 0  
    381      3902.700 DT 05150025 Rx 8  15 72 01 00 15 72 01 00 
    382      3903.000 DT 022A0025 Rx 0  
    383      3903.600 DT 05150026 Rx 8  15 72 01 00 15 72 01 00 
    384      3903.900 DT 022A0026 Rx 0  
    385      3904.500 DT 05150027 Rx 8  15 72 01 00 15 72 01 00 
    386      3904.800 DT 022A0027 Rx 0  
    387      3905.400 DT 05150028 Rx 8  15 72 01 00 15 72 01 00 
    388      3905.700 DT 022A0028 Rx 0  
    389      3906.300 DT 05150029 Rx 8  15 72 01 00 15 72 01 00 
    390      3906.600 DT 022A0029 Rx 0  
    391      3907.200 DT 0515002A Rx 8  15 72 01 00 15 72 01 00 
    392      3907.500 DT 022A002A Rx 0  
    393      3908.100 DT 0515002B Rx 8  15 72 01 00 15 72 01 00 
    394      3908.400 DT 022A002B Rx 0  
    395      3909.000 DT 0515002C Rx 8  01 26 01 00 15 72 01 00 
    396      3909.300 DT 022A002C Rx 0  
    397      3910.000 DT 0515002D Rx 8  15 72 01 00 15 72 01 00 
    398      3910.300 DT 022A002D Rx 0  
    399      3910.900 DT 0515002E Rx 8  15 72 01 00 15 72 01 00 
    400      3911.200 DT 022A002E Rx 0  
    401      3911.800 DT 0515002F Rx 8  15 72 01 00 15 72 01 00 
    402      3912.100 DT 022A002F Rx 0  
    403      3912.700 DT 05150030 Rx 8  15 72 01 00 15 72 01 00 
    404      3913.000 DT 022A0030 Rx 0  
    405      3913.600 DT 05150031 Rx 8  15 72 01 00 15 72 01 00 
    406      3913.900 DT 022A0031 Rx 0  
    407      3914.500 DT 05150032 Rx 8  15 72 01 00 4D 26 01 00 
    408      3914.800 DT 022A0032 Rx 0  
    409      3915.400 DT 05150033 Rx 8  5D 26 01 00 15 72 01 00 
    410      3915.700 DT 022A0033 Rx 0  
    411      3916.300 DT 05150034 Rx 8  15 72 01 00 15 72 01 00 
    412      3916.600 DT 022A0034 Rx 0  
    413      3917.200 DT 05150035 Rx 8  15 72 01 00 15 72 01 00 
    414      3917.500 DT 022A0035 Rx 0  
    415      3918.100 DT 05150036 Rx 8  15 72 01 00 15 72 01 00 
    416      3918.400 DT 022A0036 Rx 0  
    417      3919.000 DT 05150037 Rx 8  15 72 01 00 15 72 01 00 
    418      3919.300 DT 022A0037 Rx 0  
    419      3919.900 DT 05150038 Rx 8  15 72 01 00 15 72 01 00 
    420      3920.200 DT 022A0038 Rx 0  
    421      3920.800 DT 05150039 Rx 8  15 72 01 00 15 72 01 00 
    422      3921.100 DT 022A0039 Rx 0  
    423      3921.700 DT 0515003A Rx 8  15 72 01 00 15 72 01 00 
    424      3922.000 DT 022A003A Rx 0  
    425      3922.600 DT 0515003B Rx 8  15 72 01 00 15 72 01 00 
    426      3922.900 DT 022A003B Rx 0  
    427      3923.600 DT 0515003C Rx 8  15 72 01 00 15 72 01 00 
    428      3923.900 DT 022A003C Rx 0  
    429      3924.500 DT 0515003D Rx 8  15 72 01 00 15 72 01 00 
    430      3924.800 DT 022A003D Rx 0  
    431      3925.400 DT 0515003E Rx 8  61 25 01 00 15 72 01 00 
    432      3925.700 DT 022A003E Rx 0  
    433      3926.300 DT 0515003F Rx 8  15 72 01 00 15 72 01 00 
    434      3926.600 DT 022A003F Rx 0  
    435      3927.200 DT 05150040 Rx 8  15 72 01 00 15 72 01 00 
    436      3927.500 DT 022A0040 Rx 0  
    437      3928.100 DT 05150041 Rx 8  15 72 01 00 99 25 01 00 
    438      3928.400 DT 022A0041 Rx 0  
    439      3929.000 DT 05150042 Rx 8  15 72 01 00 15 72 01 00 
    440      3929.300 DT 022A0042 Rx 0  
    441      3929.900 DT 05150043 Rx 8  15 72 01 00 15 72 01 00 
    442      3930.200 DT 022A0043 Rx 0  
    443      3930.800 DT 05150044 Rx 8  77 25 01 00 15 72 01 00 
    444      3931.100 DT 022A0044 Rx 0  
    445      3931.700 DT 05150045 Rx 8  15 72 01 00 15 72 01 00 
    446      3932.000 DT 022A0045 Rx 0  
    447      3932.700 DT 05150046 Rx 8  15 72 01 00 15 72 01 00 
    448      3933.000 DT 022A0046 Rx 0  
    449      3933.600 DT 05150047 Rx 8  15 72 01 00 15 72 01 00 
    450      3933.900 DT 022A0047 Rx 0  
    451      3934.500 DT 05150048 Rx 8  15 72 01 00 15 72 01 00 
    452      3934.800 DT 022A0048 Rx 0  
    453      3935.400 DT 05150049 Rx 8  15 72 01 00 15 72 01 00 
    454      3935.700 DT 022A0049 Rx 0  
    455      3936.300 DT 0515004A Rx 8  15 72 01 00 15 72 01 00 
    456      3936.600 DT 022A004A Rx 0  
    457      3937.200 DT 0515004B Rx 8  15 72 01 00 15 72 01 00 
    458      3937.500 DT 022A004B Rx 0  
    459      3938.100 DT 0515004C Rx 8  15 72 01 00 15 72 01 00 
    460      3938.400 DT 022A004C Rx 0  
    461      3939.000 DT 0515004D Rx 8  15 72 01 00 15 72 01 00 
    462      3939.300 DT 022A004D Rx 0  
    463      3939.900 DT 0515004E Rx 8  15 72 01 00 15 72 01 00 
    464      3940.200 DT 022A004E Rx 0  
    465      3940.800 DT 0515004F Rx 8  15 72 01 00 15 72 01 00 
    466      3941.100 DT 022A004F Rx 0  
    467      3941.700 DT 05150050 Rx 8  15 72 01 00 15 72 01 00 
    468      3942.000 DT 022A0050 Rx 0  
    469      3942.600 DT 05150051 Rx 8  15 72 01 00 15 72 01 00 
    470      3942.900 DT 022A0051 Rx 0  
    471      3943.500 DT 05150052 Rx 8  15 72 01 00 15 72 01 00 
    472      3943.800 DT 022A0052 Rx 0  
    473      3944.400 DT 05150053 Rx 8  15 72 01 00 15 72 01 00 
    474      3944.700 DT 022A0053 Rx 0  
    475      3945.300 DT 05150054 Rx 8  15 72 01 00 15 72 01 00 
    476      3945.600 DT 022A0054 Rx 0  
    477      3946.200 DT 05150055 Rx 8  15 72 01 00 15 72 01 00 
    478      3946.500 DT 022A0055 Rx 0  
    479      3947.100 DT 05150056 Rx 8  15 72 01 00 15 72 01 00 
    480      3947.400 DT 022A0056 Rx 0  
    481      3948.000 DT 05150057 Rx 8  15 72 01 00 15 72 01 00 
    482      3948.300 DT 022A0057 Rx 0  
    483      3948.900 DT 05150058 Rx 8  15 72 01 00 15 72 01 00 
    484      3949.200 DT 022A0058 Rx 0  
    485      3949.800 DT 05150059 Rx 8  15 72 01 00 15 72 01 00 
    486      3950.100 DT 022A0059 Rx 0  
    487      3950.700 DT 0515005A Rx 8  15 72 01 00 15 72 01 00 
    488      3951.000 DT 022A005A Rx 0  
    489      3951.600 DT 0515005B Rx 8  15 72 01 00 15 72 01 00 
    490      3951.900 DT 022A005B Rx 0  
    491      3952.500 DT 0515005C Rx 8  15 72 01 00 15 72 01 00 
    492      3952.800 DT 022A005C Rx 0  
    493      3953.400 DT 0515005D Rx 8  15 72 01 00 15 72 01 00 
    494      3953.700 DT 022A005D Rx 0  
    495      3954.300 DT 0515005E Rx 8  15 72 01 00 15 72 01 00 
    496      3954.600 DT 022A005E Rx 0  
    497      3955.200 DT 0515005F Rx 8  15 72 01 00 15 72 01 00 
    498      3955.500 DT 022A005F Rx 0  
    499      3956.100 DT 05150060 Rx 8  15 72 01 00 15 72 01 00 
    500      3956.400 DT 022A0060 Rx 0  
    501      3957.000 DT 05150061 Rx 8  15 72 01 00 15 72 01 00 
    502      3957.300 DT 022A0061 Rx 0  
    503      3957.900 DT 05150062 Rx 8  15 72 01 00 15 72 01 00 
    504      3958.200 DT 022A0062 Rx 0  
    505      3958.900 DT 05150063 Rx 8  15 72 01 00 15 72 01 00 
    506      3959.100 DT 022A0063 Rx 0  
    507      3959.800 DT 05150064 Rx 8  15 72 01 00 15 72 01 00 
    508      3960.100 DT 022A0064 Rx 0  
    509      3960.700 DT 05150065 Rx 8  15 72 01 00 15 72 01 00 
    510      3961.000 DT 022A0065 Rx 0  
    511      3961.500 DT 05150066 Rx 8  15 72 01 00 15 72 01 00 
    512      3961.800 DT 022A0066 Rx 0  
    513      3962.500 DT 05150067 Rx 8  15 72 01 00 15 72 01 00 
    514      3962.800 DT 022A0067 Rx 0  
    515      3963.400 DT 05150068 Rx 8  15 72 01 00 15 72 01 00 
    516      3963.700 DT 022A0068 Rx 0  
    517      3964.300 DT 05150069 Rx 8  15 72 01 00 15 72 01 00 
    518      3964.600 DT 022A0069 Rx 0  
    519      3965.200 DT 0515006A Rx 8  15 72 01 00 15 72 01 00 
    520      3965.500 DT 022A006A Rx 0  
    521      3966.100 DT 0515006B Rx 8  15 72 01 00 15 72 01 00 
    522      3966.400 DT 022A006B Rx 0  
    523      3967.000 DT 0515006C Rx 8  15 72 01 00 15 72 01 00 
    524      3967.300 DT 022A006C Rx 0  
    525      3967.900 DT 0515006D Rx 8  15 72 01 00 15 72 01 00 
    526      3968.200 DT 022A006D Rx 0  
    527      3968.800 DT 0515006E Rx 8  15 72 01 00 15 72 01 00 
    528      3969.100 DT 022A006E Rx 0  
    529      3969.700 DT 0515006F Rx 8  15 72 01 00 15 72 01 00 
    530      3970.000 DT 022A006F Rx 0  
    531      3970.600 DT 05150070 Rx 8  15 72 01 00 15 72 01 00 
    532      3970.900 DT 022A0070 Rx 0  
    533      3971.400 DT 05150071 Rx 8  15 72 01 00 15 72 01 00 
    534      3971.700 DT 022A0071 Rx 0  
    535      3972.300 DT 05150072 Rx 8  15 72 01 00 15 72 01 00 
    536      3972.600 DT 022A0072 Rx 0  
    537      3973.300 DT 05150073 Rx 8  15 72 01 00 15 72 01 00 
    538      3973.500 DT 022A0073 Rx 0  
    539      3974.200 DT 05150074 Rx 8  15 72 01 00 15 72 01 00 
    540      3974.500 DT 022A0074 Rx 0  
    541      3975.100 DT 05150075 Rx 8  15 72 01 00 15 72 01 00 
    542      3975.400 DT 022A0075 Rx 0  
    543      3976.000 DT 05150076 Rx 8  15 72 01 00 15 72 01 00 
    544      3976.300 DT 022A0076 Rx 0  
    545      3976.900 DT 05150077 Rx 8  15 72 01 00 15 72 01 00 
    546      3977.200 DT 022A0077 Rx 0  
    547      3977.800 DT 05150078 Rx 8  15 72 01 00 15 72 01 00 
    548      3978.100 DT 022A0078 Rx 0  
    549      3978.700 DT 05150079 Rx 8  15 72 01 00 15 72 01 00 
    550      3979.000 DT 022A0079 Rx 0  
    551      3979.600 DT 0515007A Rx 8  15 72 01 00 15 72 01 00 
    552      3979.900 DT 022A007A Rx 0  
    553      3980.500 DT 0515007B Rx 8  15 72 01 00 15 72 01 00 
    554      3980.800 DT 022A007B Rx 0  
    555      3981.400 DT 0515007C Rx 8  15 72 01 00 15 72 01 00 
    556      3981.700 DT 022A007C Rx 0  
    557      3982.300 DT 0515007D Rx 8  15 72 01 00 15 72 01 00 
    558      3982.600 DT 022A007D Rx 0  
    559      3983.300 DT 0515007E Rx 8  15 72 01 00 15 72 01 00 
    560      3983.600 DT 022A007E Rx 0  
    561      3984.200 DT 0515007F Rx 8  15 72 01 00 15 72 01 00 
    562      3984.500 DT 022A007F Rx 0  
    563      3985.100 DT 05150080 Rx 8  15 72 01 00 15 72 01 00 
    564      3985.400 DT 022A0080 Rx 0  
    565      3986.000 DT 05150081 Rx 8  15 72 01 00 FF FF FF FF 
    566      4001.500 DT 022A0081 Rx 0  
    567      4002.200 DT 05150082 Rx 8  FF FF FF FF FF FF FF FF 
    568      4002.500 DT 022A0082 Rx 0  
    569      4003.100 DT 05150083 Rx 8  FF FF FF FF FE 7F FF FF 
    570      4003.400 DT 022A0083 Rx 0  
    571      4004.000 DT 05150084 Rx 8  38 B5 04 00 00 20 02 F0 
    572      4004.300 DT 022A0084 Rx 0  
    573      4004.900 DT 05150085 Rx 8  7B FD 05 00 DF F8 78 1B 
    574      4005.200 DT 022A0085 Rx 0  
    575      4005.800 DT 05150086 Rx 8  08 78 00 28 0B D1 DF F8 
    576      4006.100 DT 022A0086 Rx 0  
    577      4006.700 DT 05150087 Rx 8  74 2B 0B 78 40 F2 BC 50 
    578      4007.000 DT 022A0087 Rx 0  
    579      4007.600 DT 05150088 Rx 8  43 43 02 EB 03 00 0A 78 
    580      4007.900 DT 022A0088 Rx 0  
    581      4008.500 DT 05150089 Rx 8  52 1C 0A 70 00 E0 00 20 
    582      4008.800 DT 022A0089 Rx 0  
    583      4009.400 DT 0515008A Rx 8  C0 F8 B8 45 E8 67 0F F2 
    584      4009.700 DT 022A008A Rx 0  
    585      4010.300 DT 0515008B Rx 8  71 20 28 60 0F F2 51 00 
    586      4010.600 DT 022A008B Rx 0  
    587      4011.200 DT 0515008C Rx 8  68 60 0F F2 51 00 E8 61 
    588      4011.500 DT 022A008C Rx 0  
    589      4012.100 DT 0515008D Rx 8  0F F6 49 10 A8 61 0F F6 
    590      4012.300 DT 022A008D Rx 0  
    591      4013.000 DT 0515008E Rx 8  E5 00 68 61 DF F8 38 0B 
    592      4013.200 DT 022A008E Rx 0  
    593      4013.800 DT 0515008F Rx 8  E8 60 DF F8 38 0B A8 60 
    594      4014.100 DT 022A008F Rx 0  
    595      4014.700 DT 05150090 Rx 8  DF F8 34 0B 28 61 DF F8 
    596      4015.000 DT 022A0090 Rx 0  
    597      4015.700 DT 05150091 Rx 8  34 0B E8 62 DF F8 30 0B 
    598      4015.900 DT 022A0091 Rx 0  
    599      4016.500 DT 05150092 Rx 8  A8 62 DF F8 30 0B 28 63 
    600      4016.800 DT 022A0092 Rx 0  
    601      4017.400 DT 05150093 Rx 8  DF F8 2C 0B 68 63 DF F8 
    602      4017.700 DT 022A0093 Rx 0  
    603      4018.300 DT 05150094 Rx 8  2C 0B A8 63 28 00 02 F0 
    604      4018.600 DT 022A0094 Rx 0  
    605      4019.200 DT 05150095 Rx 8  AB FD 28 00 32 BD 00 00 
    606      4019.500 DT 022A0095 Rx 0  
    607      4020.100 DT 05150096 Rx 8  70 47 00 00 70 47 00 21 
    608      4020.400 DT 022A0096 Rx 0  
    609      4021.000 DT 05150097 Rx 8  DF F8 14 1B 0A 68 52 F0 
    610      4021.300 DT 022A0097 Rx 0  
    611      4021.900 DT 05150098 Rx 8  80 42 0A 60 DF F8 0C 1B 
    612      4022.200 DT 022A0098 Rx 0  
    613      4022.800 DT 05150099 Rx 8  0A 68 52 F4 40 72 0A 60 
    614      4023.100 DT 022A0099 Rx 0  
    615      4023.700 DT 0515009A Rx 8  DF F8 04 1B 0A 68 52 F4 
    616      4024.000 DT 022A009A Rx 0  
    617      4024.600 DT 0515009B Rx 8  40 72 0A 60 DF F8 FC 1A 
    618      4024.900 DT 022A009B Rx 0  
    619      4025.500 DT 0515009C Rx 8  0A 68 52 F0 80 42 0A 60 
    620      4025.800 DT 022A009C Rx 0  
    621      4026.400 DT 0515009D Rx 8  DF F8 F4 1A 0A 68 52 F0 
    622      4026.700 DT 022A009D Rx 0  
    623      4027.300 DT 0515009E Rx 8  00 72 0A 60 02 68 52 F0 
    624      4027.600 DT 022A009E Rx 0  
    625      4028.200 DT 0515009F Rx 8  00 42 02 60 42 68 32 F4 
    626      4028.400 DT 022A009F Rx 0  
    627      4029.000 DT 051500A0 Rx 8  00 52 42 60 02 68 22 F0 
    628      4029.300 DT 022A00A0 Rx 0  
    629      4030.000 DT 051500A1 Rx 8  00 42 02 60 0A 68 52 F0 
    630      4030.200 DT 022A00A1 Rx 0  
    631      4030.900 DT 051500A2 Rx 8  00 72 0A 60 01 68 C1 F3 
    632      4031.200 DT 022A00A2 Rx 0  
    633      4031.800 DT 051500A3 Rx 8  00 61 00 29 FA D0 DF F8 
    634      4032.100 DT 022A00A3 Rx 0  
    635      4032.700 DT 051500A4 Rx 8  C4 1A 41 60 00 21 05 E0 
    636      4033.000 DT 022A00A4 Rx 0  
    637      4033.600 DT 051500A5 Rx 8  00 22 00 EB 81 03 C3 F8 
    638      4033.900 DT 022A00A5 Rx 0  
    639      4034.500 DT 051500A6 Rx 8  80 20 49 1C 80 29 F7 D3 
    640      4034.800 DT 022A00A6 Rx 0  
    641      4035.400 DT 051500A7 Rx 8  00 21 06 E0 5F F0 7F 42 
    642      4035.700 DT 022A00A7 Rx 0  
    643      4036.300 DT 051500A8 Rx 8  00 EB 81 03 C3 F8 80 28 
    644      4036.600 DT 022A00A8 Rx 0  
    645      4037.200 DT 051500A9 Rx 8  49 1C 10 29 F6 D3 5F F0 
    646      4037.500 DT 022A00A9 Rx 0  
    647      4038.000 DT 051500AA Rx 8  F8 51 01 61 DF F8 90 1A 
    648      4038.300 DT 022A00AA Rx 0  
    649      4038.900 DT 051500AB Rx 8  C0 F8 C0 10 5F F0 80 72 
    650      4039.200 DT 022A00AB Rx 0  
    651      4039.800 DT 051500AC Rx 8  C0 F8 C4 20 D0 F8 D0 20 
    652      4040.100 DT 022A00AC Rx 0  
    653      4040.700 DT 051500AD Rx 8  0A 43 C0 F8 D0 20 5F F0 
    654      4041.000 DT 022A00AD Rx 0  
    655      4041.700 DT 051500AE Rx 8  40 72 C0 F8 D4 20 D0 F8 
    656      4041.900 DT 022A00AE Rx 0  
    657      4042.600 DT 051500AF Rx 8  E0 20 0A 43 C0 F8 E0 20 
    658      4042.800 DT 022A00AF Rx 0  
    659      4043.500 DT 051500B0 Rx 8  5F F0 80 62 C0 F8 E4 20 
    660      4043.700 DT 022A00B0 Rx 0  
    661      4044.400 DT 051500B1 Rx 8  D0 F8 F0 20 11 43 C0 F8 
    662      4044.600 DT 022A00B1 Rx 0  
    663      4045.200 DT 051500B2 Rx 8  F0 10 5F F0 A2 61 C0 F8 
    664      4045.500 DT 022A00B2 Rx 0  
    665      4046.200 DT 051500B3 Rx 8  F4 10 01 68 31 F0 80 41 
    666      4046.400 DT 022A00B3 Rx 0  
    667      4047.100 DT 051500B4 Rx 8  01 60 01 68 41 F4 88 31 
    668      4047.400 DT 022A00B4 Rx 0  
    669      4047.900 DT 051500B5 Rx 8  51 F0 1F 01 01 60 01 68 
    670      4048.200 DT 022A00B5 Rx 0  
    671      4048.800 DT 051500B6 Rx 8  00 29 01 D0 01 21 00 E0 
    672      4049.100 DT 022A00B6 Rx 0  
    673      4049.700 DT 051500B7 Rx 8  00 21 01 68 00 29 01 D0 
    674      4050.000 DT 022A00B7 Rx 0  
    675      4050.600 DT 051500B8 Rx 8  01 21 00 E0 00 21 5F F4 
    676      4050.900 DT 022A00B8 Rx 0  
    677      4051.500 DT 051500B9 Rx 8  00 31 DF F8 20 2A 11 60 
    678      4051.800 DT 022A00B9 Rx 0  
    679      4052.400 DT 051500BA Rx 8  DF F8 1C 2A 11 60 60 21 
    680      4052.700 DT 022A00BA Rx 0  
    681      4053.400 DT 051500BB Rx 8  DF F8 18 2A 11 70 5F F0 
    682      4053.700 DT 022A00BB Rx 0  
    683      4054.300 DT 051500BC Rx 8  FF 31 81 62 70 47 38 B5 
    684      4054.600 DT 022A00BC Rx 0  
    685      4055.200 DT 051500BD Rx 8  C4 6F 1F 20 03 F0 71 FD 
    686      4055.500 DT 022A00BD Rx 0  
    687      4056.100 DT 051500BE Rx 8  84 F8 40 00 45 20 03 F0 
    688      4056.400 DT 022A00BE Rx 0  
    689      4057.000 DT 051500BF Rx 8  6C FD 84 F8 6F 00 94 F8 
    690      4057.200 DT 022A00BF Rx 0  
    691      4057.900 DT 051500C0 Rx 8  40 00 FF 28 03 D1 00 20 
    692      4058.200 DT 022A00C0 Rx 0  
    693      4058.800 DT 051500C1 Rx 8  84 F8 40 00 19 E0 94 F8 
    694      4059.100 DT 022A00C1 Rx 0  
    695      4059.700 DT 051500C2 Rx 8  40 00 29 28 02 DB 28 20 
    696      4060.000 DT 022A00C2 Rx 0  
    697      4060.600 DT 051500C3 Rx 8  84 F8 40 00 00 25 0E E0 
    698      4060.900 DT 022A00C3 Rx 0  
    699      4061.500 DT 051500C4 Rx 8  15 F1 20 00 C0 B2 03 F0 
    700      4061.800 DT 022A00C4 Rx 0  
    701      4062.400 DT 051500C5 Rx 8  54 FD 01 00 89 B2 09 0A 
    702      4062.700 DT 022A00C5 Rx 0  
    703      4063.300 DT 051500C6 Rx 8  04 EB 45 02 91 75 04 EB 
    704      4063.600 DT 022A00C6 Rx 0  
    705      4064.200 DT 051500C7 Rx 8  45 01 C8 75 6D 1C 14 2D 
    706      4064.500 DT 022A00C7 Rx 0  
    707      4065.100 DT 051500C8 Rx 8  EE DB 94 F8 6F 00 FF 28 
    708      4065.400 DT 022A00C8 Rx 0  
    709      4066.000 DT 051500C9 Rx 8  15 D1 06 20 84 F8 6F 00 
    710      4066.300 DT 022A00C9 Rx 0  
    711      4066.800 DT 051500CA Rx 8  42 20 84 F8 45 00 41 20 
    712      4067.100 DT 022A00CA Rx 0  
    713      4067.700 DT 051500CB Rx 8  84 F8 46 00 46 20 84 F8 
    714      4068.000 DT 022A00CB Rx 0  
    715      4068.600 DT 051500CC Rx 8  47 00 41 20 84 F8 48 00 
    716      4068.900 DT 022A00CC Rx 0  
    717      4069.500 DT 051500CD Rx 8  4E 20 84 F8 49 00 47 20 
    718      4069.800 DT 022A00CD Rx 0  
    719      4070.400 DT 051500CE Rx 8  84 F8 4A 00 1B E0 94 F8 
    720      4070.700 DT 022A00CE Rx 0  
    721      4071.300 DT 051500CF Rx 8  6F 00 19 28 02 DB 18 20 
    722      4071.600 DT 022A00CF Rx 0  
    723      4072.200 DT 051500D0 Rx 8  84 F8 6F 00 00 25 10 E0 
    724      4072.500 DT 022A00D0 Rx 0  
    725      4073.100 DT 051500D1 Rx 8  15 F1 38 00 C0 B2 03 F0 
    726      4073.400 DT 022A00D1 Rx 0  
    727      4074.000 DT 051500D2 Rx 8  20 FD 01 00 89 B2 09 0A 
    728      4074.300 DT 022A00D2 Rx 0  
    729      4075.000 DT 051500D3 Rx 8  04 EB 45 02 82 F8 45 10 
    730      4075.200 DT 022A00D3 Rx 0  
    731      4075.900 DT 051500D4 Rx 8  04 EB 45 01 81 F8 46 00 
    732      4076.100 DT 022A00D4 Rx 0  
    733      4076.700 DT 051500D5 Rx 8  6D 1C 0C 2D EC DB 00 20 
    734      4077.000 DT 022A00D5 Rx 0  
    735      4077.600 DT 051500D6 Rx 8  94 F8 40 10 21 44 88 75 
    736      4077.900 DT 022A00D6 Rx 0  
    737      4078.500 DT 051500D7 Rx 8  00 20 94 F8 6F 10 21 44 
    738      4078.800 DT 022A00D7 Rx 0  
    739      4079.400 DT 051500D8 Rx 8  81 F8 45 00 31 BD 00 00 
    740      4079.700 DT 022A00D8 Rx 0  
    741      4080.300 DT 051500D9 Rx 8  38 B5 05 00 15 F1 3C 00 
    742      4080.600 DT 022A00D9 Rx 0  
    743      4081.200 DT 051500DA Rx 8  EC 6F 80 68 03 F0 0A FF 
    744      4081.500 DT 022A00DA Rx 0  
    745      4082.100 DT 051500DB Rx 8  29 00 DF F8 04 09 FF F7 
    746      4082.400 DT 022A00DB Rx 0  
    747      4083.000 DT 051500DC Rx 8  EA FE 28 00 00 F0 6D F9 
    748      4083.300 DT 022A00DC Rx 0  
    749      4084.000 DT 051500DD Rx 8  28 00 00 F0 28 F8 28 00 
    750      4084.200 DT 022A00DD Rx 0  
    751      4084.900 DT 051500DE Rx 8  FF F7 79 FF 01 20 84 F8 
    752      4085.200 DT 022A00DE Rx 0  
    753      4085.800 DT 051500DF Rx 8  00 02 00 20 A4 F8 02 02 
    754      4086.100 DT 022A00DF Rx 0  
    755      4086.700 DT 051500E0 Rx 8  00 20 84 F8 FF 01 00 20 
    756      4087.000 DT 022A00E0 Rx 0  
    757      4087.600 DT 051500E1 Rx 8  84 F8 FE 01 01 20 84 F8 
    758      4087.900 DT 022A00E1 Rx 0  
    759      4088.500 DT 051500E2 Rx 8  FA 01 00 20 A4 F8 FC 01 
    760      4088.800 DT 022A00E2 Rx 0  
    761      4089.400 DT 051500E3 Rx 8  00 20 84 F8 F9 01 00 20 
    762      4089.700 DT 022A00E3 Rx 0  
    763      4090.300 DT 051500E4 Rx 8  84 F8 F8 01 01 20 84 F8 
    764      4090.600 DT 022A00E4 Rx 0  
    765      4091.200 DT 051500E5 Rx 8  F4 01 00 20 A4 F8 F6 01 
    766      4091.500 DT 022A00E5 Rx 0  
    767      4092.100 DT 051500E6 Rx 8  00 20 84 F8 F3 01 00 20 
    768      4092.400 DT 022A00E6 Rx 0  
    769      4093.000 DT 051500E7 Rx 8  84 F8 F2 01 31 BD 70 B5 
    770      4093.300 DT 022A00E7 Rx 0  
    771      4093.900 DT 051500E8 Rx 8  04 00 14 F1 3C 00 E5 6F 
    772      4094.200 DT 022A00E8 Rx 0  
    773      4094.800 DT 051500E9 Rx 8  15 F5 35 76 C0 69 03 F0 
    774      4095.100 DT 022A00E9 Rx 0  
    775      4095.700 DT 051500EA Rx 8  13 FF 28 21 48 43 00 13 
    776      4095.900 DT 022A00EA Rx 0  
    777      4096.500 DT 051500EB Rx 8  35 21 31 80 27 21 71 80 
    778      4096.800 DT 022A00EB Rx 0  
    779      4097.500 DT 051500EC Rx 8  30 21 B1 80 14 21 F1 80 
    780      4097.800 DT 022A00EC Rx 0  
    781      4098.400 DT 051500ED Rx 8  71 88 81 42 02 DB 00 20 
    782      4098.700 DT 022A00ED Rx 0  
    783      4099.300 DT 051500EE Rx 8  B0 75 09 E0 31 88 88 42 
    784      4099.600 DT 022A00EE Rx 0  
    785      4100.200 DT 051500EF Rx 8  02 DB 64 20 B0 75 03 E0 
    786      4100.500 DT 022A00EF Rx 0  
    787      4101.100 DT 051500F0 Rx 8  20 00 00 F0 F7 FC B0 75 
    788      4101.400 DT 022A00F0 Rx 0  
    789      4102.000 DT 051500F1 Rx 8  B0 7D 70 76 4F F4 80 50 
    790      4102.300 DT 022A00F1 Rx 0  
    791      4102.900 DT 051500F2 Rx 8  F0 61 00 20 A5 F8 B6 05 
    792      4103.200 DT 022A00F2 Rx 0  
    793      4103.700 DT 051500F3 Rx 8  70 BD 10 B4 C1 6F 48 79 
    794      4104.000 DT 022A00F3 Rx 0  
    795      4104.600 DT 051500F4 Rx 8  01 28 17 D1 1C 22 DF F8 
    796      4104.900 DT 022A00F4 Rx 0  
    797      4105.500 DT 051500F5 Rx 8  50 38 C8 88 50 43 18 44 
    798      4105.800 DT 022A00F5 Rx 0  
    799      4106.400 DT 051500F6 Rx 8  C0 79 00 28 0A D1 CC 88 
    800      4106.700 DT 022A00F6 Rx 0  
    801      4107.300 DT 051500F7 Rx 8  C8 88 02 FB 00 F2 03 EB 
    802      4107.600 DT 022A00F7 Rx 0  
    803      4108.200 DT 051500F8 Rx 8  02 00 80 79 40 1E 04 19 
    804      4108.500 DT 022A00F8 Rx 0  
    805      4109.100 DT 051500F9 Rx 8  CC 80 20 E0 C8 88 40 1E 
    806      4109.400 DT 022A00F9 Rx 0  
    807      4110.000 DT 051500FA Rx 8  C8 80 1C E0 48 79 02 28 
    808      4110.300 DT 022A00FA Rx 0  
    809      4110.900 DT 051500FB Rx 8  19 D1 1C 20 DF F8 18 28 
    810      4111.200 DT 022A00FB Rx 0  
    811      4111.800 DT 051500FC Rx 8  CB 88 43 43 13 44 9B 79 
    812      4112.100 DT 022A00FC Rx 0  
    813      4112.700 DT 051500FD Rx 8  5B 1E CC 88 44 43 14 44 
    814      4112.900 DT 022A00FD Rx 0  
    815      4113.500 DT 051500FE Rx 8  E4 79 A3 42 08 D1 CB 88 
    816      4113.800 DT 022A00FE Rx 0  
    817      4114.400 DT 051500FF Rx 8  CC 88 00 FB 04 F0 10 44 
    818      4114.700 DT 022A00FF Rx 0  
    819      4115.300 DT 05150100 Rx 8  C0 79 1B 1A CB 80 02 E0 
    820      4115.600 DT 022A0100 Rx 0  
    821      4116.300 DT 05150101 Rx 8  C8 88 40 1C C8 80 10 BC 
    822      4125.300 DT 022A0101 Rx 0  
    823      4125.900 DT 05150102 Rx 8  70 47 C1 6F 1C 22 DF F8 
    824      4126.200 DT 022A0102 Rx 0  
    825      4126.800 DT 05150103 Rx 8  E0 37 C8 88 50 43 18 44 
    826      4127.100 DT 022A0103 Rx 0  
    827      4127.700 DT 05150104 Rx 8  80 88 00 28 07 D0 C8 88 
    828      4128.000 DT 022A0104 Rx 0  
    829      4128.700 DT 05150105 Rx 8  02 FB 00 F2 03 EB 02 00 
    830      4129.000 DT 022A0105 Rx 0  
    831      4129.600 DT 05150106 Rx 8  80 88 C8 80 03 E0 00 20 
    832      4129.900 DT 022A0106 Rx 0  
    833      4130.500 DT 05150107 Rx 8  C8 80 00 20 08 71 70 47 
    834      4130.800 DT 022A0107 Rx 0  
    835      4131.400 DT 05150108 Rx 8  C1 6F 1C 22 DF F8 B0 37 
    836      4131.700 DT 022A0108 Rx 0  
    837      4132.300 DT 05150109 Rx 8  C8 88 50 43 18 44 40 88 
    838      4132.500 DT 022A0109 Rx 0  
    839      4133.200 DT 0515010A Rx 8  00 28 07 D0 C8 88 02 FB 
    840      4133.400 DT 022A010A Rx 0  
    841      4134.000 DT 0515010B Rx 8  00 F2 03 EB 02 00 40 88 
    842      4134.300 DT 022A010B Rx 0  
    843      4134.900 DT 0515010C Rx 8  C8 80 03 E0 00 20 C8 80 
    844      4135.200 DT 022A010C Rx 0  
    845      4135.800 DT 0515010D Rx 8  00 20 08 71 70 47 70 47 
    846      4136.100 DT 022A010D Rx 0  
    847      4136.700 DT 0515010E Rx 8  C0 6F 00 21 C1 80 00 21 
    848      4137.000 DT 022A010E Rx 0  
    849      4137.600 DT 0515010F Rx 8  41 71 00 21 01 71 70 47 
    850      4137.900 DT 022A010F Rx 0  
    851      4138.500 DT 05150110 Rx 8  C0 6F 01 71 70 47 F8 B5 
    852      4138.800 DT 022A0110 Rx 0  
    853      4139.400 DT 05150111 Rx 8  04 00 20 00 C6 6F 35 00 
    854      4139.700 DT 022A0111 Rx 0  
    855      4140.300 DT 05150112 Rx 8  28 79 00 28 7A D0 30 79 
    856      4140.600 DT 022A0112 Rx 0  
    857      4141.200 DT 05150113 Rx 8  02 28 10 DA 00 20 00 E0 
    858      4141.500 DT 022A0113 Rx 0  
    859      4142.100 DT 05150114 Rx 8  40 1C 02 28 09 DA 31 79 
    860      4142.400 DT 022A0114 Rx 0  
    861      4143.000 DT 05150115 Rx 8  DF F8 4C 27 1C 23 03 FB 
    862      4143.300 DT 022A0115 Rx 0  
    863      4143.900 DT 05150116 Rx 8  00 F3 D2 5C 91 42 F3 D1 
    864      4144.200 DT 022A0116 Rx 0  
    865      4144.800 DT 05150117 Rx 8  E8 80 02 28 66 D0 28 79 
    866      4145.100 DT 022A0117 Rx 0  
    867      4145.700 DT 05150118 Rx 8  00 28 0F D0 DF F8 34 17 
    868      4146.000 DT 022A0118 Rx 0  
    869      4146.500 DT 05150119 Rx 8  DF F8 2C 27 EB 88 1C 20 
    870      4146.800 DT 022A0119 Rx 0  
    871      4147.400 DT 0515011A Rx 8  43 43 02 EB 03 00 80 68 
    872      4147.700 DT 022A011A Rx 0  
    873      4148.300 DT 0515011B Rx 8  08 60 20 00 09 68 88 47 
    874      4148.600 DT 022A011B Rx 0  
    875      4149.200 DT 0515011C Rx 8  E8 88 28 81 68 79 01 28 
    876      4149.500 DT 022A011C Rx 0  
    877      4150.100 DT 0515011D Rx 8  07 D0 4F D3 03 28 1A D0 
    878      4150.400 DT 022A011D Rx 0  
    879      4151.000 DT 0515011E Rx 8  03 D3 05 28 43 D0 2C D3 
    880      4151.300 DT 022A011E Rx 0  
    881      4151.900 DT 0515011F Rx 8  48 E0 00 20 A6 F8 0E 02 
    882      4152.200 DT 022A011F Rx 0  
    883      4152.800 DT 05150120 Rx 8  DF F8 F8 16 1C 26 DF F8 
    884      4153.100 DT 022A0120 Rx 0  
    885      4153.700 DT 05150121 Rx 8  F0 76 E8 88 70 43 38 44 
    886      4154.000 DT 022A0121 Rx 0  
    887      4154.600 DT 05150122 Rx 8  C0 68 08 60 20 00 09 68 
    888      4154.900 DT 022A0122 Rx 0  
    889      4155.500 DT 05150123 Rx 8  88 47 E8 88 06 FB 00 F6 
    890      4155.800 DT 022A0123 Rx 0  
    891      4156.400 DT 05150124 Rx 8  B8 5D 28 71 32 E0 00 20 
    892      4156.700 DT 022A0124 Rx 0  
    893      4157.300 DT 05150125 Rx 8  A6 F8 0E 02 DF F8 CC 16 
    894      4157.600 DT 022A0125 Rx 0  
    895      4158.200 DT 05150126 Rx 8  1C 26 DF F8 C4 76 E8 88 
    896      4158.500 DT 022A0126 Rx 0  
    897      4159.100 DT 05150127 Rx 8  70 43 38 44 00 69 08 60 
    898      4159.300 DT 022A0127 Rx 0  
    899      4159.900 DT 05150128 Rx 8  20 00 09 68 88 47 E8 88 
    900      4160.200 DT 022A0128 Rx 0  
    901      4160.800 DT 05150129 Rx 8  06 FB 00 F6 B8 5D 28 71 
    902      4161.100 DT 022A0129 Rx 0  
    903      4161.700 DT 0515012A Rx 8  1C E0 00 20 A6 F8 0E 02 
    904      4162.000 DT 022A012A Rx 0  
    905      4162.600 DT 0515012B Rx 8  DF F8 A0 16 1C 26 DF F8 
    906      4162.900 DT 022A012B Rx 0  
    907      4163.500 DT 0515012C Rx 8  98 76 E8 88 70 43 38 44 
    908      4163.800 DT 022A012C Rx 0  
    909      4164.400 DT 0515012D Rx 8  00 69 08 60 20 00 09 68 
    910      4164.700 DT 022A012D Rx 0  
    911      4165.300 DT 0515012E Rx 8  88 47 E8 88 06 FB 00 F6 
    912      4165.600 DT 022A012E Rx 0  
    913      4166.200 DT 0515012F Rx 8  B8 5D 28 71 06 E0 00 20 
    914      4166.400 DT 022A012F Rx 0  
    915      4167.100 DT 05150130 Rx 8  F0 80 00 20 70 71 00 20 
    916      4167.400 DT 022A0130 Rx 0  
    917      4168.000 DT 05150131 Rx 8  30 71 FF E7 F1 BD 80 B5 
    918      4168.300 DT 022A0131 Rx 0  
    919      4168.900 DT 05150132 Rx 8  FF F7 79 FF 01 BD C1 6F 
    920      4169.200 DT 022A0132 Rx 0  
    921      4169.800 DT 05150133 Rx 8  0A 00 10 79 00 28 0F D0 
    922      4170.100 DT 022A0133 Rx 0  
    923      4170.700 DT 05150134 Rx 8  B1 F8 0E 02 40 1C A1 F8 
    924      4171.000 DT 022A0134 Rx 0  
    925      4171.600 DT 05150135 Rx 8  0E 02 B1 F8 0E 02 42 F2 
    926      4171.900 DT 022A0135 Rx 0  
    927      4172.500 DT 05150136 Rx 8  11 73 98 42 04 DB 00 20 
    928      4172.700 DT 022A0136 Rx 0  
    929      4173.400 DT 05150137 Rx 8  A1 F8 0E 02 00 20 10 71 
    930      4173.700 DT 022A0137 Rx 0  
    931      4174.300 DT 05150138 Rx 8  70 47 1C B5 04 00 E0 6F 
    932      4174.600 DT 022A0138 Rx 0  
    933      4175.200 DT 05150139 Rx 8  00 21 2D E0 4A 01 02 44 
    934      4175.500 DT 022A0139 Rx 0  
    935      4176.100 DT 0515013A Rx 8  A0 32 4B 01 03 44 C3 F8 
    936      4176.400 DT 022A013A Rx 0  
    937      4177.000 DT 0515013B Rx 8  80 20 06 E0 0A 29 F5 D1 
    938      4177.300 DT 022A013B Rx 0  
    939      4177.900 DT 0515013C Rx 8  00 22 4B 01 03 44 C3 F8 
    940      4178.200 DT 022A013C Rx 0  
    941      4178.800 DT 0515013D Rx 8  80 20 00 22 4B 01 03 44 
    942      4179.000 DT 022A013D Rx 0  
    943      4179.700 DT 0515013E Rx 8  A3 F8 96 20 00 22 4B 01 
    944      4180.000 DT 022A013E Rx 0  
    945      4180.600 DT 0515013F Rx 8  03 44 83 F8 93 20 00 22 
    946      4180.900 DT 022A013F Rx 0  
    947      4181.500 DT 05150140 Rx 8  4B 01 03 44 C3 F8 98 20 
    948      4181.800 DT 022A0140 Rx 0  
    949      4182.400 DT 05150141 Rx 8  00 22 4B 01 03 44 83 F8 
    950      4182.700 DT 022A0141 Rx 0  
    951      4183.300 DT 05150142 Rx 8  91 20 00 22 4B 01 03 44 
    952      4183.600 DT 022A0142 Rx 0  
    953      4184.200 DT 05150143 Rx 8  83 F8 9D 20 00 22 4B 01 
    954      4184.500 DT 022A0143 Rx 0  
    955      4185.100 DT 05150144 Rx 8  03 44 83 F8 90 20 49 1C 
    956      4185.400 DT 022A0144 Rx 0  
    957      4186.000 DT 05150145 Rx 8  0A 29 D7 DB 00 21 C0 F8 
    958      4186.300 DT 022A0145 Rx 0  
    959      4186.900 DT 05150146 Rx 8  A0 11 10 F1 80 01 C0 F8 
    960      4187.200 DT 022A0146 Rx 0  
    961      4187.800 DT 05150147 Rx 8  C0 11 0A 21 80 F8 7C 10 
    962      4188.100 DT 022A0147 Rx 0  
    963      4188.700 DT 05150148 Rx 8  00 21 0A E0 00 22 00 EB 
    964      4189.000 DT 022A0148 Rx 0  
    965      4189.600 DT 05150149 Rx 8  C1 03 C3 F8 C4 21 00 22 
    966      4189.900 DT 022A0149 Rx 0  
    967      4190.500 DT 0515014A Rx 8  00 EB C1 03 A3 F8 C8 21 
    968      4190.800 DT 022A014A Rx 0  
    969      4191.300 DT 0515014B Rx 8  49 1C 05 29 F2 DB 00 20 
    970      4191.600 DT 022A014B Rx 0  
    971      4192.300 DT 0515014C Rx 8  01 90 01 20 00 90 00 23 
    972      4192.600 DT 022A014C Rx 0  
    973      4193.200 DT 0515014D Rx 8  0F F6 D1 22 FA 21 20 00 
    974      4193.500 DT 022A014D Rx 0  
    975      4194.100 DT 0515014E Rx 8  00 F0 36 F9 01 00 20 00 
    976      4194.400 DT 022A014E Rx 0  
    977      4195.000 DT 0515014F Rx 8  00 F0 DA F8 01 20 01 90 
    978      4195.300 DT 022A014F Rx 0  
    979      4195.900 DT 05150150 Rx 8  01 20 00 90 00 23 DF F8 
    980      4196.200 DT 022A0150 Rx 0  
    981      4196.800 DT 05150151 Rx 8  78 25 4F F4 8C 71 20 00 
    982      4197.100 DT 022A0151 Rx 0  
    983      4197.700 DT 05150152 Rx 8  00 F0 26 F9 01 00 20 00 
    984      4198.000 DT 022A0152 Rx 0  
    985      4198.600 DT 05150153 Rx 8  00 F0 CA F8 02 20 01 90 
    986      4198.900 DT 022A0153 Rx 0  
    987      4199.500 DT 05150154 Rx 8  01 20 00 90 00 23 DF F8 
    988      4199.800 DT 022A0154 Rx 0  
    989      4200.400 DT 05150155 Rx 8  5C 25 4F F4 E1 71 20 00 
    990      4200.700 DT 022A0155 Rx 0  
    991      4201.300 DT 05150156 Rx 8  00 F0 16 F9 01 00 20 00 
    992      4201.600 DT 022A0156 Rx 0  
    993      4202.200 DT 05150157 Rx 8  00 F0 BA F8 04 20 01 90 
    994      4202.500 DT 022A0157 Rx 0  
    995      4203.200 DT 05150158 Rx 8  01 20 00 90 00 23 DF F8 
    996      4203.400 DT 022A0158 Rx 0  
    997      4204.000 DT 05150159 Rx 8  40 25 4F F4 96 71 20 00 
    998      4204.300 DT 022A0159 Rx 0  
    999      4204.900 DT 0515015A Rx 8  00 F0 06 F9 01 00 20 00 
   1000      4205.200 DT 022A015A Rx 0  
   1001      4205.900 DT 0515015B Rx 8  00 F0 AA F8 03 20 01 90 
   1002      4206.100 DT 022A015B Rx 0  
   1003      4206.800 DT 0515015C Rx 8  01 20 00 90 00 23 DF F8 
   1004      4207.000 DT 022A015C Rx 0  
   1005      4207.600 DT 0515015D Rx 8  24 25 3C 21 20 00 00 F0 
   1006      4207.900 DT 022A015D Rx 0  
   1007      4208.600 DT 0515015E Rx 8  F7 F8 01 00 20 00 00 F0 
   1008      4208.800 DT 022A015E Rx 0  
   1009      4209.400 DT 0515015F Rx 8  9B F8 05 20 01 90 01 20 
   1010      4209.700 DT 022A015F Rx 0  
   1011      4210.400 DT 05150160 Rx 8  00 90 00 23 DF F8 38 2C 
   1012      4210.700 DT 022A0160 Rx 0  
   1013      4211.300 DT 05150161 Rx 8  41 F2 88 31 20 00 00 F0 
   1014      4211.600 DT 022A0161 Rx 0  
   1015      4212.200 DT 05150162 Rx 8  E7 F8 01 00 20 00 00 F0 
   1016      4212.500 DT 022A0162 Rx 0  
   1017      4213.200 DT 05150163 Rx 8  8B F8 08 20 01 90 01 20 
   1018      4213.400 DT 022A0163 Rx 0  
   1019      4214.000 DT 05150164 Rx 8  00 90 00 23 DF F8 1C 2C 
   1020      4214.300 DT 022A0164 Rx 0  
   1021      4214.900 DT 05150165 Rx 8  64 21 20 00 00 F0 D8 F8 
   1022      4215.200 DT 022A0165 Rx 0  
   1023      4215.900 DT 05150166 Rx 8  01 00 20 00 00 F0 7C F8 
   1024      4216.100 DT 022A0166 Rx 0  
   1025      4216.800 DT 05150167 Rx 8  06 20 01 90 01 20 00 90 
   1026      4217.000 DT 022A0167 Rx 0  
   1027      4217.700 DT 05150168 Rx 8  00 23 DF F8 04 2C 4F F4 
   1028      4217.900 DT 022A0168 Rx 0  
   1029      4218.600 DT 05150169 Rx 8  F5 71 20 00 00 F0 C8 F8 
   1030      4218.800 DT 022A0169 Rx 0  
   1031      4219.500 DT 0515016A Rx 8  01 00 20 00 00 F0 6C F8 
   1032      4219.800 DT 022A016A Rx 0  
   1033      4220.400 DT 0515016B Rx 8  13 BD 10 B5 C4 6F 00 21 
   1034      4220.700 DT 022A016B Rx 0  
   1035      4221.300 DT 0515016C Rx 8  D4 F8 C0 21 00 2A 0D D0 
   1036      4221.600 DT 022A016C Rx 0  
   1037      4222.200 DT 0515016D Rx 8  D4 F8 C0 11 01 22 4A 77 
   1038      4222.500 DT 022A016D Rx 0  
   1039      4223.000 DT 0515016E Rx 8  D4 F8 C0 21 12 68 C4 F8 
   1040      4223.300 DT 022A016E Rx 0  
   1041      4223.900 DT 0515016F Rx 8  C0 21 94 F8 7C 20 52 1E 
   1042      4224.200 DT 022A016F Rx 0  
   1043      4224.800 DT 05150170 Rx 8  84 F8 7C 20 94 F8 7C 20 
   1044      4225.100 DT 022A0170 Rx 0  
   1045      4225.800 DT 05150171 Rx 8  00 2A 0F D1 FF F7 19 FF 
   1046      4226.000 DT 022A0171 Rx 0  
   1047      4226.600 DT 05150172 Rx 8  D4 F8 C0 11 01 20 48 77 
   1048      4226.900 DT 022A0172 Rx 0  
   1049      4227.500 DT 05150173 Rx 8  D4 F8 C0 01 00 68 C4 F8 
   1050      4227.800 DT 022A0173 Rx 0  
   1051      4228.500 DT 05150174 Rx 8  C0 01 94 F8 7C 00 40 1E 
   1052      4228.700 DT 022A0174 Rx 0  
   1053      4229.400 DT 05150175 Rx 8  84 F8 7C 00 08 00 10 BD 
   1054      4229.600 DT 022A0175 Rx 0  
   1055      4230.200 DT 05150176 Rx 8  C0 6F 00 29 22 D0 00 22 
   1056      4230.500 DT 022A0176 Rx 0  
   1057      4231.200 DT 05150177 Rx 8  8A 74 00 22 4A 60 00 22 
   1058      4231.500 DT 022A0177 Rx 0  
   1059      4232.100 DT 05150178 Rx 8  4A 77 00 22 8A 60 00 22 
   1060      4232.400 DT 022A0178 Rx 0  
   1061      4232.900 DT 05150179 Rx 8  8A 61 00 22 0A 77 00 22 
   1062      4233.200 DT 022A0179 Rx 0  
   1063      4233.800 DT 0515017A Rx 8  CA 82 00 22 4A 74 00 22 
   1064      4234.100 DT 022A017A Rx 0  
   1065      4234.700 DT 0515017B Rx 8  0A 74 D0 F8 C0 21 0A 60 
   1066      4235.000 DT 022A017B Rx 0  
   1067      4235.600 DT 0515017C Rx 8  C0 F8 C0 11 90 F8 7C 10 
   1068      4235.900 DT 022A017C Rx 0  
   1069      4236.500 DT 0515017D Rx 8  49 1C 80 F8 7C 10 90 F8 
   1070      4236.800 DT 022A017D Rx 0  
   1071      4237.400 DT 0515017E Rx 8  7C 10 0A 29 02 DB 0A 21 
   1072      4237.700 DT 022A017E Rx 0  
   1073      4238.400 DT 0515017F Rx 8  80 F8 7C 10 70 47 30 B4 
   1074      4238.600 DT 022A017F Rx 0  
   1075      4239.300 DT 05150180 Rx 8  C3 6F 00 22 00 E0 52 1C 
   1076      4239.600 DT 022A0180 Rx 0  
   1077      4240.200 DT 05150181 Rx 8  10 00 C0 B2 0A 28 0C DA 
   1078      4255.600 DT 022A0181 Rx 0  
   1079      4256.200 DT 05150182 Rx 8  10 00 C0 B2 40 01 18 44 
   1080      4256.500 DT 022A0182 Rx 0  
   1081      4257.200 DT 05150183 Rx 8  80 30 00 28 F3 D0 04 7C 
   1082      4257.400 DT 022A0183 Rx 0  
   1083      4258.100 DT 05150184 Rx 8  0D 00 ED B2 AC 42 EE D1 
   1084      4258.300 DT 022A0184 Rx 0  
   1085      4259.000 DT 05150185 Rx 8  00 E0 00 20 30 BC 70 47 
   1086      4259.200 DT 022A0185 Rx 0  
   1087      4259.800 DT 05150186 Rx 8  10 B4 C2 6F 00 29 1C D0 
   1088      4260.100 DT 022A0186 Rx 0  
   1089      4260.700 DT 05150187 Rx 8  03 20 88 74 C8 8A 93 6F 
   1090      4261.000 DT 022A0187 Rx 0  
   1091      4261.600 DT 05150188 Rx 8  18 18 88 61 8B 69 05 24 
   1092      4261.900 DT 022A0188 Rx 0  
   1093      4262.500 DT 05150189 Rx 8  B3 FB F4 F0 04 FB 10 30 
   1094      4262.800 DT 022A0189 Rx 0  
   1095      4263.400 DT 0515018A Rx 8  02 EB C0 00 10 F5 E2 72 
   1096      4263.700 DT 022A018A Rx 0  
   1097      4264.300 DT 0515018B Rx 8  00 2A 0A D0 10 68 00 28 
   1098      4264.600 DT 022A018B Rx 0  
   1099      4265.200 DT 0515018C Rx 8  01 D0 10 68 41 60 10 68 
   1100      4265.500 DT 022A018C Rx 0  
   1101      4266.100 DT 0515018D Rx 8  08 60 11 60 90 88 40 1C 
   1102      4266.400 DT 022A018D Rx 0  
   1103      4267.000 DT 0515018E Rx 8  90 80 10 BC 70 47 10 B4 
   1104      4267.300 DT 022A018E Rx 0  
   1105      4267.800 DT 0515018F Rx 8  C2 6F 00 29 25 D0 01 20 
   1106      4268.100 DT 022A018F Rx 0  
   1107      4268.700 DT 05150190 Rx 8  88 74 8B 69 05 24 B3 FB 
   1108      4269.000 DT 022A0190 Rx 0  
   1109      4269.600 DT 05150191 Rx 8  F4 F0 04 FB 10 30 02 EB 
   1110      4269.900 DT 022A0191 Rx 0  
   1111      4270.500 DT 05150192 Rx 8  C0 00 10 F5 E2 72 00 2A 
   1112      4270.800 DT 022A0192 Rx 0  
   1113      4271.400 DT 05150193 Rx 8  17 D0 10 68 88 42 08 D1 
   1114      4271.700 DT 022A0193 Rx 0  
   1115      4272.300 DT 05150194 Rx 8  08 68 10 60 08 68 00 28 
   1116      4272.600 DT 022A0194 Rx 0  
   1117      4273.200 DT 05150195 Rx 8  0C D0 00 20 09 68 48 60 
   1118      4273.500 DT 022A0195 Rx 0  
   1119      4274.100 DT 05150196 Rx 8  08 E0 08 68 4B 68 18 60 
   1120      4274.400 DT 022A0196 Rx 0  
   1121      4275.000 DT 05150197 Rx 8  08 68 00 28 02 D0 48 68 
   1122      4275.300 DT 022A0197 Rx 0  
   1123      4275.900 DT 05150198 Rx 8  09 68 48 60 90 88 40 1E 
   1124      4276.200 DT 022A0198 Rx 0  
   1125      4276.800 DT 05150199 Rx 8  90 80 10 BC 70 47 10 B5 
   1126      4277.100 DT 022A0199 Rx 0  
   1127      4277.700 DT 0515019A Rx 8  14 00 C9 B2 FF F7 93 FF 
   1128      4278.000 DT 022A019A Rx 0  
   1129      4278.600 DT 0515019B Rx 8  00 28 00 D0 84 74 10 BD 
   1130      4278.800 DT 022A019B Rx 0  
   1131      4279.500 DT 0515019C Rx 8  2D E9 F0 41 0C 00 15 00 
   1132      4279.800 DT 022A019C Rx 0  
   1133      4280.400 DT 0515019D Rx 8  1E 00 5F F0 FF 38 C7 6F 
   1134      4280.600 DT 022A019D Rx 0  
   1135      4281.200 DT 0515019E Rx 8  00 21 FF F7 32 FF 00 28 
   1136      4281.500 DT 022A019E Rx 0  
   1137      4282.100 DT 0515019F Rx 8  05 D0 17 F1 80 08 B0 EB 
   1138      4282.400 DT 022A019F Rx 0  
   1139      4283.100 DT 051501A0 Rx 8  08 08 5F EA 68 18 18 F1 
   1140      4283.400 DT 022A01A0 Rx 0  
   1141      4284.000 DT 051501A1 Rx 8  01 0F 21 D0 07 99 06 9A 
   1142      4284.200 DT 022A01A1 Rx 0  
   1143      4284.800 DT 051501A2 Rx 8  5F EA 48 13 3B 44 C3 F8 
   1144      4285.100 DT 022A01A2 Rx 0  
   1145      4285.700 DT 051501A3 Rx 8  88 50 5F EA 48 13 3B 44 
   1146      4286.000 DT 022A01A3 Rx 0  
   1147      4286.600 DT 051501A4 Rx 8  C3 F8 8C 60 64 08 5F EA 
   1148      4286.900 DT 022A01A4 Rx 0  
   1149      4287.500 DT 051501A5 Rx 8  48 13 3B 44 A3 F8 96 40 
   1150      4287.800 DT 022A01A5 Rx 0  
   1151      4288.400 DT 051501A6 Rx 8  5F EA 48 13 3B 44 83 F8 
   1152      4288.700 DT 022A01A6 Rx 0  
   1153      4289.300 DT 051501A7 Rx 8  93 20 01 22 5F EA 48 13 
   1154      4289.600 DT 022A01A7 Rx 0  
   1155      4290.200 DT 051501A8 Rx 8  3B 44 83 F8 92 20 5F EA 
   1156      4290.500 DT 022A01A8 Rx 0  
   1157      4291.100 DT 051501A9 Rx 8  48 12 3A 44 82 F8 90 10 
   1158      4291.400 DT 022A01A9 Rx 0  
   1159      4292.000 DT 051501AA Rx 8  BD E8 F0 81 70 B5 05 00 
   1160      4292.200 DT 022A01AA Rx 0  
   1161      4292.800 DT 051501AB Rx 8  00 20 E8 6F 10 F1 80 04 
   1162      4293.100 DT 022A01AB Rx 0  
   1163      4293.700 DT 051501AC Rx 8  00 26 1A E0 60 7C 00 28 
   1164      4294.000 DT 022A01AC Rx 0  
   1165      4294.600 DT 051501AD Rx 8  10 D0 A0 68 00 28 0D D0 
   1166      4294.900 DT 022A01AD Rx 0  
   1167      4295.500 DT 051501AE Rx 8  E1 68 28 00 A2 68 90 47 
   1168      4295.800 DT 022A01AE Rx 0  
   1169      4296.400 DT 051501AF Rx 8  00 20 60 74 20 7F 40 1C 
   1170      4296.700 DT 022A01AF Rx 0  
   1171      4297.400 DT 051501B0 Rx 8  20 77 20 7F FF 28 01 D1 
   1172      4297.600 DT 022A01B0 Rx 0  
   1173      4298.300 DT 051501B1 Rx 8  00 20 20 77 20 34 03 E0 
   1174      4298.600 DT 022A01B1 Rx 0  
   1175      4299.200 DT 051501B2 Rx 8  A0 7C 04 28 E6 D1 20 34 
   1176      4299.500 DT 022A01B2 Rx 0  
   1177      4300.100 DT 051501B3 Rx 8  76 1C 0A 2E 08 DA 00 2C 
   1178      4300.300 DT 022A01B3 Rx 0  
   1179      4301.000 DT 051501B4 Rx 8  01 D1 20 34 F8 E7 60 7F 
   1180      4301.200 DT 022A01B4 Rx 0  
   1181      4301.900 DT 051501B5 Rx 8  00 28 F1 D1 20 34 F3 E7 
   1182      4302.100 DT 022A01B5 Rx 0  
   1183      4302.700 DT 051501B6 Rx 8  70 BD 00 00 F8 B5 05 00 
   1184      4303.000 DT 022A01B6 Rx 0  
   1185      4303.600 DT 051501B7 Rx 8  EE 6F B0 6F 40 1C B0 67 
   1186      4303.900 DT 022A01B7 Rx 0  
   1187      4304.500 DT 051501B8 Rx 8  96 F8 EE 01 00 28 04 D0 
   1188      4304.800 DT 022A01B8 Rx 0  
   1189      4305.400 DT 051501B9 Rx 8  B6 F8 F0 01 40 1C A6 F8 
   1190      4305.700 DT 022A01B9 Rx 0  
   1191      4306.300 DT 051501BA Rx 8  F0 01 28 00 FF F7 DF FD 
   1192      4306.600 DT 022A01BA Rx 0  
   1193      4307.200 DT 051501BB Rx 8  B1 6F 05 22 B1 FB F2 F0 
   1194      4307.500 DT 022A01BB Rx 0  
   1195      4308.100 DT 051501BC Rx 8  02 FB 10 10 06 EB C0 00 
   1196      4308.400 DT 022A01BC Rx 0  
   1197      4309.000 DT 051501BD Rx 8  D0 F8 C4 41 00 E0 3C 00 
   1198      4309.300 DT 022A01BD Rx 0  
   1199      4310.000 DT 051501BE Rx 8  00 2C 01 D0 00 2C 00 D1 
   1200      4310.200 DT 022A01BE Rx 0  
   1201      4310.900 DT 051501BF Rx 8  F1 BD 27 68 A0 7C 04 28 
   1202      4311.100 DT 022A01BF Rx 0  
   1203      4311.800 DT 051501C0 Rx 8  F5 D0 B0 6F A1 69 88 42 
   1204      4312.000 DT 022A01C0 Rx 0  
   1205      4312.600 DT 051501C1 Rx 8  32 D3 21 00 28 00 FF F7 
   1206      4312.900 DT 022A01C1 Rx 0  
   1207      4313.500 DT 051501C2 Rx 8  32 FF E0 7C 01 28 04 D1 
   1208      4313.800 DT 022A01C2 Rx 0  
   1209      4314.500 DT 051501C3 Rx 8  21 00 28 00 FF F7 08 FF 
   1210      4314.800 DT 022A01C3 Rx 0  
   1211      4315.400 DT 051501C4 Rx 8  24 E0 E0 7C 02 28 0E D1 
   1212      4315.700 DT 022A01C4 Rx 0  
   1213      4316.300 DT 051501C5 Rx 8  20 7F A1 8A 80 B2 88 42 
   1214      4316.500 DT 022A01C5 Rx 0  
   1215      4317.200 DT 051501C6 Rx 8  04 D3 21 00 28 00 FF F7 
   1216      4317.400 DT 022A01C6 Rx 0  
   1217      4318.100 DT 051501C7 Rx 8  BB FE 17 E0 21 00 28 00 
   1218      4318.300 DT 022A01C7 Rx 0  
   1219      4319.000 DT 051501C8 Rx 8  FF F7 F6 FE 12 E0 E0 7C 
   1220      4319.300 DT 022A01C8 Rx 0  
   1221      4319.900 DT 051501C9 Rx 8  03 28 0B D1 21 00 28 00 
   1222      4320.200 DT 022A01C9 Rx 0  
   1223      4320.800 DT 051501CA Rx 8  FF F7 EE FE 20 7F A1 8A 
   1224      4321.100 DT 022A01CA Rx 0  
   1225      4321.700 DT 051501CB Rx 8  80 B2 88 42 06 D3 04 20 
   1226      4321.900 DT 022A01CB Rx 0  
   1227      4322.500 DT 051501CC Rx 8  A0 74 03 E0 21 00 28 00 
   1228      4322.800 DT 022A01CC Rx 0  
   1229      4323.400 DT 051501CD Rx 8  FF F7 A2 FE 01 20 60 74 
   1230      4323.700 DT 022A01CD Rx 0  
   1231      4324.300 DT 051501CE Rx 8  3C 00 BD E7 01 22 02 63 
   1232      4324.600 DT 022A01CE Rx 0  
   1233      4325.200 DT 051501CF Rx 8  8A 7A 00 2A 0C D0 02 2A 
   1234      4325.500 DT 022A01CF Rx 0  
   1235      4326.100 DT 051501D0 Rx 8  10 D0 0A D3 04 2A 20 D0 
   1236      4326.400 DT 022A01D0 Rx 0  
   1237      4327.000 DT 051501D1 Rx 8  14 D3 06 2A 3B D0 29 D3 
   1238      4327.300 DT 022A01D1 Rx 0  
   1239      4327.900 DT 051501D2 Rx 8  08 2A 63 D0 4B D3 79 E0 
   1240      4328.200 DT 022A01D2 Rx 0  
   1241      4328.800 DT 051501D3 Rx 8  78 E0 CA 7A 12 06 C0 F8 
   1242      4329.100 DT 022A01D3 Rx 0  
   1243      4329.700 DT 051501D4 Rx 8  88 20 73 E0 CA 7A 0B 7B 
   1244      4330.000 DT 022A01D4 Rx 0  
   1245      4330.600 DT 051501D5 Rx 8  1B 04 53 EA 02 63 C0 F8 
   1246      4330.900 DT 022A01D5 Rx 0  
   1247      4331.500 DT 051501D6 Rx 8  88 30 6B E0 CA 7A 0B 7B 
   1248      4331.800 DT 022A01D6 Rx 0  
   1249      4332.400 DT 051501D7 Rx 8  1B 04 53 EA 02 63 4A 7B 
   1250      4332.700 DT 022A01D7 Rx 0  
   1251      4333.300 DT 051501D8 Rx 8  53 EA 02 23 C0 F8 88 30 
   1252      4333.600 DT 022A01D8 Rx 0  
   1253      4334.200 DT 051501D9 Rx 8  60 E0 CA 7A 0B 7B 1B 04 
   1254      4334.500 DT 022A01D9 Rx 0  
   1255      4335.100 DT 051501DA Rx 8  53 EA 02 63 4A 7B 53 EA 
   1256      4335.400 DT 022A01DA Rx 0  
   1257      4336.000 DT 051501DB Rx 8  02 23 8A 7B 13 43 C0 F8 
   1258      4336.200 DT 022A01DB Rx 0  
   1259      4336.900 DT 051501DC Rx 8  88 30 53 E0 CA 7A 0B 7B 
   1260      4337.100 DT 022A01DC Rx 0  
   1261      4337.800 DT 051501DD Rx 8  1B 04 53 EA 02 63 4A 7B 
   1262      4338.000 DT 022A01DD Rx 0  
   1263      4338.600 DT 051501DE Rx 8  53 EA 02 23 8A 7B 13 43 
   1264      4338.900 DT 022A01DE Rx 0  
   1265      4339.500 DT 051501DF Rx 8  C0 F8 88 30 CA 7B 12 06 
   1266      4339.800 DT 022A01DF Rx 0  
   1267      4340.400 DT 051501E0 Rx 8  C0 F8 8C 20 42 E0 CA 7A 
   1268      4340.700 DT 022A01E0 Rx 0  
   1269      4341.300 DT 051501E1 Rx 8  0B 7B 1B 04 53 EA 02 63 
   1270      4341.600 DT 022A01E1 Rx 0  
   1271      4342.200 DT 051501E2 Rx 8  4A 7B 53 EA 02 23 8A 7B 
   1272      4342.500 DT 022A01E2 Rx 0  
   1273      4343.100 DT 051501E3 Rx 8  13 43 C0 F8 88 30 CA 7B 
   1274      4343.400 DT 022A01E3 Rx 0  
   1275      4344.000 DT 051501E4 Rx 8  0B 7C 1B 04 53 EA 02 63 
   1276      4344.300 DT 022A01E4 Rx 0  
   1277      4344.900 DT 051501E5 Rx 8  C0 F8 8C 30 2E E0 CA 7A 
   1278      4345.200 DT 022A01E5 Rx 0  
   1279      4345.800 DT 051501E6 Rx 8  0B 7B 1B 04 53 EA 02 63 
   1280      4346.100 DT 022A01E6 Rx 0  
   1281      4346.700 DT 051501E7 Rx 8  4A 7B 53 EA 02 23 8A 7B 
   1282      4347.000 DT 022A01E7 Rx 0  
   1283      4347.500 DT 051501E8 Rx 8  13 43 C0 F8 88 30 CA 7B 
   1284      4347.800 DT 022A01E8 Rx 0  
   1285      4348.400 DT 051501E9 Rx 8  0B 7C 1B 04 53 EA 02 63 
   1286      4348.700 DT 022A01E9 Rx 0  
   1287      4349.300 DT 051501EA Rx 8  4A 7C 53 EA 02 23 C0 F8 
   1288      4349.600 DT 022A01EA Rx 0  
   1289      4350.200 DT 051501EB Rx 8  8C 30 17 E0 CA 7A 0B 7B 
   1290      4350.500 DT 022A01EB Rx 0  
   1291      4351.100 DT 051501EC Rx 8  1B 04 53 EA 02 63 4A 7B 
   1292      4351.400 DT 022A01EC Rx 0  
   1293      4352.000 DT 051501ED Rx 8  53 EA 02 23 8A 7B 13 43 
   1294      4352.300 DT 022A01ED Rx 0  
   1295      4352.900 DT 051501EE Rx 8  C0 F8 88 30 CA 7B 0B 7C 
   1296      4353.200 DT 022A01EE Rx 0  
   1297      4353.800 DT 051501EF Rx 8  1B 04 53 EA 02 63 4A 7C 
   1298      4354.100 DT 022A01EF Rx 0  
   1299      4354.700 DT 051501F0 Rx 8  53 EA 02 23 8A 7C 13 43 
   1300      4355.000 DT 022A01F0 Rx 0  
   1301      4355.600 DT 051501F1 Rx 8  C0 F8 8C 30 4A 68 C0 F8 
   1302      4355.900 DT 022A01F1 Rx 0  
   1303      4356.500 DT 051501F2 Rx 8  84 20 89 7A 09 04 11 F4 
   1304      4356.800 DT 022A01F2 Rx 0  
   1305      4357.400 DT 051501F3 Rx 8  70 21 51 F0 46 61 C0 F8 
   1306      4357.700 DT 022A01F3 Rx 0  
   1307      4358.300 DT 051501F4 Rx 8  80 10 00 20 70 47 00 00 
   1308      4358.600 DT 022A01F4 Rx 0  
   1309      4359.300 DT 051501F5 Rx 8  B9 25 00 20 A0 02 00 20 
   1310      4359.500 DT 022A01F5 Rx 0  
   1311      4360.200 DT 051501F6 Rx 8  FF 7F 00 00 61 7E 00 00 
   1312      4360.500 DT 022A01F6 Rx 0  
   1313      4361.100 DT 051501F7 Rx 8  79 7E 00 00 EB 64 00 00 
   1314      4361.400 DT 022A01F7 Rx 0  
   1315      4362.000 DT 051501F8 Rx 8  F3 64 00 00 FB 64 00 00 
   1316      4362.300 DT 022A01F8 Rx 0  
   1317      4362.900 DT 051501F9 Rx 8  7B 7E 00 00 3D 67 00 00 
   1318      4363.200 DT 022A01F9 Rx 0  
   1319      4363.800 DT 051501FA Rx 8  2C 51 06 40 0C B0 04 40 
   1320      4364.100 DT 022A01FA Rx 0  
   1321      4364.700 DT 051501FB Rx 8  08 B0 04 40 90 50 06 40 
   1322      4365.000 DT 022A01FB Rx 0  
   1323      4365.600 DT 051501FC Rx 8  00 40 02 40 03 00 01 03 
   1324      4365.900 DT 022A01FC Rx 0  
   1325      4366.500 DT 051501FD Rx 8  00 00 64 04 88 E2 00 E0 
   1326      4366.800 DT 022A01FD Rx 0  
   1327      4367.500 DT 051501FE Rx 8  08 E1 00 E0 51 E4 00 E0 
   1328      4367.800 DT 022A01FE Rx 0  
   1329      4368.400 DT 051501FF Rx 8  A8 5E 01 00 5C 08 00 20 
   1330      4368.700 DT 022A01FF Rx 0  
   1331      4369.300 DT 05150200 Rx 8  61 6B 00 00 49 6C 00 00 
   1332      4369.600 DT 022A0200 Rx 0  
   1333      4370.200 DT 05150201 Rx 8  5F 6D 00 00 F9 6C 00 00 
   1334      4379.400 DT 022A0201 Rx 0  
   1335      4380.000 DT 05150202 Rx 8  30 B4 03 98 04 9B 02 24 
   1336      4380.300 DT 022A0202 Rx 0  
   1337      4380.900 DT 05150203 Rx 8  4D 68 64 F3 1C 65 4D 60 
   1338      4381.200 DT 022A0203 Rx 0  
   1339      4381.800 DT 05150204 Rx 8  92 B2 4C 68 62 F3 D7 44 
   1340      4382.100 DT 022A0204 Rx 0  
   1341      4382.600 DT 05150205 Rx 8  4C 60 06 22 4C 68 62 F3 
   1342      4382.900 DT 022A0205 Rx 0  
   1343      4383.500 DT 05150206 Rx 8  12 44 4C 60 4A 68 32 F4 
   1344      4383.800 DT 022A0206 Rx 0  
   1345      4384.400 DT 05150207 Rx 8  7F 42 4A 60 4A 68 12 0A 
   1346      4384.700 DT 022A0207 Rx 0  
   1347      4385.400 DT 05150208 Rx 8  12 02 4A 60 01 22 0A 72 
   1348      4385.600 DT 022A0208 Rx 0  
   1349      4386.200 DT 05150209 Rx 8  00 22 4A 72 88 72 00 22 
   1350      4386.500 DT 022A0209 Rx 0  
   1351      4387.100 DT 0515020A Rx 8  05 E0 1C 78 01 EB 02 05 
   1352      4387.400 DT 022A020A Rx 0  
   1353      4388.000 DT 0515020B Rx 8  EC 72 5B 1C 52 1C 82 42 
   1354      4388.300 DT 022A020B Rx 0  
   1355      4388.900 DT 0515020C Rx 8  F7 D3 30 BC 70 47 70 B4 
   1356      4389.200 DT 022A020C Rx 0  
   1357      4389.800 DT 0515020D Rx 8  03 98 04 9C 02 25 4E 68 
   1358      4390.100 DT 022A020D Rx 0  
   1359      4390.700 DT 0515020E Rx 8  65 F3 1C 66 4E 60 92 B2 
   1360      4391.000 DT 022A020E Rx 0  
   1361      4391.600 DT 0515020F Rx 8  4D 68 62 F3 D7 45 4D 60 
   1362      4391.900 DT 022A020F Rx 0  
   1363      4392.500 DT 05150210 Rx 8  04 22 4D 68 62 F3 12 45 
   1364      4392.700 DT 022A0210 Rx 0  
   1365      4393.400 DT 05150211 Rx 8  4D 60 C0 B2 4A 68 60 F3 
   1366      4393.700 DT 022A0211 Rx 0  
   1367      4394.300 DT 05150212 Rx 8  0F 22 4A 60 DB B2 48 68 
   1368      4394.600 DT 022A0212 Rx 0  
   1369      4395.200 DT 05150213 Rx 8  63 F3 07 00 48 60 01 20 
   1370      4395.500 DT 022A0213 Rx 0  
   1371      4396.100 DT 05150214 Rx 8  08 72 00 20 48 72 01 20 
   1372      4396.400 DT 022A0214 Rx 0  
   1373      4396.900 DT 05150215 Rx 8  88 72 CC 72 70 BC 70 47 
   1374      4397.200 DT 022A0215 Rx 0  
   1375      4397.800 DT 05150216 Rx 8  30 B4 02 98 02 24 4D 68 
   1376      4398.100 DT 022A0216 Rx 0  
   1377      4398.700 DT 05150217 Rx 8  64 F3 1C 65 4D 60 92 B2 
   1378      4399.000 DT 022A0217 Rx 0  
   1379      4399.600 DT 05150218 Rx 8  4C 68 62 F3 D7 44 4C 60 
   1380      4399.900 DT 022A0218 Rx 0  
   1381      4400.500 DT 05150219 Rx 8  05 22 4C 68 62 F3 12 44 
   1382      4400.700 DT 022A0219 Rx 0  
   1383      4401.300 DT 0515021A Rx 8  4C 60 1A 00 92 B2 12 0A 
   1384      4401.600 DT 022A021A Rx 0  
   1385      4402.200 DT 0515021B Rx 8  92 B2 4C 68 62 F3 0F 24 
   1386      4402.500 DT 022A021B Rx 0  
   1387      4403.100 DT 0515021C Rx 8  4C 60 9B B2 4A 68 63 F3 
   1388      4403.400 DT 022A021C Rx 0  
   1389      4404.000 DT 0515021D Rx 8  07 02 4A 60 01 22 0A 72 
   1390      4404.300 DT 022A021D Rx 0  
   1391      4404.900 DT 0515021E Rx 8  00 22 4A 72 08 22 8A 72 
   1392      4405.100 DT 022A021E Rx 0  
   1393      4405.800 DT 0515021F Rx 8  00 22 05 E0 03 78 01 EB 
   1394      4406.000 DT 022A021F Rx 0  
   1395      4406.600 DT 05150220 Rx 8  02 04 E3 72 40 1C 52 1C 
   1396      4406.900 DT 022A0220 Rx 0  
   1397      4407.600 DT 05150221 Rx 8  08 2A F7 DB 30 BC 70 47 
   1398      4407.800 DT 022A0221 Rx 0  
   1399      4408.400 DT 05150222 Rx 8  70 B4 03 98 04 9C 02 25 
   1400      4408.700 DT 022A0222 Rx 0  
   1401      4409.300 DT 05150223 Rx 8  4E 68 65 F3 1C 66 4E 60 
   1402      4409.600 DT 022A0223 Rx 0  
   1403      4410.200 DT 05150224 Rx 8  92 B2 4D 68 62 F3 D7 45 
   1404      4410.500 DT 022A0224 Rx 0  
   1405      4411.100 DT 05150225 Rx 8  4D 60 06 22 4D 68 62 F3 
   1406      4411.400 DT 022A0225 Rx 0  
   1407      4412.000 DT 05150226 Rx 8  12 45 4D 60 1A 00 92 B2 
   1408      4412.300 DT 022A0226 Rx 0  
   1409      4412.900 DT 05150227 Rx 8  12 0A 92 B2 4D 68 62 F3 
   1410      4413.200 DT 022A0227 Rx 0  
   1411      4413.800 DT 05150228 Rx 8  0F 25 4D 60 9B B2 4A 68 
   1412      4414.100 DT 022A0228 Rx 0  
   1413      4414.700 DT 05150229 Rx 8  63 F3 07 02 4A 60 01 22 
   1414      4415.000 DT 022A0229 Rx 0  
   1415      4415.600 DT 0515022A Rx 8  0A 72 00 22 4A 72 88 72 
   1416      4415.900 DT 022A022A Rx 0  
   1417      4416.500 DT 0515022B Rx 8  00 22 05 E0 23 78 01 EB 
   1418      4416.800 DT 022A022B Rx 0  
   1419      4417.400 DT 0515022C Rx 8  02 05 EB 72 64 1C 52 1C 
   1420      4417.600 DT 022A022C Rx 0  
   1421      4418.200 DT 0515022D Rx 8  03 00 DB B2 9A 42 F5 DB 
   1422      4418.500 DT 022A022D Rx 0  
   1423      4419.100 DT 0515022E Rx 8  70 BC 70 47 10 B5 C1 6F 
   1424      4419.400 DT 022A022E Rx 0  
   1425      4420.000 DT 0515022F Rx 8  D1 F8 B8 45 3C 30 C0 69 
   1426      4420.300 DT 022A022F Rx 0  
   1427      4420.800 DT 05150230 Rx 8  03 F0 F8 F9 A1 6A 88 42 
   1428      4421.100 DT 022A0230 Rx 0  
   1429      4421.800 DT 05150231 Rx 8  01 DA 00 20 7A E0 E1 6A 
   1430      4422.000 DT 022A0231 Rx 0  
   1431      4422.600 DT 05150232 Rx 8  88 42 07 DA A1 6D 00 FB 
   1432      4422.900 DT 022A0232 Rx 0  
   1433      4423.500 DT 05150233 Rx 8  01 F0 00 13 B4 F9 84 10 
   1434      4423.800 DT 022A0233 Rx 0  
   1435      4424.400 DT 05150234 Rx 8  40 18 6F E0 21 6B 88 42 
   1436      4424.700 DT 022A0234 Rx 0  
   1437      4425.300 DT 05150235 Rx 8  07 DA E1 6D 00 FB 01 F0 
   1438      4425.600 DT 022A0235 Rx 0  
   1439      4426.200 DT 05150236 Rx 8  00 13 B4 F9 86 10 40 18 
   1440      4426.500 DT 022A0236 Rx 0  
   1441      4427.200 DT 05150237 Rx 8  64 E0 61 6B 88 42 07 DA 
   1442      4427.500 DT 022A0237 Rx 0  
   1443      4428.100 DT 05150238 Rx 8  21 6E 00 FB 01 F0 00 13 
   1444      4428.400 DT 022A0238 Rx 0  
   1445      4429.000 DT 05150239 Rx 8  B4 F9 88 10 40 18 59 E0 
   1446      4429.300 DT 022A0239 Rx 0  
   1447      4429.900 DT 0515023A Rx 8  A1 6B 88 42 07 DA 61 6E 
   1448      4430.200 DT 022A023A Rx 0  
   1449      4430.700 DT 0515023B Rx 8  00 FB 01 F0 00 13 B4 F9 
   1450      4431.000 DT 022A023B Rx 0  
   1451      4431.600 DT 0515023C Rx 8  8A 10 40 18 4E E0 E1 6B 
   1452      4431.900 DT 022A023C Rx 0  
   1453      4432.500 DT 0515023D Rx 8  88 42 07 DA A1 6E 00 FB 
   1454      4432.800 DT 022A023D Rx 0  
   1455      4433.400 DT 0515023E Rx 8  01 F0 00 13 B4 F9 8C 10 
   1456      4433.700 DT 022A023E Rx 0  
   1457      4434.300 DT 0515023F Rx 8  40 18 43 E0 21 6C 88 42 
   1458      4434.600 DT 022A023F Rx 0  
   1459      4435.200 DT 05150240 Rx 8  07 DA E1 6E 00 FB 01 F0 
   1460      4435.500 DT 022A0240 Rx 0  
   1461      4436.100 DT 05150241 Rx 8  00 13 B4 F9 8E 10 40 18 
   1462      4436.400 DT 022A0241 Rx 0  
   1463      4437.000 DT 05150242 Rx 8  38 E0 61 6C 88 42 07 DA 
   1464      4437.300 DT 022A0242 Rx 0  
   1465      4437.900 DT 05150243 Rx 8  21 6F 00 FB 01 F0 00 13 
   1466      4438.200 DT 022A0243 Rx 0  
   1467      4438.900 DT 05150244 Rx 8  B4 F9 90 10 40 18 2D E0 
   1468      4439.200 DT 022A0244 Rx 0  
   1469      4439.800 DT 05150245 Rx 8  A1 6C 88 42 07 DA 61 6F 
   1470      4440.000 DT 022A0245 Rx 0  
   1471      4440.600 DT 05150246 Rx 8  00 FB 01 F0 00 13 B4 F9 
   1472      4440.900 DT 022A0246 Rx 0  
   1473      4441.500 DT 05150247 Rx 8  92 10 40 18 22 E0 E1 6C 
   1474      4441.800 DT 022A0247 Rx 0  
   1475      4442.400 DT 05150248 Rx 8  88 42 07 DA A1 6F 00 FB 
   1476      4442.700 DT 022A0248 Rx 0  
   1477      4443.300 DT 05150249 Rx 8  01 F0 00 13 B4 F9 94 10 
   1478      4443.600 DT 022A0249 Rx 0  
   1479      4444.200 DT 0515024A Rx 8  40 18 17 E0 21 6D 88 42 
   1480      4444.500 DT 022A024A Rx 0  
   1481      4445.100 DT 0515024B Rx 8  07 DA E1 6F 00 FB 01 F0 
   1482      4445.400 DT 022A024B Rx 0  
   1483      4446.000 DT 0515024C Rx 8  00 13 B4 F9 96 10 40 18 
   1484      4446.300 DT 022A024C Rx 0  
   1485      4446.900 DT 0515024D Rx 8  0C E0 61 6D 88 42 08 DA 
   1486      4447.200 DT 022A024D Rx 0  
   1487      4447.800 DT 0515024E Rx 8  D4 F8 80 10 00 FB 01 F0 
   1488      4448.100 DT 022A024E Rx 0  
   1489      4448.700 DT 0515024F Rx 8  00 13 B4 F9 98 10 40 18 
   1490      4449.000 DT 022A024F Rx 0  
   1491      4449.600 DT 05150250 Rx 8  00 E0 64 20 00 28 01 D5 
   1492      4449.900 DT 022A0250 Rx 0  
   1493      4450.500 DT 05150251 Rx 8  00 20 02 E0 65 28 00 DB 
   1494      4450.800 DT 022A0251 Rx 0  
   1495      4451.400 DT 05150252 Rx 8  64 20 80 B2 10 BD 2D E9 
   1496      4451.700 DT 022A0252 Rx 0  
   1497      4452.300 DT 05150253 Rx 8  F8 43 80 46 18 F1 3C 04 
   1498      4452.600 DT 022A0253 Rx 0  
   1499      4453.200 DT 05150254 Rx 8  D8 F8 7C 90 D8 F8 7C 00 
   1500      4453.500 DT 022A0254 Rx 0  
   1501      4454.100 DT 05150255 Rx 8  D0 F8 B8 55 A0 68 03 F0 
   1502      4454.400 DT 022A0255 Rx 0  
   1503      4455.000 DT 05150256 Rx 8  0B F9 A0 68 03 F0 18 F9 
   1504      4455.300 DT 022A0256 Rx 0  
   1505      4455.900 DT 05150257 Rx 8  19 F5 35 76 20 6A 03 F0 
   1506      4456.200 DT 022A0257 Rx 0  
   1507      4456.800 DT 05150258 Rx 8  93 FA 07 00 38 1E 4F F6 
   1508      4457.100 DT 022A0258 Rx 0  
   1509      4457.700 DT 05150259 Rx 8  E9 51 88 42 00 D3 01 27 
   1510      4458.000 DT 022A0259 Rx 0  
   1511      4458.600 DT 0515025A Rx 8  B7 82 40 46 FF F7 4E FF 
   1512      4458.900 DT 022A025A Rx 0  
   1513      4459.500 DT 0515025B Rx 8  30 76 99 F8 F8 01 01 28 
   1514      4459.800 DT 022A025B Rx 0  
   1515      4460.400 DT 0515025C Rx 8  04 D1 00 20 89 F8 F8 01 
   1516      4460.700 DT 022A025C Rx 0  
   1517      4461.300 DT 0515025D Rx 8  00 20 70 82 70 8A 14 28 
   1518      4461.600 DT 022A025D Rx 0  
   1519      4462.200 DT 0515025E Rx 8  13 DA 70 8A 40 1C 70 82 
   1520      4462.500 DT 022A025E Rx 0  
   1521      4463.100 DT 0515025F Rx 8  31 7E B0 7D 09 1A 0A 29 
   1522      4463.400 DT 022A025F Rx 0  
   1523      4464.000 DT 05150260 Rx 8  0B DB 30 8A 40 1C 30 82 
   1524      4464.300 DT 022A0260 Rx 0  
   1525      4464.900 DT 05150261 Rx 8  30 8A 0A 28 05 DB 00 20 
   1526      4465.100 DT 022A0261 Rx 0  
   1527      4465.800 DT 05150262 Rx 8  30 82 30 7E B0 75 B0 7D 
   1528      4466.000 DT 022A0262 Rx 0  
   1529      4466.600 DT 05150263 Rx 8  70 76 40 F2 D1 70 87 42 
   1530      4466.900 DT 022A0263 Rx 0  
   1531      4467.500 DT 05150264 Rx 8  08 DB 03 20 47 43 64 20 
   1532      4467.800 DT 022A0264 Rx 0  
   1533      4468.400 DT 05150265 Rx 8  97 FB F0 F0 D0 F1 96 00 
   1534      4468.700 DT 022A0265 Rx 0  
   1535      4469.300 DT 05150266 Rx 8  B0 81 19 E0 B7 F5 7A 70 
   1536      4469.600 DT 022A0266 Rx 0  
   1537      4470.200 DT 05150267 Rx 8  40 F2 E9 31 88 42 08 D2 
   1538      4470.500 DT 022A0267 Rx 0  
   1539      4471.100 DT 05150268 Rx 8  05 20 47 43 64 20 97 FB 
   1540      4471.400 DT 022A0268 Rx 0  
   1541      4472.000 DT 05150269 Rx 8  F0 F0 D0 F5 87 70 B0 81 
   1542      4472.300 DT 022A0269 Rx 0  
   1543      4472.900 DT 0515026A Rx 8  0A E0 B7 F5 7A 7F 07 DA 
   1544      4473.200 DT 022A026A Rx 0  
   1545      4473.800 DT 0515026B Rx 8  24 20 47 43 64 20 97 FB 
   1546      4474.000 DT 022A026B Rx 0  
   1547      4474.700 DT 0515026C Rx 8  F0 F0 D0 F5 07 70 B0 81 
   1548      4474.900 DT 022A026C Rx 0  
   1549      4475.500 DT 0515026D Rx 8  31 7E B0 7D 08 1A 01 00 
   1550      4475.800 DT 022A026D Rx 0  
   1551      4476.400 DT 0515026E Rx 8  09 B2 05 29 06 DB B1 89 
   1552      4476.700 DT 022A026E Rx 0  
   1553      4477.300 DT 0515026F Rx 8  4F F4 00 50 41 43 09 13 
   1554      4477.600 DT 022A026F Rx 0  
   1555      4478.200 DT 05150270 Rx 8  B1 81 30 E0 00 B2 10 F1 
   1556      4478.500 DT 022A0270 Rx 0  
   1557      4479.100 DT 05150271 Rx 8  04 0F 06 DA B1 89 4F F4 
   1558      4479.400 DT 022A0271 Rx 0  
   1559      4480.000 DT 05150272 Rx 8  00 60 41 43 09 13 B1 81 
   1560      4480.300 DT 022A0272 Rx 0  
   1561      4480.900 DT 05150273 Rx 8  25 E0 70 7E 15 38 05 28 
   1562      4481.200 DT 022A0273 Rx 0  
   1563      4481.800 DT 05150274 Rx 8  06 D2 B1 89 40 F6 CC 40 
   1564      4482.100 DT 022A0274 Rx 0  
   1565      4482.700 DT 05150275 Rx 8  41 43 09 13 B1 81 1A E0 
   1566      4483.000 DT 022A0275 Rx 0  
   1567      4483.600 DT 05150276 Rx 8  70 7E 0B 38 0A 28 06 D2 
   1568      4483.900 DT 022A0276 Rx 0  
   1569      4484.500 DT 05150277 Rx 8  B1 89 4F F4 00 60 41 43 
   1570      4484.700 DT 022A0277 Rx 0  
   1571      4485.400 DT 05150278 Rx 8  09 13 B1 81 0F E0 70 7E 
   1572      4485.600 DT 022A0278 Rx 0  
   1573      4486.300 DT 05150279 Rx 8  0B 28 06 DA B1 89 40 F2 
   1574      4486.500 DT 022A0279 Rx 0  
   1575      4487.100 DT 0515027A Rx 8  CC 40 41 43 09 13 B1 81 
   1576      4487.400 DT 022A027A Rx 0  
   1577      4488.000 DT 0515027B Rx 8  05 E0 B1 89 4F F4 80 50 
   1578      4488.300 DT 022A027B Rx 0  
   1579      4488.900 DT 0515027C Rx 8  41 43 09 13 B1 81 B1 89 
   1580      4489.200 DT 022A027C Rx 0  
   1581      4489.800 DT 0515027D Rx 8  D5 F8 9C 00 41 43 09 13 
   1582      4490.100 DT 022A027D Rx 0  
   1583      4490.700 DT 0515027E Rx 8  B1 81 B0 7D 31 7E 88 42 
   1584      4490.900 DT 022A027E Rx 0  
   1585      4491.500 DT 0515027F Rx 8  10 D3 30 89 41 1C 31 81 
   1586      4491.800 DT 022A027F Rx 0  
   1587      4492.400 DT 05150280 Rx 8  B1 89 80 B2 88 42 09 D3 
   1588      4492.700 DT 022A0280 Rx 0  
   1589      4493.400 DT 05150281 Rx 8  00 20 30 81 B0 7D 00 28 
   1590      4508.800 DT 022A0281 Rx 0  
   1591      4509.400 DT 05150282 Rx 8  02 D0 B0 7D 40 1E B0 75 
   1592      4509.700 DT 022A0282 Rx 0  
   1593      4510.400 DT 05150283 Rx 8  B0 7D 70 76 71 7E E0 69 
   1594      4510.600 DT 022A0283 Rx 0  
   1595      4511.300 DT 05150284 Rx 8  03 F0 33 F9 BD E8 F1 83 
   1596      4511.500 DT 022A0284 Rx 0  
   1597      4512.200 DT 05150285 Rx 8  C2 6F 92 F8 00 02 00 28 
   1598      4512.400 DT 022A0285 Rx 0  
   1599      4513.000 DT 05150286 Rx 8  11 D0 B2 F8 02 02 43 1C 
   1600      4513.300 DT 022A0286 Rx 0  
   1601      4513.900 DT 05150287 Rx 8  A2 F8 02 32 80 B2 89 B2 
   1602      4514.200 DT 022A0287 Rx 0  
   1603      4514.800 DT 05150288 Rx 8  88 42 08 D3 00 20 A2 F8 
   1604      4515.100 DT 022A0288 Rx 0  
   1605      4515.700 DT 05150289 Rx 8  02 02 00 20 82 F8 FF 01 
   1606      4516.000 DT 022A0289 Rx 0  
   1607      4516.600 DT 0515028A Rx 8  01 20 82 F8 01 02 92 F8 
   1608      4516.900 DT 022A028A Rx 0  
   1609      4517.500 DT 0515028B Rx 8  01 02 00 28 03 D0 01 20 
   1610      4517.800 DT 022A028B Rx 0  
   1611      4518.500 DT 0515028C Rx 8  82 F8 FE 01 02 E0 00 20 
   1612      4518.700 DT 022A028C Rx 0  
   1613      4519.400 DT 0515028D Rx 8  82 F8 FE 01 70 47 C2 6F 
   1614      4519.600 DT 022A028D Rx 0  
   1615      4520.300 DT 0515028E Rx 8  92 F8 FA 01 00 28 11 D0 
   1616      4520.500 DT 022A028E Rx 0  
   1617      4521.100 DT 0515028F Rx 8  B2 F8 FC 01 43 1C A2 F8 
   1618      4521.400 DT 022A028F Rx 0  
   1619      4522.000 DT 05150290 Rx 8  FC 31 80 B2 89 B2 88 42 
   1620      4522.300 DT 022A0290 Rx 0  
   1621      4522.900 DT 05150291 Rx 8  08 D3 00 20 A2 F8 FC 01 
   1622      4523.200 DT 022A0291 Rx 0  
   1623      4523.800 DT 05150292 Rx 8  00 20 82 F8 F9 01 01 20 
   1624      4524.100 DT 022A0292 Rx 0  
   1625      4524.700 DT 05150293 Rx 8  82 F8 FB 01 92 F8 FB 01 
   1626      4525.000 DT 022A0293 Rx 0  
   1627      4525.600 DT 05150294 Rx 8  00 28 03 D0 01 20 82 F8 
   1628      4525.900 DT 022A0294 Rx 0  
   1629      4526.500 DT 05150295 Rx 8  F8 01 02 E0 00 20 82 F8 
   1630      4526.800 DT 022A0295 Rx 0  
   1631      4527.500 DT 05150296 Rx 8  F8 01 70 47 C2 6F 92 F8 
   1632      4527.700 DT 022A0296 Rx 0  
   1633      4528.400 DT 05150297 Rx 8  F4 01 00 28 11 D0 B2 F8 
   1634      4528.700 DT 022A0297 Rx 0  
   1635      4529.300 DT 05150298 Rx 8  F6 01 43 1C A2 F8 F6 31 
   1636      4529.600 DT 022A0298 Rx 0  
   1637      4530.200 DT 05150299 Rx 8  80 B2 89 B2 88 42 08 D3 
   1638      4530.400 DT 022A0299 Rx 0  
   1639      4531.100 DT 0515029A Rx 8  00 20 A2 F8 F6 01 00 20 
   1640      4531.400 DT 022A029A Rx 0  
   1641      4532.000 DT 0515029B Rx 8  82 F8 F3 01 01 20 82 F8 
   1642      4532.300 DT 022A029B Rx 0  
   1643      4532.900 DT 0515029C Rx 8  F5 01 92 F8 F5 01 00 28 
   1644      4533.100 DT 022A029C Rx 0  
   1645      4533.800 DT 0515029D Rx 8  03 D0 01 20 82 F8 F2 01 
   1646      4534.000 DT 022A029D Rx 0  
   1647      4534.700 DT 0515029E Rx 8  02 E0 00 20 82 F8 F2 01 
   1648      4535.000 DT 022A029E Rx 0  
   1649      4535.600 DT 0515029F Rx 8  70 47 C0 6F 90 F8 F2 01 
   1650      4535.900 DT 022A029F Rx 0  
   1651      4536.500 DT 051502A0 Rx 8  70 47 C0 6F 90 F8 FE 01 
   1652      4536.800 DT 022A02A0 Rx 0  
   1653      4537.400 DT 051502A1 Rx 8  70 47 C0 6F 90 F8 F8 01 
   1654      4537.700 DT 022A02A1 Rx 0  
   1655      4538.300 DT 051502A2 Rx 8  70 47 38 B5 10 F1 3C 04 
   1656      4538.600 DT 022A02A2 Rx 0  
   1657      4539.200 DT 051502A3 Rx 8  20 69 03 F0 51 FA 05 00 
   1658      4539.500 DT 022A02A3 Rx 0  
   1659      4540.100 DT 051502A4 Rx 8  20 69 03 F0 47 FA C0 88 
   1660      4540.400 DT 022A02A4 Rx 0  
   1661      4541.000 DT 051502A5 Rx 8  45 43 4F F4 7A 70 B5 FB 
   1662      4541.300 DT 022A02A5 Rx 0  
   1663      4541.800 DT 051502A6 Rx 8  F0 F0 10 F1 01 0F 00 D1 
   1664      4542.100 DT 022A02A6 Rx 0  
   1665      4542.700 DT 051502A7 Rx 8  00 20 32 BD 2D E9 FE 4F 
   1666      4543.000 DT 022A02A7 Rx 0  
   1667      4543.600 DT 051502A8 Rx 8  04 00 14 F1 3C 05 E6 6F 
   1668      4543.900 DT 022A02A8 Rx 0  
   1669      4544.500 DT 051502A9 Rx 8  16 F5 31 77 16 F5 04 78 
   1670      4544.800 DT 022A02A9 Rx 0  
   1671      4545.400 DT 051502AA Rx 8  E8 69 03 F0 0F F8 A9 68 
   1672      4545.700 DT 022A02AA Rx 0  
   1673      4546.300 DT 051502AB Rx 8  01 A8 02 F0 C9 FF A8 68 
   1674      4546.600 DT 022A02AB Rx 0  
   1675      4547.200 DT 051502AC Rx 8  02 F0 C2 FF 81 46 68 6A 
   1676      4547.500 DT 022A02AC Rx 0  
   1677      4548.100 DT 051502AD Rx 8  03 F0 7B FA 86 F8 A4 05 
   1678      4548.400 DT 022A02AD Rx 0  
   1679      4549.000 DT 051502AE Rx 8  C9 F3 80 30 00 28 05 D0 
   1680      4549.300 DT 022A02AE Rx 0  
   1681      4549.900 DT 051502AF Rx 8  A8 6A 03 F0 91 FA AD F8 
   1682      4550.200 DT 022A02AF Rx 0  
   1683      4550.800 DT 051502B0 Rx 8  00 00 03 E0 B6 F8 02 03 
   1684      4551.100 DT 022A02B0 Rx 0  
   1685      4551.700 DT 051502B1 Rx 8  AD F8 00 00 96 F8 F9 01 
   1686      4552.000 DT 022A02B1 Rx 0  
   1687      4552.600 DT 051502B2 Rx 8  00 28 0C D0 01 20 86 F8 
   1688      4552.900 DT 022A02B2 Rx 0  
   1689      4553.500 DT 051502B3 Rx 8  F8 01 E8 69 03 F0 78 F8 
   1690      4553.800 DT 022A02B3 Rx 0  
   1691      4554.400 DT 051502B4 Rx 8  87 F8 29 00 97 F8 29 00 
   1692      4554.700 DT 022A02B4 Rx 0  
   1693      4555.300 DT 051502B5 Rx 8  87 F8 26 00 02 E0 20 00 
   1694      4555.600 DT 022A02B5 Rx 0  
   1695      4556.200 DT 051502B6 Rx 8  FF F7 71 FE 20 00 FF F7 
   1696      4556.500 DT 022A02B6 Rx 0  
   1697      4557.100 DT 051502B7 Rx 8  AC FF 0A 21 B0 FB F1 FA 
   1698      4557.400 DT 022A02B7 Rx 0  
   1699      4558.000 DT 051502B8 Rx 8  D6 F8 AC B5 64 20 00 FB 
   1700      4558.300 DT 022A02B8 Rx 0  
   1701      4558.900 DT 051502B9 Rx 8  0B FB 96 F8 A4 05 00 28 
   1702      4559.200 DT 022A02B9 Rx 0  
   1703      4559.800 DT 051502BA Rx 8  03 D0 96 F8 A4 05 06 28 
   1704      4560.100 DT 022A02BA Rx 0  
   1705      4560.700 DT 051502BB Rx 8  01 D1 4F F6 FF 7B 0A 21 
   1706      4561.000 DT 022A02BB Rx 0  
   1707      4561.600 DT 051502BC Rx 8  20 00 FF F7 21 FF 14 21 
   1708      4561.900 DT 022A02BC Rx 0  
   1709      4562.500 DT 051502BD Rx 8  20 00 FF F7 40 FF 4B 21 
   1710      4562.800 DT 022A02BD Rx 0  
   1711      4563.400 DT 051502BE Rx 8  20 00 FF F7 5F FF C9 F3 
   1712      4563.700 DT 022A02BE Rx 0  
   1713      4564.300 DT 051502BF Rx 8  00 10 00 28 06 D0 96 F8 
   1714      4564.600 DT 022A02BF Rx 0  
   1715      4565.200 DT 051502C0 Rx 8  F9 01 00 28 02 D1 00 20 
   1716      4565.500 DT 022A02C0 Rx 0  
   1717      4566.100 DT 051502C1 Rx 8  87 F8 29 00 01 98 C0 F3 
   1718      4566.400 DT 022A02C1 Rx 0  
   1719      4567.000 DT 051502C2 Rx 8  C0 50 00 28 0E D0 01 98 
   1720      4567.300 DT 022A02C2 Rx 0  
   1721      4567.900 DT 051502C3 Rx 8  30 F4 00 00 01 90 20 00 
   1722      4568.200 DT 022A02C3 Rx 0  
   1723      4568.800 DT 051502C4 Rx 8  FF F7 A8 FD 87 F8 29 00 
   1724      4569.100 DT 022A02C4 Rx 0  
   1725      4569.700 DT 051502C5 Rx 8  01 9A D2 43 01 99 A8 68 
   1726      4570.000 DT 022A02C5 Rx 0  
   1727      4570.600 DT 051502C6 Rx 8  02 F0 3A FF 97 F8 29 00 
   1728      4570.900 DT 022A02C6 Rx 0  
   1729      4571.500 DT 051502C7 Rx 8  00 28 18 D1 C9 F3 00 10 
   1730      4571.800 DT 022A02C7 Rx 0  
   1731      4572.400 DT 051502C8 Rx 8  00 28 07 D1 96 F8 F9 01 
   1732      4572.700 DT 022A02C8 Rx 0  
   1733      4573.300 DT 051502C9 Rx 8  00 28 03 D1 01 20 87 F8 
   1734      4573.600 DT 022A02C9 Rx 0  
   1735      4574.200 DT 051502CA Rx 8  29 00 1C E0 96 F8 F9 01 
   1736      4574.500 DT 022A02CA Rx 0  
   1737      4575.100 DT 051502CB Rx 8  00 28 18 D0 59 F0 10 09 
   1738      4575.400 DT 022A02CB Rx 0  
   1739      4576.000 DT 051502CC Rx 8  7F EA 09 02 49 46 A8 68 
   1740      4576.300 DT 022A02CC Rx 0  
   1741      4577.000 DT 051502CD Rx 8  02 F0 13 FF 0F E0 C9 F3 
   1742      4577.200 DT 022A02CD Rx 0  
   1743      4577.900 DT 051502CE Rx 8  00 10 00 28 0B D0 96 F8 
   1744      4578.100 DT 022A02CE Rx 0  
   1745      4578.800 DT 051502CF Rx 8  F9 01 00 28 07 D0 39 F0 
   1746      4579.000 DT 022A02CF Rx 0  
   1747      4579.700 DT 051502D0 Rx 8  10 09 7F EA 09 02 49 46 
   1748      4580.000 DT 022A02D0 Rx 0  
   1749      4580.500 DT 051502D1 Rx 8  A8 68 02 F0 02 FF 02 20 
   1750      4580.800 DT 022A02D1 Rx 0  
   1751      4581.400 DT 051502D2 Rx 8  D8 F8 04 10 60 F3 1C 61 
   1752      4581.700 DT 022A02D2 Rx 0  
   1753      4582.300 DT 051502D3 Rx 8  C8 F8 04 10 D8 F8 04 00 
   1754      4582.600 DT 022A02D3 Rx 0  
   1755      4583.200 DT 051502D4 Rx 8  50 F4 78 00 C8 F8 04 00 
   1756      4583.500 DT 022A02D4 Rx 0  
   1757      4584.100 DT 051502D5 Rx 8  D8 F8 04 00 30 F4 E0 20 
   1758      4584.400 DT 022A02D5 Rx 0  
   1759      4585.000 DT 051502D6 Rx 8  C8 F8 04 00 32 20 D8 F8 
   1760      4585.300 DT 022A02D6 Rx 0  
   1761      4586.000 DT 051502D7 Rx 8  04 10 60 F3 0F 21 C8 F8 
   1762      4586.200 DT 022A02D7 Rx 0  
   1763      4586.900 DT 051502D8 Rx 8  04 10 D8 F8 04 00 00 0A 
   1764      4587.200 DT 022A02D8 Rx 0  
   1765      4587.800 DT 051502D9 Rx 8  00 02 C8 F8 04 00 01 20 
   1766      4588.100 DT 022A02D9 Rx 0  
   1767      4588.700 DT 051502DA Rx 8  88 F8 08 00 00 20 88 F8 
   1768      4589.000 DT 022A02DA Rx 0  
   1769      4589.600 DT 051502DB Rx 8  09 00 08 20 88 F8 0A 00 
   1770      4589.900 DT 022A02DB Rx 0  
   1771      4590.500 DT 051502DC Rx 8  97 F8 29 00 88 F8 0B 00 
   1772      4590.700 DT 022A02DC Rx 0  
   1773      4591.300 DT 051502DD Rx 8  88 F8 0C A0 5F EA 1A 2A 
   1774      4591.600 DT 022A02DD Rx 0  
   1775      4592.200 DT 051502DE Rx 8  88 F8 0D A0 BD F8 00 00 
   1776      4592.500 DT 022A02DE Rx 0  
   1777      4593.200 DT 051502DF Rx 8  88 F8 0E 00 B6 F8 F8 02 
   1778      4593.400 DT 022A02DF Rx 0  
   1779      4594.100 DT 051502E0 Rx 8  88 F8 0F 00 B6 F8 F8 02 
   1780      4594.400 DT 022A02E0 Rx 0  
   1781      4595.000 DT 051502E1 Rx 8  80 B2 00 0A 88 F8 10 00 
   1782      4595.300 DT 022A02E1 Rx 0  
   1783      4595.900 DT 051502E2 Rx 8  88 F8 11 B0 5F EA 1B 2B 
   1784      4596.200 DT 022A02E2 Rx 0  
   1785      4596.800 DT 051502E3 Rx 8  88 F8 12 B0 B6 F8 B6 05 
   1786      4597.100 DT 022A02E3 Rx 0  
   1787      4597.700 DT 051502E4 Rx 8  41 1C A6 F8 B6 15 80 B2 
   1788      4598.000 DT 022A02E4 Rx 0  
   1789      4598.600 DT 051502E5 Rx 8  05 28 07 DB 00 20 A6 F8 
   1790      4598.900 DT 022A02E5 Rx 0  
   1791      4599.400 DT 051502E6 Rx 8  B6 05 41 46 DF F8 E8 0C 
   1792      4599.700 DT 022A02E6 Rx 0  
   1793      4600.300 DT 051502E7 Rx 8  FF F7 9C FB BD E8 F7 8F 
   1794      4600.600 DT 022A02E7 Rx 0  
   1795      4601.200 DT 051502E8 Rx 8  B5 6D 00 00 83 6E 00 00 
   1796      4601.500 DT 022A02E8 Rx 0  
   1797      4602.100 DT 051502E9 Rx 8  2B 6E 00 00 2D E9 F8 4F 
   1798      4602.400 DT 022A02E9 Rx 0  
   1799      4603.000 DT 051502EA Rx 8  2D ED 02 8B 83 46 1B F1 
   1800      4603.300 DT 022A02EA Rx 0  
   1801      4603.900 DT 051502EB Rx 8  3C 08 DB F8 7C 40 D8 F8 
   1802      4604.200 DT 022A02EB Rx 0  
   1803      4604.800 DT 051502EC Rx 8  08 00 02 F0 B1 FE 05 00 
   1804      4605.100 DT 022A02EC Rx 0  
   1805      4605.800 DT 051502ED Rx 8  D8 F8 24 00 03 F0 79 F9 
   1806      4606.000 DT 022A02ED Rx 0  
   1807      4606.700 DT 051502EE Rx 8  82 46 D8 F8 1C 00 02 F0 
   1808      4606.900 DT 022A02EE Rx 0  
   1809      4607.600 DT 051502EF Rx 8  8E FF 06 00 D8 F8 20 00 
   1810      4607.900 DT 022A02EF Rx 0  
   1811      4608.500 DT 051502F0 Rx 8  03 F0 32 F8 07 00 D8 F8 
   1812      4608.800 DT 022A02F0 Rx 0  
   1813      4609.400 DT 051502F1 Rx 8  1C 00 02 F0 81 FF 81 46 
   1814      4609.700 DT 022A02F1 Rx 0  
   1815      4610.300 DT 051502F2 Rx 8  DF F8 90 8C 58 46 FF F7 
   1816      4610.500 DT 022A02F2 Rx 0  
   1817      4611.200 DT 051502F3 Rx 8  BC FE C8 F8 00 00 70 88 
   1818      4611.400 DT 022A02F3 Rx 0  
   1819      4612.100 DT 051502F4 Rx 8  64 28 29 DB 94 F8 F9 01 
   1820      4612.300 DT 022A02F4 Rx 0  
   1821      4613.000 DT 051502F5 Rx 8  01 28 25 D1 DF F8 78 0C 
   1822      4613.200 DT 022A02F5 Rx 0  
   1823      4613.900 DT 051502F6 Rx 8  01 88 33 29 20 DA 01 88 
   1824      4614.100 DT 022A02F6 Rx 0  
   1825      4614.800 DT 051502F7 Rx 8  49 1C 01 80 00 20 DF F8 
   1826      4615.100 DT 022A02F7 Rx 0  
   1827      4615.700 DT 051502F8 Rx 8  6C 1C 08 80 7D 20 DF F8 
   1828      4616.000 DT 022A02F8 Rx 0  
   1829      4616.600 DT 051502F9 Rx 8  68 1C 08 60 70 88 03 F0 
   1830      4616.900 DT 022A02F9 Rx 0  
   1831      4617.500 DT 051502FA Rx 8  7B F9 00 22 DF F8 5C 3C 
   1832      4617.800 DT 022A02FA Rx 0  
   1833      4618.400 DT 051502FB Rx 8  03 F0 84 F9 00 22 DF F8 
   1834      4618.700 DT 022A02FB Rx 0  
   1835      4619.300 DT 051502FC Rx 8  58 3C 03 F0 A3 FA 03 F0 
   1836      4619.600 DT 022A02FC Rx 0  
   1837      4620.200 DT 051502FD Rx 8  73 FB 50 21 48 43 00 13 
   1838      4620.500 DT 022A02FD Rx 0  
   1839      4621.100 DT 051502FE Rx 8  DF F8 48 1C 08 80 3B E0 
   1840      4621.400 DT 022A02FE Rx 0  
   1841      4622.000 DT 051502FF Rx 8  94 F8 F9 01 00 28 33 D1 
   1842      4622.300 DT 022A02FF Rx 0  
   1843      4622.900 DT 05150300 Rx 8  DF F8 28 0C 01 88 40 F2 
   1844      4623.200 DT 022A0300 Rx 0  
   1845      4623.900 DT 05150301 Rx 8  2D 12 91 42 2C DA 01 88 
   1846      4633.000 DT 022A0301 Rx 0  
   1847      4633.700 DT 05150302 Rx 8  49 1C 01 80 00 20 DF F8 
   1848      4633.900 DT 022A0302 Rx 0  
   1849      4634.600 DT 05150303 Rx 8  10 1C 08 80 7D 20 DF F8 
   1850      4634.900 DT 022A0303 Rx 0  
   1851      4635.500 DT 05150304 Rx 8  10 1C 08 60 DF F8 18 0C 
   1852      4635.800 DT 022A0304 Rx 0  
   1853      4636.400 DT 05150305 Rx 8  01 88 4A 1C 02 80 89 B2 
   1854      4636.700 DT 022A0305 Rx 0  
   1855      4637.300 DT 05150306 Rx 8  C8 29 15 DB 94 F8 ED 02 
   1856      4637.500 DT 022A0306 Rx 0  
   1857      4638.200 DT 05150307 Rx 8  03 F0 46 F9 00 22 DF F8 
   1858      4638.400 DT 022A0307 Rx 0  
   1859      4639.100 DT 05150308 Rx 8  04 3C 03 F0 4F F9 00 22 
   1860      4639.400 DT 022A0308 Rx 0  
   1861      4640.000 DT 05150309 Rx 8  DF F8 EC 3B 03 F0 6E FA 
   1862      4640.200 DT 022A0309 Rx 0  
   1863      4640.900 DT 0515030A Rx 8  03 F0 3E FB 50 21 48 43 
   1864      4641.100 DT 022A030A Rx 0  
   1865      4641.800 DT 0515030B Rx 8  00 13 DF F8 E0 1B 08 80 
   1866      4642.000 DT 022A030B Rx 0  
   1867      4642.700 DT 0515030C Rx 8  42 F2 10 70 30 80 03 E0 
   1868      4643.000 DT 022A030C Rx 0  
   1869      4643.600 DT 0515030D Rx 8  00 20 DF F8 D4 1B 08 80 
   1870      4643.900 DT 022A030D Rx 0  
   1871      4644.500 DT 0515030E Rx 8  5F FA 8A FA BA F1 01 0F 
   1872      4644.800 DT 022A030E Rx 0  
   1873      4645.400 DT 0515030F Rx 8  09 D0 4D D3 BA F1 03 0F 
   1874      4645.700 DT 022A030F Rx 0  
   1875      4646.300 DT 05150310 Rx 8  20 D0 12 D3 BA F1 05 0F 
   1876      4646.600 DT 022A0310 Rx 0  
   1877      4647.100 DT 05150311 Rx 8  38 D0 29 D3 44 E0 4F F4 
   1878      4647.400 DT 022A0311 Rx 0  
   1879      4648.000 DT 05150312 Rx 8  80 50 C4 F8 A8 05 DF F8 
   1880      4648.300 DT 022A0312 Rx 0  
   1881      4648.900 DT 05150313 Rx 8  A4 0B 01 88 4F F4 80 50 
   1882      4649.200 DT 022A0313 Rx 0  
   1883      4649.800 DT 05150314 Rx 8  41 43 09 13 C4 F8 AC 15 
   1884      4650.100 DT 022A0314 Rx 0  
   1885      4650.700 DT 05150315 Rx 8  43 E0 40 F6 99 50 C4 F8 
   1886      4651.000 DT 022A0315 Rx 0  
   1887      4651.600 DT 05150316 Rx 8  A8 05 DF F8 88 1B 09 88 
   1888      4651.900 DT 022A0316 Rx 0  
   1889      4652.500 DT 05150317 Rx 8  00 FB 01 F0 00 13 C4 F8 
   1890      4652.800 DT 022A0317 Rx 0  
   1891      4653.400 DT 05150318 Rx 8  AC 05 36 E0 40 F6 CC 40 
   1892      4653.700 DT 022A0318 Rx 0  
   1893      4654.300 DT 05150319 Rx 8  C4 F8 A8 05 DF F8 6C 0B 
   1894      4654.600 DT 022A0319 Rx 0  
   1895      4655.200 DT 0515031A Rx 8  01 88 40 F6 66 20 41 43 
   1896      4655.500 DT 022A031A Rx 0  
   1897      4656.100 DT 0515031B Rx 8  09 13 C4 F8 AC 15 28 E0 
   1898      4656.400 DT 022A031B Rx 0  
   1899      4657.000 DT 0515031C Rx 8  4F F4 40 60 C4 F8 A8 05 
   1900      4657.300 DT 022A031C Rx 0  
   1901      4657.900 DT 0515031D Rx 8  DF F8 50 0B 01 88 40 F2 
   1902      4658.200 DT 022A031D Rx 0  
   1903      4658.800 DT 0515031E Rx 8  33 70 41 43 09 13 C4 F8 
   1904      4659.100 DT 022A031E Rx 0  
   1905      4659.700 DT 0515031F Rx 8  AC 15 1A E0 40 F6 66 20 
   1906      4659.900 DT 022A031F Rx 0  
   1907      4660.600 DT 05150320 Rx 8  C4 F8 A8 05 DF F8 34 0B 
   1908      4660.900 DT 022A0320 Rx 0  
   1909      4661.500 DT 05150321 Rx 8  01 88 40 F2 99 50 41 43 
   1910      4661.700 DT 022A0321 Rx 0  
   1911      4662.300 DT 05150322 Rx 8  09 13 C4 F8 AC 15 0C E0 
   1912      4662.600 DT 022A0322 Rx 0  
   1913      4663.200 DT 05150323 Rx 8  4F F4 80 50 C4 F8 A8 05 
   1914      4663.500 DT 022A0323 Rx 0  
   1915      4664.200 DT 05150324 Rx 8  DF F8 18 0B 01 88 4F F4 
   1916      4664.400 DT 022A0324 Rx 0  
   1917      4665.000 DT 05150325 Rx 8  80 50 41 43 09 13 C4 F8 
   1918      4665.300 DT 022A0325 Rx 0  
   1919      4665.900 DT 05150326 Rx 8  AC 15 B7 F5 96 7F 09 DB 
   1920      4666.200 DT 022A0326 Rx 0  
   1921      4666.800 DT 05150327 Rx 8  D4 F8 A8 05 47 43 3F 13 
   1922      4667.100 DT 022A0327 Rx 0  
   1923      4667.700 DT 05150328 Rx 8  40 F2 2D 10 87 42 01 DA 
   1924      4668.000 DT 022A0328 Rx 0  
   1925      4668.600 DT 05150329 Rx 8  4F F4 96 77 C9 2F 00 DA 
   1926      4668.900 DT 022A0329 Rx 0  
   1927      4669.500 DT 0515032A Rx 8  C8 27 28 00 C0 B2 0A 28 
   1928      4669.800 DT 022A032A Rx 0  
   1929      4670.400 DT 0515032B Rx 8  07 D0 28 00 C0 B2 0B 28 
   1930      4670.700 DT 022A032B Rx 0  
   1931      4671.300 DT 0515032C Rx 8  03 D0 ED B2 0C 2D 40 F0 
   1932      4671.600 DT 022A032C Rx 0  
   1933      4672.200 DT 0515032D Rx 8  BE 80 DF F8 34 1D D8 F8 
   1934      4672.500 DT 022A032D Rx 0  
   1935      4673.000 DT 0515032E Rx 8  00 20 08 68 12 1A B2 F5 
   1936      4673.300 DT 022A032E Rx 0  
   1937      4673.900 DT 0515032F Rx 8  FA 7F 6C D3 D8 F8 00 00 
   1938      4674.200 DT 022A032F Rx 0  
   1939      4674.800 DT 05150330 Rx 8  08 60 DF F8 80 5D 28 68 
   1940      4675.100 DT 022A0330 Rx 0  
   1941      4675.700 DT 05150331 Rx 8  00 28 00 F0 BD 80 DF F8 
   1942      4676.000 DT 022A0331 Rx 0  
   1943      4676.600 DT 05150332 Rx 8  A0 7A 38 68 33 28 01 DA 
   1944      4676.900 DT 022A0332 Rx 0  
   1945      4677.500 DT 05150333 Rx 8  32 20 38 60 DF F8 04 1D 
   1946      4677.800 DT 022A0333 Rx 0  
   1947      4678.400 DT 05150334 Rx 8  DF F8 64 8D D8 F8 00 20 
   1948      4678.700 DT 022A0334 Rx 0  
   1949      4679.300 DT 05150335 Rx 8  0A 20 42 43 28 68 B2 FB 
   1950      4679.600 DT 022A0335 Rx 0  
   1951      4680.200 DT 05150336 Rx 8  F0 F0 08 60 9F ED A6 8B 
   1952      4680.500 DT 022A0336 Rx 0  
   1953      4681.100 DT 05150337 Rx 8  D1 F8 00 A0 28 68 03 F0 
   1954      4681.400 DT 022A0337 Rx 0  
   1955      4682.000 DT 05150338 Rx 8  83 F8 00 22 DF F8 7C 3A 
   1956      4682.300 DT 022A0338 Rx 0  
   1957      4682.900 DT 05150339 Rx 8  03 F0 8C F8 53 EC 18 2B 
   1958      4683.200 DT 022A0339 Rx 0  
   1959      4683.800 DT 0515033A Rx 8  03 F0 AC F9 03 F0 7C FA 
   1960      4684.100 DT 022A033A Rx 0  
   1961      4684.700 DT 0515033B Rx 8  40 00 00 13 00 FB 0A F0 
   1962      4685.000 DT 022A033B Rx 0  
   1963      4685.600 DT 0515033C Rx 8  4F F4 61 61 90 FB F1 F1 
   1964      4685.900 DT 022A033C Rx 0  
   1965      4686.500 DT 0515033D Rx 8  3A 68 38 68 09 1A 40 F2 
   1966      4686.800 DT 022A033D Rx 0  
   1967      4687.400 DT 0515033E Rx 8  06 50 41 43 12 EB 21 32 
   1968      4687.700 DT 022A033E Rx 0  
   1969      4688.300 DT 0515033F Rx 8  3A 60 00 20 C8 F8 00 00 
   1970      4688.600 DT 022A033F Rx 0  
   1971      4689.200 DT 05150340 Rx 8  00 20 28 60 70 88 64 28 
   1972      4689.500 DT 022A0340 Rx 0  
   1973      4690.100 DT 05150341 Rx 8  0B DB 94 F8 F9 01 01 28 
   1974      4690.400 DT 022A0341 Rx 0  
   1975      4691.000 DT 05150342 Rx 8  07 D1 70 88 39 68 90 FB 
   1976      4691.300 DT 022A0342 Rx 0  
   1977      4691.900 DT 05150343 Rx 8  F1 F0 DF F8 20 1A 08 80 
   1978      4692.200 DT 022A0343 Rx 0  
   1979      4692.800 DT 05150344 Rx 8  27 E0 35 88 48 46 C0 B2 
   1980      4693.100 DT 022A0344 Rx 0  
   1981      4693.700 DT 05150345 Rx 8  03 F0 4E F8 00 22 DF F8 
   1982      4694.000 DT 022A0345 Rx 0  
   1983      4694.600 DT 05150346 Rx 8  14 3A 03 F0 57 F8 53 EC 
   1984      4694.900 DT 022A0346 Rx 0  
   1985      4695.600 DT 05150347 Rx 8  18 2B 03 F0 77 F9 03 F0 
   1986      4695.800 DT 022A0347 Rx 0  
   1987      4696.500 DT 05150348 Rx 8  47 FA 00 FB 05 F0 00 13 
   1988      4696.800 DT 022A0348 Rx 0  
   1989      4697.400 DT 05150349 Rx 8  39 68 90 FB F1 F0 DF F8 
   1990      4697.700 DT 022A0349 Rx 0  
   1991      4698.300 DT 0515034A Rx 8  EC 19 08 80 0D E0 DF F8 
   1992      4698.600 DT 022A034A Rx 0  
   1993      4699.200 DT 0515034B Rx 8  AC 0C 01 68 11 F1 01 0F 
   1994      4699.500 DT 022A034B Rx 0  
   1995      4700.100 DT 0515034C Rx 8  07 D0 01 68 49 1C 01 60 
   1996      4700.400 DT 022A034C Rx 0  
   1997      4701.000 DT 0515034D Rx 8  DF F8 9C 0C 01 68 7F 18 
   1998      4701.300 DT 022A034D Rx 0  
   1999      4701.800 DT 0515034E Rx 8  07 60 DF F8 54 0D 01 88 
   2000      4702.100 DT 022A034E Rx 0  
   2001      4702.700 DT 0515034F Rx 8  4A 46 D2 B2 92 B2 91 42 
   2002      4703.000 DT 022A034F Rx 0  
   2003      4703.600 DT 05150350 Rx 8  42 D0 49 46 C9 B2 01 80 
   2004      4703.900 DT 022A0350 Rx 0  
   2005      4704.500 DT 05150351 Rx 8  DF F8 A4 59 28 68 01 28 
   2006      4704.800 DT 022A0351 Rx 0  
   2007      4705.400 DT 05150352 Rx 8  3A DB 70 88 64 28 0B DB 
   2008      4705.700 DT 022A0352 Rx 0  
   2009      4706.300 DT 05150353 Rx 8  94 F8 F9 01 01 28 07 D1 
   2010      4706.600 DT 022A0353 Rx 0  
   2011      4707.200 DT 05150354 Rx 8  70 88 29 68 90 FB F1 F0 
   2012      4707.500 DT 022A0354 Rx 0  
   2013      4708.100 DT 05150355 Rx 8  DF F8 90 19 08 80 2B E0 
   2014      4708.400 DT 022A0355 Rx 0  
   2015      4709.000 DT 05150356 Rx 8  34 88 5F FA 89 F9 48 46 
   2016      4709.300 DT 022A0356 Rx 0  
   2017      4709.900 DT 05150357 Rx 8  03 F0 06 F8 00 22 DF F8 
   2018      4710.200 DT 022A0357 Rx 0  
   2019      4710.800 DT 05150358 Rx 8  84 39 03 F0 0F F8 00 22 
   2020      4711.100 DT 022A0358 Rx 0  
   2021      4711.700 DT 05150359 Rx 8  DF F8 6C 39 03 F0 2E F9 
   2022      4712.000 DT 022A0359 Rx 0  
   2023      4712.600 DT 0515035A Rx 8  03 F0 FE F9 44 43 24 13 
   2024      4712.900 DT 022A035A Rx 0  
   2025      4713.500 DT 0515035B Rx 8  28 68 94 FB F0 F0 DF F8 
   2026      4713.800 DT 022A035B Rx 0  
   2027      4714.400 DT 0515035C Rx 8  5C 19 08 80 10 E0 00 20 
   2028      4714.700 DT 022A035C Rx 0  
   2029      4715.300 DT 0515035D Rx 8  DF F8 1C 1C 08 60 00 20 
   2030      4715.600 DT 022A035D Rx 0  
   2031      4716.200 DT 0515035E Rx 8  DF F8 10 1C 08 60 D8 F8 
   2032      4716.500 DT 022A035E Rx 0  
   2033      4717.100 DT 0515035F Rx 8  00 00 DF F8 A4 1B 08 60 
   2034      4717.400 DT 022A035F Rx 0  
   2035      4718.100 DT 05150360 Rx 8  7D 20 DF F8 2C 19 08 60 
   2036      4718.300 DT 022A0360 Rx 0  
   2037      4718.900 DT 05150361 Rx 8  BD EC 02 8B BD E8 F1 8F 
   2038      4719.200 DT 022A0361 Rx 0  
   2039      4719.800 DT 05150362 Rx 8  10 B5 10 F1 3C 01 C4 6F 
   2040      4720.100 DT 022A0362 Rx 0  
   2041      4720.700 DT 05150363 Rx 8  48 6A 02 F0 B4 FF 00 28 
   2042      4721.000 DT 022A0363 Rx 0  
   2043      4721.600 DT 05150364 Rx 8  23 D0 B4 F8 F8 12 4F F4 
   2044      4721.900 DT 022A0364 Rx 0  
   2045      4722.500 DT 05150365 Rx 8  80 50 41 43 4F F4 7A 70 
   2046      4722.800 DT 022A0365 Rx 0  
   2047      4723.400 DT 05150366 Rx 8  91 FB F0 F1 4F F4 00 60 
   2048      4723.600 DT 022A0366 Rx 0  
   2049      4724.200 DT 05150367 Rx 8  41 43 09 13 40 F2 33 10 
   2050      4724.500 DT 022A0367 Rx 0  
   2051      4725.100 DT 05150368 Rx 8  41 43 09 13 D4 F8 FC 02 
   2052      4725.400 DT 022A0368 Rx 0  
   2053      4726.000 DT 05150369 Rx 8  09 18 C4 F8 FC 12 D4 F8 
   2054      4726.300 DT 022A0369 Rx 0  
   2055      4726.900 DT 0515036A Rx 8  FC 02 B0 F5 80 5F 03 D2 
   2056      4727.200 DT 022A036A Rx 0  
   2057      4727.800 DT 0515036B Rx 8  00 20 A4 F8 00 03 04 E0 
   2058      4728.100 DT 022A036B Rx 0  
   2059      4728.700 DT 0515036C Rx 8  D4 F8 FC 02 C0 12 A4 F8 
   2060      4729.000 DT 022A036C Rx 0  
   2061      4729.600 DT 0515036D Rx 8  00 03 B4 F8 00 03 10 BD 
   2062      4729.900 DT 022A036D Rx 0  
   2063      4730.500 DT 0515036E Rx 8  2D E9 FE 43 10 F1 3C 04 
   2064      4730.800 DT 022A036E Rx 0  
   2065      4731.400 DT 0515036F Rx 8  C7 6F A0 68 02 F0 A4 FC 
   2066      4731.700 DT 022A036F Rx 0  
   2067      4732.300 DT 05150370 Rx 8  05 00 A0 68 02 F0 B0 FC 
   2068      4732.600 DT 022A0370 Rx 0  
   2069      4733.200 DT 05150371 Rx 8  06 00 A1 68 68 46 02 F0 
   2070      4733.500 DT 022A0371 Rx 0  
   2071      4734.100 DT 05150372 Rx 8  AF FC 17 F5 04 77 20 69 
   2072      4734.400 DT 022A0372 Rx 0  
   2073      4735.000 DT 05150373 Rx 8  02 F0 E3 FE 0A 21 10 FB 
   2074      4735.300 DT 022A0373 Rx 0  
   2075      4735.900 DT 05150374 Rx 8  01 F8 20 6A 02 F0 20 FE 
   2076      4736.200 DT 022A0374 Rx 0  
   2077      4736.700 DT 05150375 Rx 8  81 46 E0 69 02 F0 E4 FC 
   2078      4737.000 DT 022A0375 Rx 0  
   2079      4737.600 DT 05150376 Rx 8  01 00 B9 F1 01 00 4F F6 
   2080      4737.900 DT 022A0376 Rx 0  
   2081      4738.500 DT 05150377 Rx 8  E7 52 90 42 02 D2 ED B2 
   2082      4738.800 DT 022A0377 Rx 0  
   2083      4739.400 DT 05150378 Rx 8  00 2D 01 D1 5F F0 00 09 
   2084      4739.700 DT 022A0378 Rx 0  
   2085      4740.300 DT 05150379 Rx 8  C6 F3 00 10 00 28 00 D0 
   2086      4740.600 DT 022A0379 Rx 0  
   2087      4741.300 DT 0515037A Rx 8  00 21 02 20 7A 68 60 F3 
   2088      4741.600 DT 022A037A Rx 0  
   2089      4742.200 DT 0515037B Rx 8  1C 62 7A 60 78 68 50 F4 
   2090      4742.400 DT 022A037B Rx 0  
   2091      4743.100 DT 0515037C Rx 8  78 00 78 60 78 68 30 F4 
   2092      4743.300 DT 022A037C Rx 0  
   2093      4743.900 DT 0515037D Rx 8  E0 20 78 60 32 20 7A 68 
   2094      4744.200 DT 022A037D Rx 0  
   2095      4744.800 DT 0515037E Rx 8  60 F3 0F 22 7A 60 01 20 
   2096      4745.100 DT 022A037E Rx 0  
   2097      4745.800 DT 0515037F Rx 8  7A 68 60 F3 07 02 7A 60 
   2098      4746.000 DT 022A037F Rx 0  
   2099      4746.600 DT 05150380 Rx 8  01 20 38 72 00 20 78 72 
   2100      4746.900 DT 022A0380 Rx 0  
   2101      4747.500 DT 05150381 Rx 8  08 20 B8 72 87 F8 0B 80 
   2102      4763.000 DT 022A0381 Rx 0  
   2103      4763.600 DT 05150382 Rx 8  1F FA 88 F8 5F EA 18 28 
   2104      4763.900 DT 022A0382 Rx 0  
   2105      4764.500 DT 05150383 Rx 8  87 F8 0C 80 87 F8 0D 90 
   2106      4764.800 DT 022A0383 Rx 0  
   2107      4765.400 DT 05150384 Rx 8  5F EA 29 29 87 F8 0E 90 
   2108      4765.700 DT 022A0384 Rx 0  
   2109      4766.300 DT 05150385 Rx 8  F9 73 09 12 39 74 E0 6A 
   2110      4766.600 DT 022A0385 Rx 0  
   2111      4767.300 DT 05150386 Rx 8  03 F0 8C F9 28 30 78 74 
   2112      4767.600 DT 022A0386 Rx 0  
   2113      4768.200 DT 05150387 Rx 8  20 6B 03 F0 87 F9 28 30 
   2114      4768.400 DT 022A0387 Rx 0  
   2115      4769.000 DT 05150388 Rx 8  B8 74 39 00 DF F8 D8 07 
   2116      4769.300 DT 022A0388 Rx 0  
   2117      4769.900 DT 05150389 Rx 8  FF F7 14 F9 BD E8 F7 83 
   2118      4770.200 DT 022A0389 Rx 0  
   2119      4770.800 DT 0515038A Rx 8  00 00 00 00 00 00 B0 40 
   2120      4771.100 DT 022A038A Rx 0  
   2121      4771.700 DT 0515038B Rx 8  3E B5 10 F1 3C 05 C0 6F 
   2122      4772.000 DT 022A038B Rx 0  
   2123      4772.600 DT 0515038C Rx 8  10 F5 1D 74 A8 68 02 F0 
   2124      4772.900 DT 022A038C Rx 0  
   2125      4773.500 DT 0515038D Rx 8  3F FC 28 69 02 F0 A2 FE 
   2126      4773.800 DT 022A038D Rx 0  
   2127      4774.400 DT 0515038E Rx 8  81 88 0A 22 91 FB F2 F3 
   2128      4774.700 DT 022A038E Rx 0  
   2129      4775.300 DT 0515038F Rx 8  02 FB 13 11 AD F8 00 10 
   2130      4775.600 DT 022A038F Rx 0  
   2131      4776.200 DT 05150390 Rx 8  69 46 82 88 0A 23 92 FB 
   2132      4776.500 DT 022A0390 Rx 0  
   2133      4777.100 DT 05150391 Rx 8  F3 F2 4A 80 4A 88 BD F8 
   2134      4777.300 DT 022A0391 Rx 0  
   2135      4778.000 DT 05150392 Rx 8  00 30 53 EA 02 13 8B 80 
   2136      4778.200 DT 022A0392 Rx 0  
   2137      4778.800 DT 05150393 Rx 8  02 22 63 68 62 F3 1C 63 
   2138      4779.100 DT 022A0393 Rx 0  
   2139      4779.700 DT 05150394 Rx 8  63 60 62 68 52 F4 78 02 
   2140      4780.000 DT 022A0394 Rx 0  
   2141      4780.600 DT 05150395 Rx 8  62 60 62 68 32 F4 E0 22 
   2142      4780.900 DT 022A0395 Rx 0  
   2143      4781.500 DT 05150396 Rx 8  62 60 32 22 63 68 62 F3 
   2144      4781.800 DT 022A0396 Rx 0  
   2145      4782.400 DT 05150397 Rx 8  0F 23 63 60 03 22 63 68 
   2146      4782.700 DT 022A0397 Rx 0  
   2147      4783.300 DT 05150398 Rx 8  62 F3 07 03 63 60 01 22 
   2148      4783.600 DT 022A0398 Rx 0  
   2149      4784.200 DT 05150399 Rx 8  22 72 00 22 62 72 06 22 
   2150      4784.400 DT 022A0399 Rx 0  
   2151      4785.000 DT 0515039A Rx 8  A2 72 0A 22 43 89 53 43 
   2152      4785.300 DT 022A039A Rx 0  
   2153      4785.900 DT 0515039B Rx 8  E3 72 43 89 02 FB 03 F2 
   2154      4786.200 DT 022A039B Rx 0  
   2155      4786.800 DT 0515039C Rx 8  12 12 22 73 8A 88 62 73 
   2156      4787.100 DT 022A039C Rx 0  
   2157      4787.700 DT 0515039D Rx 8  49 88 89 B2 09 09 A1 73 
   2158      4787.900 DT 022A039D Rx 0  
   2159      4788.500 DT 0515039E Rx 8  C1 88 E1 73 C0 88 80 B2 
   2160      4788.800 DT 022A039E Rx 0  
   2161      4789.400 DT 0515039F Rx 8  00 0A 20 74 21 00 DF F8 
   2162      4789.700 DT 022A039F Rx 0  
   2163      4790.400 DT 051503A0 Rx 8  20 07 FF F7 B7 F8 37 BD 
   2164      4790.600 DT 022A03A0 Rx 0  
   2165      4791.200 DT 051503A1 Rx 8  1C B5 10 F1 3C 01 C4 6F 
   2166      4791.500 DT 022A03A1 Rx 0  
   2167      4792.100 DT 051503A2 Rx 8  89 68 68 46 02 F0 EC FB 
   2168      4792.400 DT 022A03A2 Rx 0  
   2169      4793.000 DT 051503A3 Rx 8  00 98 C0 F3 00 50 00 28 
   2170      4793.300 DT 022A03A3 Rx 0  
   2171      4793.900 DT 051503A4 Rx 8  24 D0 14 F5 22 71 02 20 
   2172      4794.200 DT 022A03A4 Rx 0  
   2173      4794.800 DT 051503A5 Rx 8  4A 68 60 F3 1C 62 4A 60 
   2174      4795.000 DT 022A03A5 Rx 0  
   2175      4795.600 DT 051503A6 Rx 8  48 68 50 F4 78 00 48 60 
   2176      4795.900 DT 022A03A6 Rx 0  
   2177      4796.500 DT 051503A7 Rx 8  48 68 30 F4 E0 20 48 60 
   2178      4796.800 DT 022A03A7 Rx 0  
   2179      4797.400 DT 051503A8 Rx 8  32 20 4A 68 60 F3 0F 22 
   2180      4797.700 DT 022A03A8 Rx 0  
   2181      4798.300 DT 051503A9 Rx 8  4A 60 04 20 4A 68 60 F3 
   2182      4798.600 DT 022A03A9 Rx 0  
   2183      4799.200 DT 051503AA Rx 8  07 02 4A 60 01 20 08 72 
   2184      4799.500 DT 022A03AA Rx 0  
   2185      4800.100 DT 051503AB Rx 8  00 20 48 72 01 20 88 72 
   2186      4800.400 DT 022A03AB Rx 0  
   2187      4801.000 DT 051503AC Rx 8  00 20 C8 72 DF F8 B8 06 
   2188      4801.300 DT 022A03AC Rx 0  
   2189      4801.900 DT 051503AD Rx 8  FF F7 84 F8 13 BD 10 B5 
   2190      4802.100 DT 022A03AD Rx 0  
   2191      4802.700 DT 051503AE Rx 8  C4 6F FF F7 CD FE 14 F5 
   2192      4803.000 DT 022A03AE Rx 0  
