;$FILEVERSION=1.1
;$STARTTIME=44405.5880105671
;
;   Start time: 28/07/2021 14:06:44.113.0
;   Generated by PCAN-View v4.3.4.615
;
;   Message Number
;   |         Time Offset (ms)
;   |         |        Type
;   |         |        |        ID (hex)
;   |         |        |        |     Data Length
;   |         |        |        |     |   Data Bytes (hex) ...
;   |         |        |        |     |   |
;---+--   ----+----  --+--  ----+---  +  -+ -- -- -- -- -- -- --
     1)       881.8  Warng  FFFFFFFF  4  00 00 00 08  BUSHEAVY 
     2)      2408.3  Error      0004  4  01 02 7F 00
     3)      2408.4  Rx     05192000  4  81 49 03 00 
     4)      2439.2  Rx     05FF3005  1  00 
     7)      3973.0  Rx     032A0281  0  
     8)      3973.6  Rx     051D0282  8  00 23 01 22 62 49 05 A8 
     9)      3973.9  Rx     032A0282  0  
    10)      3974.5  Rx     051D0283  8  FF F7 B6 FC 0E B0 10 BD 
    11)      3974.8  Rx     032A0283  0  
    12)      3975.4  Rx     051D0284  8  00 EB 42 00 8B A1 03 8B 
    13)      3975.7  Rx     032A0284  0  
    14)      3976.3  Rx     051D0285  8  05 A8 0D 3A E5 E7 2D E9 
    15)      3976.6  Rx     032A0285  0  
    16)      3977.2  Rx     051D0286  8  F0 4F 95 B0 80 46 20 21 
    17)      3977.5  Rx     032A0286  0  
    18)      3978.1  Rx     051D0287  8  0D A8 0F F0 8A FD 20 21 
    19)      3978.4  Rx     032A0287  0  
    20)      3979.0  Rx     051D0288  8  05 A8 0F F0 86 FD FE F7 
    21)      3979.3  Rx     032A0288  0  
    22)      3979.9  Rx     051D0289  8  60 FF 0D A9 40 46 FF F7 
    23)      3980.2  Rx     032A0289  0  
    24)      3980.8  Rx     051D028A  8  9D FE 5D 49 4F F4 5C 70 
    25)      3981.1  Rx     032A028A  0  
    26)      3981.7  Rx     051D028B  8  4F F4 84 62 0B 5C 43 F0 
    27)      3981.9  Rx     032A028B  0  
    28)      3982.6  Rx     051D028C  8  80 03 0B 54 40 1C 80 B2 
    29)      3982.9  Rx     032A028C  0  
    30)      3983.4  Rx     051D028D  8  90 42 F7 D3 46 24 7C 48 
    31)      3983.7  Rx     032A028D  0  
    32)      3984.3  Rx     051D028E  8  03 25 18 27 B0 26 0D F1 
    33)      3984.6  Rx     032A028E  0  
    34)      3985.2  Rx     051D028F  8  34 0A 4F F0 14 09 B8 F1 
    35)      3985.5  Rx     032A028F  0  
    36)      3986.1  Rx     051D0290  8  09 0F 04 D0 04 DC B8 F1 
    37)      3986.4  Rx     032A0290  0  
    38)      3987.0  Rx     051D0291  8  08 0F 02 D2 EA E0 2F E1 
    39)      3987.3  Rx     032A0291  0  
    40)      3987.9  Rx     051D0292  8  EE E0 69 E1 24 86 01 08 
    41)      3988.2  Rx     032A0292  0  
    42)      3988.8  Rx     051D0293  8  6C 8C 01 08 8C 6E 01 08 
    43)      3989.1  Rx     032A0293  0  
    44)      3989.7  Rx     051D0294  8  2D 20 55 6E 69 74 00 00 
    45)      3990.0  Rx     032A0294  0  
    46)      3990.6  Rx     051D0295  8  2D 20 41 75 74 6F 20 4F 
    47)      3990.9  Rx     032A0295  0  
    48)      3991.5  Rx     051D0296  8  66 66 00 00 2D 20 42 72 
    49)      3991.8  Rx     032A0296  0  
    50)      3992.4  Rx     051D0297  8  69 67 68 74 6E 65 73 73 
    51)      3992.7  Rx     032A0297  0  
    52)      3993.3  Rx     051D0298  8  00 00 00 00 2D 20 50 6F 
    53)      3993.6  Rx     032A0298  0  
    54)      3994.2  Rx     051D0299  8  77 65 72 20 56 69 65 77 
    55)      3994.4  Rx     032A0299  0  
    56)      3995.1  Rx     051D029A  8  00 00 00 00 2D 20 41 6C 
    57)      3995.4  Rx     032A029A  0  
    58)      3996.0  Rx     051D029B  8  20 53 65 6E 73 69 74 69 
    59)      3996.2  Rx     032A029B  0  
    60)      3996.9  Rx     051D029C  8  76 69 74 79 00 00 00 00 
    61)      3997.2  Rx     032A029C  0  
    62)      3997.8  Rx     051D029D  8  2D 20 54 72 69 70 20 52 
    63)      3998.1  Rx     032A029D  0  
    64)      3998.7  Rx     051D029E  8  65 73 65 74 00 00 00 00 
    65)      3999.0  Rx     032A029E  0  
    66)      3999.6  Rx     051D029F  8  2D 20 56 69 62 72 61 74 
    67)      3999.8  Rx     032A029F  0  
    68)      4000.5  Rx     051D02A0  8  69 6F 6E 00 2D 20 53 65 
    69)      4000.7  Rx     032A02A0  0  
    70)      4001.4  Rx     051D02A1  8  72 76 69 63 65 00 00 00 
    71)      4001.6  Rx     032A02A1  0  
    72)      4002.2  Rx     051D02A2  8  2D 20 41 73 73 69 73 74 
    73)      4002.5  Rx     032A02A2  0  
    74)      4003.1  Rx     051D02A3  8  20 4D 6F 64 65 00 00 00 
    75)      4003.4  Rx     032A02A3  0  
    76)      4004.0  Rx     051D02A4  8  2D 20 57 68 65 65 6C 20 
    77)      4004.3  Rx     032A02A4  0  
    78)      4004.9  Rx     051D02A5  8  53 69 7A 65 00 00 00 00 
    79)      4005.2  Rx     032A02A5  0  
    80)      4005.8  Rx     051D02A6  8  2D 20 53 70 65 65 64 20 
    81)      4006.1  Rx     032A02A6  0  
    82)      4006.7  Rx     051D02A7  8  4C 69 6D 69 74 00 00 00 
    83)      4007.0  Rx     032A02A7  0  
    84)      4007.6  Rx     051D02A8  8  2D 20 42 61 74 74 65 72 
    85)      4007.9  Rx     032A02A8  0  
    86)      4008.5  Rx     051D02A9  8  79 20 49 6E 66 6F 00 00 
    87)      4008.8  Rx     032A02A9  0  
    88)      4009.4  Rx     051D02AA  8  2D 20 45 72 72 6F 72 20 
    89)      4009.7  Rx     032A02AA  0  
    90)      4010.3  Rx     051D02AB  8  43 6F 64 65 00 00 00 00 
    91)      4010.6  Rx     032A02AB  0  
    92)      4011.2  Rx     051D02AC  8  2D 20 43 6F 6E 74 72 6F 
    93)      4011.5  Rx     032A02AC  0  
    94)      4012.1  Rx     051D02AD  8  6C 6C 65 72 20 49 6E 66 
    95)      4012.4  Rx     032A02AD  0  
    96)      4013.0  Rx     051D02AE  8  6F 00 00 00 2D 20 44 69 
    97)      4013.3  Rx     032A02AE  0  
    98)      4013.9  Rx     051D02AF  8  73 70 6C 61 79 20 49 6E 
    99)      4014.2  Rx     032A02AF  0  
   100)      4014.8  Rx     051D02B0  8  66 6F 00 00 2D 20 54 6F 
   101)      4015.1  Rx     032A02B0  0  
   102)      4015.7  Rx     051D02B1  8  72 71 75 65 20 49 6E 66 
   103)      4016.0  Rx     032A02B1  0  
   104)      4016.6  Rx     051D02B2  8  6F 00 00 00 2D 20 42 61 
   105)      4016.9  Rx     032A02B2  0  
   106)      4017.5  Rx     051D02B3  8  63 6B 00 00 00 00 00 20 
   107)      4017.8  Rx     032A02B3  0  
   108)      4018.4  Rx     051D02B4  8  9C 00 00 20 2D 20 53 65 
   109)      4018.6  Rx     032A02B4  0  
   110)      4019.2  Rx     051D02B5  8  74 74 69 6E 67 00 00 00 
   111)      4019.5  Rx     032A02B5  0  
   112)      4020.0  Rx     051D02B6  8  2D 20 49 6E 66 6F 72 6D 
   113)      4020.3  Rx     032A02B6  0  
   114)      4020.9  Rx     051D02B7  8  61 74 69 6F 6E 00 00 00 
   115)      4021.2  Rx     032A02B7  0  
   116)      4021.8  Rx     051D02B8  8  2D 20 45 78 69 74 00 00 
   117)      4022.1  Rx     032A02B8  0  
   118)      4022.8  Rx     051D02B9  8  34 03 00 20 78 00 00 20 
   119)      4032.8  Rx     032A02B9  0  
   120)      4033.4  Rx     051D02BA  8  8A 00 00 20 6C 12 00 20 
   121)      4033.7  Rx     032A02BA  0  
   122)      4034.3  Rx     051D02BB  8  2D 2D 00 00 62 25 30 32 
   123)      4034.6  Rx     032A02BB  0  
   124)      4035.2  Rx     051D02BC  8  64 20 20 20 25 64 20 02 
   125)      4035.5  Rx     032A02BC  0  
   126)      4036.1  Rx     051D02BD  8  00 00 00 00 62 25 30 32 
   127)      4036.4  Rx     032A02BD  0  
   128)      4037.0  Rx     051D02BE  8  64 20 20 20 25 64 6D 56 
   129)      4037.3  Rx     032A02BE  0  
   130)      4038.0  Rx     051D02BF  8  00 00 00 00 62 25 30 32 
   131)      4038.2  Rx     032A02BF  0  
   132)      4038.9  Rx     051D02C0  8  64 20 20 20 25 64 6D 41 
   133)      4039.1  Rx     032A02C0  0  
   134)      4039.8  Rx     051D02C1  8  00 00 00 00 62 25 30 32 
   135)      4040.1  Rx     032A02C1  0  
   136)      4040.7  Rx     051D02C2  8  64 20 20 20 25 64 6D 41 
   137)      4040.9  Rx     032A02C2  0  
   138)      4041.5  Rx     051D02C3  8  68 00 00 00 62 25 30 32 
   139)      4041.8  Rx     032A02C3  0  
   140)      4042.4  Rx     051D02C4  8  64 20 20 20 25 64 20 25 
   141)      4042.7  Rx     032A02C4  0  
   142)      4043.3  Rx     051D02C5  8  25 00 00 00 62 25 30 32 
   143)      4043.6  Rx     032A02C5  0  
   144)      4044.2  Rx     051D02C6  8  64 20 20 20 25 64 00 00 
   145)      4044.5  Rx     032A02C6  0  
   146)      4045.1  Rx     051D02C7  8  62 25 30 32 64 20 20 20 
   147)      4045.4  Rx     032A02C7  0  
   148)      4046.1  Rx     051D02C8  8  25 64 20 68 00 00 00 00 
   149)      4046.3  Rx     032A02C8  0  
   150)      4046.9  Rx     051D02C9  8  64 25 30 32 64 20 20 20 
   151)      4047.2  Rx     032A02C9  0  
   152)      4047.8  Rx     051D02CA  8  25 64 00 00 64 25 30 32 
   153)      4048.1  Rx     032A02CA  0  
   154)      4048.8  Rx     051D02CB  8  64 20 25 64 6D 56 00 00 
   155)      4049.0  Rx     032A02CB  0  
   156)      4049.7  Rx     051D02CC  8  4C 13 00 20 DF E8 08 F0 
   157)      4050.0  Rx     032A02CC  0  
   158)      4050.5  Rx     051D02CD  8  12 1E 25 28 31 39 3B 40 
   159)      4050.8  Rx     032A02CD  0  
   160)      4051.4  Rx     051D02CE  8  DF F8 F8 B3 FE 49 A8 F1 
   161)      4051.7  Rx     032A02CE  0  
   162)      4052.3  Rx     051D02CF  8  32 08 B8 F1 07 0F 73 D2 
   163)      4052.6  Rx     032A02CF  0  
   164)      4053.2  Rx     051D02D0  8  DF E8 08 F0 38 59 79 FD 
   165)      4053.5  Rx     032A02D0  0  
   166)      4054.1  Rx     051D02D1  8  C5 A6 E0 00 80 78 10 B1 
   167)      4054.4  Rx     032A02D1  0  
   168)      4055.0  Rx     051D02D2  8  01 28 02 D0 3F E0 F7 A1 
   169)      4055.3  Rx     032A02D2  0  
   170)      4055.9  Rx     051D02D3  8  00 E0 F8 A1 05 A8 0F F0 
   171)      4056.2  Rx     032A02D3  0  
   172)      4056.8  Rx     051D02D4  8  77 FC 38 E0 02 79 B2 B1 
   173)      4057.1  Rx     032A02D4  0  
   174)      4057.7  Rx     051D02D5  8  12 E0 05 A8 10 F0 2C F8 
   175)      4058.0  Rx     032A02D5  0  
   176)      4058.6  Rx     051D02D6  8  31 E0 02 78 F4 A1 F8 E7 
   177)      4058.9  Rx     032A02D6  0  
   178)      4059.5  Rx     051D02D7  8  C0 79 10 B1 01 28 02 D0 
   179)      4059.8  Rx     032A02D7  0  
   180)      4060.4  Rx     051D02D8  8  29 E0 F3 A1 EA E7 F4 A1 
   181)      4060.7  Rx     032A02D8  0  
   182)      4061.3  Rx     051D02D9  8  E8 E7 C2 78 06 2A 02 D2 
   183)      4061.6  Rx     032A02D9  0  
   184)      4062.2  Rx     051D02DA  8  AF F2 A0 01 E9 E7 F2 A1 
   185)      4062.5  Rx     032A02DA  0  
   186)      4063.1  Rx     051D02DB  8  E0 E7 40 78 00 E0 80 79 
   187)      4063.4  Rx     032A02DB  0  
   188)      4064.0  Rx     051D02DC  8  01 28 03 D0 EF A1 D9 E7 
   189)      4064.3  Rx     032A02DC  0  
   190)      4064.9  Rx     051D02DD  8  40 79 F9 E7 EE A1 D5 E7 
   191)      4065.1  Rx     032A02DD  0  
   192)      4065.7  Rx     051D02DE  8  02 7A ED E7 88 8A 4F F4 
   193)      4066.0  Rx     032A02DE  0  
   194)      4066.6  Rx     051D02DF  8  2F 71 B1 EB 10 1F 01 D1 
   195)      4066.9  Rx     032A02DF  0  
   196)      4067.5  Rx     051D02E0  8  EA A1 CB E7 01 07 13 D0 
   197)      4067.8  Rx     032A02E0  0  
   198)      4068.4  Rx     051D02E1  8  00 F0 0F 03 02 09 E9 A1 
   199)      4068.7  Rx     032A02E1  0  
   200)      4069.3  Rx     051D02E2  8  05 A8 0F F0 F9 FF CD E9 
   201)      4069.6  Rx     032A02E2  0  
   202)      4070.2  Rx     051D02E3  8  02 75 CD E9 00 96 00 23 
   203)      4070.5  Rx     032A02E3  0  
   204)      4071.1  Rx     051D02E4  8  01 22 E7 49 0A F1 02 00 
   205)      4071.4  Rx     032A02E4  0  
   206)      4072.0  Rx     051D02E5  8  04 95 FF F7 2D FB CA E0 
   207)      4072.3  Rx     032A02E5  0  
   208)      4072.9  Rx     051D02E6  8  02 09 E4 A1 B9 E7 89 8B 
   209)      4073.2  Rx     032A02E6  0  
   210)      4073.8  Rx     051D02E7  8  A1 F5 7F 42 FF 3A 14 D0 
   211)      4074.1  Rx     032A02E7  0  
   212)      4074.7  Rx     051D02E8  8  82 78 64 20 9A B1 B1 FB 
   213)      4075.0  Rx     032A02E8  0  
   214)      4075.6  Rx     051D02E9  8  F0 F0 0F F0 30 FE DF 4A 
   215)      4075.9  Rx     032A02E9  0  
   216)      4076.5  Rx     051D02EA  8  DF 4B 0F F0 3D FD 00 22 
   217)      4076.8  Rx     032A02EA  0  
   218)      4077.4  Rx     051D02EB  8  DE 4B 0F F0 92 FC 0F F0 
   219)      4077.7  Rx     032A02EB  0  
   220)      4078.3  Rx     051D02EC  8  33 FE 02 46 DC A1 A0 E7 
   221)      4078.6  Rx     032A02EC  0  
   222)      4079.2  Rx     051D02ED  8  B8 E0 DD A1 96 E7 B1 FB 
   223)      4079.5  Rx     032A02ED  0  
   224)      4080.1  Rx     051D02EE  8  F0 F2 DF A1 99 E7 91 F8 
   225)      4080.4  Rx     032A02EE  0  
   226)      4081.0  Rx     051D02EF  8  BE 00 80 28 10 D0 81 28 
   227)      4081.3  Rx     032A02EF  0  
   228)      4081.9  Rx     051D02F0  8  1A D0 CD E9 02 75 CD E9 
   229)      4082.2  Rx     032A02F0  0  
   230)      4082.8  Rx     051D02F1  8  00 96 00 23 01 22 CC 49 
   231)      4083.0  Rx     032A02F1  0  
   232)      4083.7  Rx     051D02F2  8  04 95 0A F1 02 00 FF F7 
   233)      4083.9  Rx     032A02F2  0  
   234)      4084.6  Rx     051D02F3  8  F7 FA FF F7 D5 FD 9D E0 
   235)      4084.8  Rx     032A02F3  0  
   236)      4085.4  Rx     051D02F4  8  D5 A1 50 46 0F F0 F4 FB 
   237)      4085.7  Rx     032A02F4  0  
   238)      4086.4  Rx     051D02F5  8  4F F0 FF 31 DB F8 00 00 
   239)      4086.7  Rx     032A02F5  0  
   240)      4087.3  Rx     051D02F6  8  0B F0 7F FB D4 49 53 E0 
   241)      4087.6  Rx     032A02F6  0  
   242)      4088.2  Rx     051D02F7  8  D4 A1 50 46 0F F0 E8 FB 
   243)      4088.5  Rx     032A02F7  0  
   244)      4089.1  Rx     051D02F8  8  4F F0 FF 31 DB F8 00 00 
   245)      4089.4  Rx     032A02F8  0  
   246)      4090.0  Rx     051D02F9  8  0B F0 73 FB D3 49 47 E0 
   247)      4090.3  Rx     032A02F9  0  
   248)      4090.9  Rx     051D02FA  8  91 F8 BE 00 98 B1 CD A1 
   249)      4091.2  Rx     032A02FA  0  
   250)      4091.8  Rx     051D02FB  8  50 46 0F F0 D9 FB D0 49 
   251)      4092.1  Rx     032A02FB  0  
   252)      4092.7  Rx     051D02FC  8  05 A8 0F F0 D5 FB CD E9 
   253)      4093.0  Rx     032A02FC  0  
   254)      4093.6  Rx     051D02FD  8  02 75 CD E9 00 96 00 23 
   255)      4093.9  Rx     032A02FD  0  
   256)      4094.5  Rx     051D02FE  8  01 22 B3 49 0D A8 04 95 
   257)      4094.8  Rx     032A02FE  0  
   258)      4095.4  Rx     051D02FF  8  FF F7 C6 FA 48 E0 BE A1 
   259)      4095.7  Rx     032A02FF  0  
   260)      4096.3  Rx     051D0300  8  50 46 0F F0 C5 FB C6 49 
   261)      4096.6  Rx     032A0300  0  
   262)      4097.2  Rx     051D0301  8  05 A8 18 31 E9 E7 91 F8 
   263)      4149.4  Rx     032A0301  0  
   264)      4150.1  Rx     051D0302  8  BE 00 58 B1 BD A1 50 46 
   265)      4150.3  Rx     032A0302  0  
   266)      4151.0  Rx     051D0303  8  0F F0 BA FB 4F F0 FF 31 
   267)      4151.3  Rx     032A0303  0  
   268)      4151.9  Rx     051D0304  8  DB F8 00 00 0B F0 45 FB 
   269)      4152.2  Rx     032A0304  0  
   270)      4152.8  Rx     051D0305  8  BE 49 19 E0 B2 A1 50 46 
   271)      4153.1  Rx     032A0305  0  
   272)      4153.7  Rx     051D0306  8  0F F0 AE FB 4F F0 FF 31 
   273)      4154.0  Rx     032A0306  0  
   274)      4154.6  Rx     051D0307  8  DB F8 00 00 0B F0 39 FB 
   275)      4154.9  Rx     032A0307  0  
   276)      4155.5  Rx     051D0308  8  B9 49 0D E0 91 F8 BE 00 
   277)      4155.8  Rx     032A0308  0  
   278)      4156.4  Rx     051D0309  8  60 B3 B0 A1 50 46 0F F0 
   279)      4156.7  Rx     032A0309  0  
   280)      4157.3  Rx     051D030A  8  9F FB 4F F0 FF 31 DB F8 
   281)      4157.6  Rx     032A030A  0  
   282)      4158.2  Rx     051D030B  8  00 00 0B F0 2A FB B3 49 
   283)      4158.5  Rx     032A030B  0  
   284)      4159.1  Rx     051D030C  8  05 A8 0F F0 95 FB DB F8 
   285)      4159.4  Rx     032A030C  0  
   286)      4160.0  Rx     051D030D  8  00 00 0B F0 CA FB CD E9 
   287)      4160.3  Rx     032A030D  0  
   288)      4160.9  Rx     051D030E  8  02 75 00 23 01 22 92 49 
   289)      4161.2  Rx     032A030E  0  
   290)      4161.8  Rx     051D030F  8  0D A8 04 95 00 E0 32 E0 
   291)      4162.1  Rx     032A030F  0  
   292)      4162.7  Rx     051D0310  8  CD E9 00 96 FF F7 80 FA 
   293)      4163.0  Rx     032A0310  0  
   294)      4163.6  Rx     051D0311  8  05 A8 0F F0 6D FB A8 B1 
   295)      4163.9  Rx     032A0311  0  
   296)      4164.5  Rx     051D0312  8  00 20 8D E8 51 00 04 23 
   297)      4164.8  Rx     032A0312  0  
   298)      4165.4  Rx     051D0313  8  01 22 89 49 05 A8 FF F7 
   299)      4165.7  Rx     032A0313  0  
   300)      4166.3  Rx     051D0314  8  2E FC 1B E0 94 A1 50 46 
   301)      4166.6  Rx     032A0314  0  
   302)      4167.2  Rx     051D0315  8  0F F0 72 FB 4F F0 FF 31 
   303)      4167.5  Rx     032A0315  0  
   304)      4168.1  Rx     051D0316  8  DB F8 00 00 0B F0 FD FA 
   305)      4168.4  Rx     032A0316  0  
   306)      4169.0  Rx     051D0317  8  9D 49 D1 E7 AF F2 E8 21 
   307)      4169.2  Rx     032A0317  0  
   308)      4169.9  Rx     051D0318  8  05 A8 0F F0 65 FB CD E9 
   309)      4170.1  Rx     032A0318  0  
   310)      4170.8  Rx     051D0319  8  02 75 CD E9 00 46 00 23 
   311)      4171.0  Rx     032A0319  0  
   312)      4171.6  Rx     051D031A  8  01 22 7B 49 05 A8 04 95 
   313)      4171.9  Rx     032A031A  0  
   314)      4172.5  Rx     051D031B  8  FF F7 56 FA FE F7 1F FE 
   315)      4172.8  Rx     032A031B  0  
   316)      4173.5  Rx     051D031C  8  15 B0 BD E8 F0 8F 91 F8 
   317)      4173.8  Rx     032A031C  0  
   318)      4174.4  Rx     051D031D  8  BE 20 8D 48 91 A1 E4 30 
   319)      4174.7  Rx     032A031D  0  
   320)      4175.3  Rx     051D031E  8  13 56 0D E7 5E 4D 00 24 
   321)      4175.5  Rx     032A031E  0  
   322)      4176.2  Rx     051D031F  8  27 46 85 F8 C0 40 85 F8 
   323)      4176.5  Rx     032A031F  0  
   324)      4177.1  Rx     051D0320  8  C2 40 FF F7 F1 F9 85 F8 
   325)      4177.4  Rx     032A0320  0  
   326)      4177.9  Rx     051D0321  8  8D 70 4F F4 25 62 8E 49 
   327)      4178.2  Rx     032A0321  0  
   328)      4178.8  Rx     051D0322  8  8E 48 0F F0 05 FB FE F7 
   329)      4179.1  Rx     032A0322  0  
   330)      4179.7  Rx     051D0323  8  02 FE 64 20 0D F0 15 FD 
   331)      4180.0  Rx     032A0323  0  
   332)      4180.6  Rx     051D0324  8  8B 4E 01 20 85 F8 8D 00 
   333)      4180.9  Rx     032A0324  0  
   334)      4181.5  Rx     051D0325  8  70 79 8A 49 48 B1 8A 48 
   335)      4181.8  Rx     032A0325  0  
   336)      4182.4  Rx     051D0326  8  8A 4A 00 69 90 42 01 D3 
   337)      4182.7  Rx     032A0326  0  
   338)      4183.3  Rx     051D0327  8  28 20 00 E0 00 20 48 70 
   339)      4183.6  Rx     032A0327  0  
   340)      4184.2  Rx     051D0328  8  00 E0 4F 70 83 4F 7F 1D 
   341)      4184.5  Rx     032A0328  0  
   342)      4185.1  Rx     051D0329  8  64 1C E4 B2 03 2C 06 D1 
   343)      4185.4  Rx     032A0329  0  
   344)      4186.0  Rx     051D032A  8  95 F8 BF 00 00 24 80 F0 
   345)      4186.3  Rx     032A032A  0  
   346)      4187.0  Rx     051D032B  8  01 00 85 F8 BF 00 95 F8 
   347)      4187.2  Rx     032A032B  0  
   348)      4187.8  Rx     051D032C  8  8C 00 40 B1 95 F8 8D 00 
   349)      4188.1  Rx     032A032C  0  
   350)      4188.7  Rx     051D032D  8  01 28 09 D0 02 28 26 D0 
   351)      4198.8  Rx     032A032D  0  
   352)      4199.4  Rx     051D032E  8  03 28 3B D1 29 E0 FE F7 
   353)      4199.7  Rx     032A032E  0  
   354)      4200.3  Rx     051D032F  8  C8 FC FE F7 D0 FD 35 E0 
   355)      4200.6  Rx     032A032F  0  
   356)      4201.2  Rx     051D0330  8  00 20 39 5C 08 29 04 D0 
   357)      4201.5  Rx     032A0330  0  
   358)      4202.1  Rx     051D0331  8  07 29 02 D0 40 1C 08 28 
   359)      4202.4  Rx     032A0331  0  
   360)      4203.0  Rx     051D0332  8  F7 D3 08 28 03 D0 F1 79 
   361)      4203.3  Rx     032A0332  0  
   362)      4203.9  Rx     051D0333  8  61 B1 07 21 39 54 B5 F8 
   363)      4204.2  Rx     032A0333  0  
   364)      4204.8  Rx     051D0334  8  AC 00 48 B1 03 28 07 D0 
   365)      4205.1  Rx     032A0334  0  
   366)      4205.7  Rx     051D0335  8  06 28 05 D0 C0 B2 FF F7 
   367)      4206.0  Rx     032A0335  0  
   368)      4206.6  Rx     051D0336  8  6E FB 1B E0 08 21 F1 E7 
   369)      4206.9  Rx     032A0336  0  
   370)      4207.5  Rx     051D0337  8  FF F7 51 FA 16 E0 2C 48 
   371)      4207.8  Rx     032A0337  0  
   372)      4208.4  Rx     051D0338  8  D0 F8 C0 00 FF F7 27 FC 
   373)      4208.7  Rx     032A0338  0  
   374)      4209.3  Rx     051D0339  8  10 E0 95 F8 C0 00 01 28 
   375)      4209.6  Rx     032A0339  0  
   376)      4210.2  Rx     051D033A  8  02 D0 02 28 04 D0 09 E0 
   377)      4210.5  Rx     032A033A  0  
   378)      4211.1  Rx     051D033B  8  95 F8 C2 00 60 49 02 E0 
   379)      4211.4  Rx     032A033B  0  
   380)      4212.0  Rx     051D033C  8  95 F8 C2 00 5F 49 08 5C 
   381)      4212.3  Rx     032A033C  0  
   382)      4212.9  Rx     051D033D  8  FF F7 21 FD 0A 20 0D F0 
   383)      4213.2  Rx     032A033D  0  
   384)      4213.8  Rx     051D033E  8  AC FC A9 E7 10 B5 2D 20 
   385)      4214.1  Rx     032A033E  0  
   386)      4214.7  Rx     051D033F  8  FE F7 3E FC 20 20 FE F7 
   387)      4215.0  Rx     032A033F  0  
   388)      4215.6  Rx     051D0340  8  3B FC EB 20 FE F7 38 FC 
   389)      4215.9  Rx     032A0340  0  
   390)      4216.5  Rx     051D0341  8  C4 20 FE F7 35 FC A2 20 
   391)      4216.8  Rx     032A0341  0  
   392)      4217.4  Rx     051D0342  8  FE F7 32 FC 84 20 FE F7 
   393)      4217.7  Rx     032A0342  0  
   394)      4218.3  Rx     051D0343  8  2F FC 87 20 FE F7 2C FC 
   395)      4218.6  Rx     032A0343  0  
   396)      4219.2  Rx     051D0344  8  89 20 FE F7 29 FC 95 20 
   397)      4219.5  Rx     032A0344  0  
   398)      4220.1  Rx     051D0345  8  FE F7 26 FC 81 20 FE F7 
   399)      4220.4  Rx     032A0345  0  
   400)      4221.0  Rx     051D0346  8  23 FC 3E 20 FE F7 45 FC 
   401)      4221.3  Rx     032A0346  0  
   402)      4221.9  Rx     051D0347  8  A4 20 FE F7 1D FC C8 20 
   403)      4222.2  Rx     032A0347  0  
   404)      4222.8  Rx     051D0348  8  FE F7 1A FC 00 20 FE F7 
   405)      4223.1  Rx     032A0348  0  
   406)      4223.7  Rx     051D0349  8  3C FC F1 20 FE F7 14 FC 
   407)      4224.0  Rx     032A0349  0  
   408)      4224.6  Rx     051D034A  8  77 20 FE F7 36 FC F2 20 
   409)      4224.9  Rx     032A034A  0  
   410)      4225.5  Rx     051D034B  8  FE F7 0E FC 00 20 FE F7 
   411)      4225.8  Rx     032A034B  0  
   412)      4226.4  Rx     051D034C  8  30 FC F3 20 FE F7 08 FC 
   413)      4226.7  Rx     032A034C  0  
   414)      4227.3  Rx     051D034D  8  77 20 7D E0 CC 00 00 20 
   415)      4227.6  Rx     032A034D  0  
   416)      4228.2  Rx     051D034E  8  6C 12 00 20 4D 65 74 72 
   417)      4228.5  Rx     032A034E  0  
   418)      4229.1  Rx     051D034F  8  69 63 00 00 49 6D 70 65 
   419)      4229.4  Rx     032A034F  0  
   420)      4230.0  Rx     051D0350  8  72 69 61 6C 00 00 00 00 
   421)      4230.3  Rx     032A0350  0  
   422)      4230.9  Rx     051D0351  8  25 64 25 25 00 00 00 00 
   423)      4231.2  Rx     032A0351  0  
   424)      4231.8  Rx     051D0352  8  43 75 72 72 65 6E 74 00 
   425)      4232.1  Rx     032A0352  0  
   426)      4232.7  Rx     051D0353  8  50 6F 77 65 72 00 00 00 
   427)      4233.0  Rx     032A0353  0  
   428)      4233.6  Rx     051D0354  8  4F 46 46 00 4E 4F 00 00 
   429)      4233.9  Rx     032A0354  0  
   430)      4234.5  Rx     051D0355  8  59 45 53 00 37 30 30 43 
   431)      4234.8  Rx     032A0355  0  
   432)      4235.4  Rx     051D0356  8  00 00 00 00 25 64 2E 25 
   433)      4235.7  Rx     032A0356  0  
   434)      4236.3  Rx     051D0357  8  64 20 49 6E 63 68 00 00 
   435)      4236.6  Rx     032A0357  0  
   436)      4237.2  Rx     051D0358  8  9C 00 00 20 25 64 20 49 
   437)      4237.5  Rx     032A0358  0  
   438)      4238.1  Rx     051D0359  8  6E 63 68 00 A1 D9 75 6F 
   439)      4238.4  Rx     032A0359  0  
   440)      4239.0  Rx     051D035A  8  45 E2 E3 3F 00 00 E0 3F 
   441)      4239.3  Rx     032A035A  0  
   442)      4239.9  Rx     051D035B  8  25 64 20 4D 50 48 00 00 
   443)      4240.2  Rx     032A035B  0  
   444)      4240.8  Rx     051D035C  8  4E 6F 20 73 70 65 65 64 
   445)      4241.1  Rx     032A035C  0  
   446)      4241.6  Rx     051D035D  8  20 6C 69 6D 69 74 00 00 
   447)      4241.9  Rx     032A035D  0  
   448)      4242.5  Rx     051D035E  8  25 64 20 6B 6D 2F 68 00 
   449)      4242.8  Rx     032A035E  0  
   450)      4243.4  Rx     051D035F  8  48 61 72 64 77 61 72 65 
   451)      4243.7  Rx     032A035F  0  
   452)      4244.3  Rx     051D0360  8  20 56 65 72 00 00 00 00 
   453)      4244.6  Rx     032A0360  0  
   454)      4245.2  Rx     051D0361  8  0C 12 00 20 53 6F 66 74 
   455)      4245.5  Rx     032A0361  0  
   456)      4246.2  Rx     051D0362  8  77 61 72 65 20 56 65 72 
   457)      4246.4  Rx     032A0362  0  
   458)      4247.1  Rx     051D0363  8  00 00 00 00 2C 12 00 20 
   459)      4247.4  Rx     032A0363  0  
   460)      4248.0  Rx     051D0364  8  5C 13 00 20 6C 11 00 20 
   461)      4248.3  Rx     032A0364  0  
   462)      4248.9  Rx     051D0365  8  4C 11 00 20 CC 11 00 20 
   463)      4249.2  Rx     032A0365  0  
   464)      4249.8  Rx     051D0366  8  AC 11 00 20 45 2D 43 6F 
   465)      4250.1  Rx     032A0366  0  
   466)      4250.7  Rx     051D0367  8  64 65 25 30 32 64 20 20 
   467)      4251.0  Rx     032A0367  0  
   468)      4251.6  Rx     051D0368  8  25 30 32 78 00 00 00 00 
   469)      4251.9  Rx     032A0368  0  
   470)      4252.5  Rx     051D0369  8  3C 64 01 08 34 03 00 20 
   471)      4252.8  Rx     032A0369  0  
   472)      4253.4  Rx     051D036A  8  4C 13 00 20 00 00 00 20 
   473)      4253.7  Rx     032A036A  0  
   474)      4254.3  Rx     051D036B  8  34 13 00 20 20 A1 07 00 
   475)      4254.6  Rx     032A036B  0  
   476)      4255.3  Rx     051D036C  8  78 00 00 20 8A 00 00 20 
   477)      4255.6  Rx     032A036C  0  
   478)      4256.2  Rx     051D036D  8  FE F7 AB FB C9 20 FE F7 
   479)      4256.5  Rx     032A036D  0  
   480)      4257.1  Rx     051D036E  8  83 FB BD E8 10 40 AD 20 
   481)      4257.4  Rx     032A036E  0  
   482)      4257.9  Rx     051D036F  8  FE F7 A3 BB 70 B5 FC 48 
   483)      4258.2  Rx     032A036F  0  
   484)      4258.8  Rx     051D0370  8  01 26 4F F6 FF 75 06 70 
   485)      4259.1  Rx     032A0370  0  
   486)      4259.7  Rx     051D0371  8  45 80 00 24 44 70 32 46 
   487)      4260.0  Rx     032A0371  0  
   488)      4260.6  Rx     051D0372  8  03 21 0F 38 0F F0 D6 F9 
   489)      4260.9  Rx     032A0372  0  
   490)      4261.5  Rx     051D0373  8  F5 48 40 F2 01 11 00 1D 
   491)      4261.8  Rx     032A0373  0  
   492)      4262.4  Rx     051D0374  8  22 46 06 70 45 80 44 70 
   493)      4262.7  Rx     032A0374  0  
   494)      4263.3  Rx     051D0375  8  10 38 01 80 81 70 14 30 
   495)      4263.6  Rx     032A0375  0  
   496)      4264.2  Rx     051D0376  8  03 21 04 70 45 80 44 70 
   497)      4264.5  Rx     032A0376  0  
   498)      4265.1  Rx     051D0377  8  11 38 0F F0 C3 F9 EC 48 
   499)      4265.4  Rx     032A0377  0  
   500)      4266.0  Rx     051D0378  8  01 22 0C 30 03 21 06 70 
   501)      4266.3  Rx     032A0378  0  
   502)      4267.0  Rx     051D0379  8  45 80 44 70 12 38 0F F0 
   503)      4267.2  Rx     032A0379  0  
   504)      4267.8  Rx     051D037A  8  B9 F9 E7 48 01 22 10 30 
   505)      4268.1  Rx     032A037A  0  
   506)      4268.7  Rx     051D037B  8  03 21 06 70 45 80 44 70 
   507)      4269.0  Rx     032A037B  0  
   508)      4269.6  Rx     051D037C  8  13 38 0F F0 AF F9 E2 48 
   509)      4269.9  Rx     032A037C  0  
   510)      4270.5  Rx     051D037D  8  10 38 44 62 70 BD 2D E9 
   511)      4270.8  Rx     032A037D  0  
   512)      4271.4  Rx     051D037E  8  F0 5F DF F8 7C 83 08 F1 
   513)      4271.7  Rx     032A037E  0  
   514)      4272.4  Rx     051D037F  8  0C 06 98 F8 00 00 37 1D 
   515)      4272.6  Rx     032A037F  0  
   516)      4273.2  Rx     051D0380  8  A6 F1 08 0B A6 F1 04 09 
   517)      4273.5  Rx     032A0380  0  
   518)      4274.2  Rx     051D0381  8  01 28 18 D1 9B F8 00 00 
   519)      4326.3  Rx     032A0381  0  
   520)      4327.0  Rx     051D0382  8  01 28 14 D1 99 F8 00 00 
   521)      4327.2  Rx     032A0382  0  
   522)      4327.9  Rx     051D0383  8  01 28 10 D1 30 78 01 28 
   523)      4328.2  Rx     032A0383  0  
   524)      4328.8  Rx     051D0384  8  0D D1 38 78 01 28 0A D1 
   525)      4329.1  Rx     032A0384  0  
   526)      4329.7  Rx     051D0385  8  78 70 89 F8 01 00 8B F8 
   527)      4329.9  Rx     032A0385  0  
   528)      4330.6  Rx     051D0386  8  01 00 88 F8 01 00 71 88 
   529)      4330.9  Rx     032A0386  0  
   530)      4331.5  Rx     051D0387  8  1E 29 00 D3 70 70 CC 4C 
   531)      4331.8  Rx     032A0387  0  
   532)      4332.4  Rx     051D0388  8  4F F4 80 61 0F 3C 20 78 
   533)      4332.7  Rx     032A0388  0  
   534)      4333.3  Rx     051D0389  8  60 70 CA 48 04 F0 E3 FE 
   535)      4333.6  Rx     032A0389  0  
   536)      4334.2  Rx     051D038A  8  00 25 01 28 1A D0 25 70 
   537)      4334.4  Rx     032A038A  0  
   538)      4335.0  Rx     051D038B  8  61 78 20 78 81 42 00 D1 
   539)      4335.3  Rx     032A038B  0  
   540)      4335.9  Rx     051D038C  8  A0 70 A0 78 C2 4C 98 F8 
   541)      4336.2  Rx     032A038C  0  
   542)      4336.8  Rx     051D038D  8  00 20 10 3C DF F8 08 A3 
   543)      4337.1  Rx     032A038D  0  
   544)      4337.7  Rx     051D038E  8  82 42 41 46 33 D1 48 88 
   545)      4338.0  Rx     032A038E  0  
   546)      4338.6  Rx     051D038F  8  A0 F5 7F 43 FF 3B 01 D0 
   547)      4338.9  Rx     032A038F  0  
   548)      4339.5  Rx     051D0390  8  40 1C 48 80 48 78 01 28 
   549)      4339.8  Rx     032A0390  0  
   550)      4340.4  Rx     051D0391  8  03 D0 6E E0 01 20 20 70 
   551)      4340.7  Rx     032A0391  0  
   552)      4341.3  Rx     051D0392  8  E2 E7 1A BB 48 88 C8 28 
   553)      4341.6  Rx     032A0392  0  
   554)      4342.2  Rx     051D0393  8  67 D1 9B F8 00 00 5A 46 
   555)      4342.5  Rx     032A0393  0  
   556)      4343.1  Rx     051D0394  8  01 28 01 D0 58 B1 60 E0 
   557)      4343.4  Rx     032A0394  0  
   558)      4344.0  Rx     051D0395  8  60 6A 40 F4 80 10 60 62 
   559)      4344.3  Rx     032A0395  0  
   560)      4344.9  Rx     051D0396  8  7D 70 75 70 89 F8 01 50 
   561)      4345.2  Rx     032A0396  0  
   562)      4345.8  Rx     051D0397  8  8B F8 01 50 55 E0 50 88 
   563)      4346.1  Rx     032A0397  0  
   564)      4346.7  Rx     051D0398  8  C8 28 52 D3 60 6A 40 F4 
   565)      4347.0  Rx     032A0398  0  
   566)      4347.6  Rx     051D0399  8  00 20 60 62 7D 70 75 70 
   567)      4347.9  Rx     032A0399  0  
   568)      4348.5  Rx     051D039A  8  89 F8 01 50 8B F8 01 50 
   569)      4348.8  Rx     032A039A  0  
   570)      4349.4  Rx     051D039B  8  88 F8 01 50 45 E0 4B 78 
   571)      4349.7  Rx     032A039B  0  
   572)      4350.3  Rx     051D039C  8  01 2B 2C D1 0A B9 01 28 
   573)      4350.6  Rx     032A039C  0  
   574)      4351.2  Rx     051D039D  8  03 D0 9B F8 00 20 42 B1 
   575)      4351.5  Rx     032A039D  0  
   576)      4352.1  Rx     051D039E  8  15 E0 4A 88 BE 2A 22 D2 
   577)      4352.4  Rx     032A039E  0  
   578)      4353.0  Rx     051D039F  8  62 6A 42 F4 80 72 62 62 
   579)      4353.2  Rx     032A039F  0  
   580)      4353.9  Rx     051D03A0  8  1D E0 99 F8 00 20 52 B9 
   581)      4354.2  Rx     032A03A0  0  
   582)      4354.8  Rx     051D03A1  8  62 6A 42 F4 00 12 62 62 
   583)      4364.8  Rx     032A03A1  0  
   584)      4365.4  Rx     051D03A2  8  7D 70 75 70 89 F8 01 50 
   585)      4365.7  Rx     032A03A2  0  
   586)      4366.3  Rx     051D03A3  8  8B F8 01 50 4D 70 9A F8 
   587)      4366.6  Rx     032A03A3  0  
   588)      4367.2  Rx     051D03A4  8  8C 30 52 46 01 2B 0A D1 
   589)      4367.5  Rx     032A03A4  0  
   590)      4368.1  Rx     051D03A5  8  94 4B 9B 79 3B B1 1E 23 
   591)      4368.4  Rx     032A03A5  0  
   592)      4369.0  Rx     051D03A6  8  23 70 92 F8 8E 30 23 F0 
   593)      4369.3  Rx     032A03A6  0  
   594)      4369.9  Rx     051D03A7  8  20 03 8A F8 8E 30 9A F8 
   595)      4370.2  Rx     032A03A7  0  
   596)      4370.8  Rx     051D03A8  8  12 20 53 46 0A B1 83 F8 
   597)      4371.1  Rx     032A03A8  0  
   598)      4371.7  Rx     051D03A9  8  8F 50 93 F8 8E 20 5F EA 
   599)      4371.9  Rx     032A03A9  0  
   600)      4372.5  Rx     051D03AA  8  82 6C 07 D5 22 F0 20 02 
   601)      4372.8  Rx     032A03AA  0  
   602)      4373.4  Rx     051D03AB  8  83 F8 8E 20 02 F0 0F 02 
   603)      4373.7  Rx     032A03AB  0  
   604)      4374.3  Rx     051D03AC  8  8A F8 8F 20 08 70 A8 F8 
   605)      4374.6  Rx     032A03AC  0  
   606)      4375.2  Rx     051D03AD  8  02 50 81 48 0C 38 01 78 
   607)      4375.5  Rx     032A03AD  0  
   608)      4376.1  Rx     051D03AE  8  41 70 4F F4 80 61 82 48 
   609)      4376.4  Rx     032A03AE  0  
   610)      4377.0  Rx     051D03AF  8  04 F0 4D FE 01 28 1A D0 
   611)      4377.3  Rx     032A03AF  0  
   612)      4377.9  Rx     051D03B0  8  7B 48 0C 38 05 70 7A 49 
   613)      4378.2  Rx     032A03B0  0  
   614)      4378.8  Rx     051D03B1  8  0C 39 4A 78 08 78 82 42 
   615)      4379.1  Rx     032A03B1  0  
   616)      4379.7  Rx     051D03B2  8  00 D1 88 70 9B F8 00 20 
   617)      4380.0  Rx     032A03B2  0  
   618)      4380.6  Rx     051D03B3  8  88 78 59 46 82 42 33 D1 
   619)      4380.9  Rx     032A03B3  0  
   620)      4381.5  Rx     051D03B4  8  48 88 A0 F5 7F 43 FF 3B 
   621)      4381.8  Rx     032A03B4  0  
   622)      4382.4  Rx     051D03B5  8  01 D0 40 1C 48 80 48 78 
   623)      4382.7  Rx     032A03B5  0  
   624)      4383.3  Rx     051D03B6  8  01 28 05 D0 6F E0 6E 49 
   625)      4383.6  Rx     032A03B6  0  
   626)      4384.2  Rx     051D03B7  8  01 20 0C 39 08 70 E2 E7 
   627)      4384.5  Rx     032A03B7  0  
   628)      4385.1  Rx     051D03B8  8  0A BB 48 88 C8 28 66 D1 
   629)      4385.3  Rx     032A03B8  0  
   630)      4385.9  Rx     051D03B9  8  98 F8 00 00 42 46 01 28 
   631)      4386.2  Rx     032A03B9  0  
   632)      4386.8  Rx     051D03BA  8  01 D0 48 B1 5F E0 60 6A 
   633)      4387.1  Rx     032A03BA  0  
   634)      4387.8  Rx     051D03BB  8  40 F4 00 30 60 62 7D 70 
   635)      4388.1  Rx     032A03BB  0  
   636)      4388.7  Rx     051D03BC  8  75 70 89 F8 01 50 0C E0 
   637)      4389.0  Rx     032A03BC  0  
   638)      4389.6  Rx     051D03BD  8  50 88 C8 28 53 D3 60 6A 
   639)      4389.8  Rx     032A03BD  0  
   640)      4390.5  Rx     051D03BE  8  40 F4 00 20 60 62 7D 70 
   641)      4390.7  Rx     032A03BE  0  
   642)      4391.4  Rx     051D03BF  8  75 70 89 F8 01 50 8B F8 
   643)      4391.6  Rx     032A03BF  0  
   644)      4392.3  Rx     051D03C0  8  01 50 88 F8 01 50 46 E0 
   645)      4392.6  Rx     032A03C0  0  
   646)      4393.2  Rx     051D03C1  8  4B 78 01 2B 32 D1 0A B9 
   647)      4393.4  Rx     032A03C1  0  
   648)      4394.1  Rx     051D03C2  8  01 28 03 D0 98 F8 00 20 
   649)      4394.4  Rx     032A03C2  0  
   650)      4394.9  Rx     051D03C3  8  72 B1 1B E0 98 F8 00 20 
   651)      4395.2  Rx     032A03C3  0  
   652)      4395.8  Rx     051D03C4  8  42 B3 4A 88 BE 2A 62 6A 
   653)      4396.1  Rx     032A03C4  0  
   654)      4396.7  Rx     051D03C5  8  02 D2 42 F4 00 62 01 E0 
   655)      4397.0  Rx     032A03C5  0  
   656)      4397.6  Rx     051D03C6  8  42 F4 80 62 62 62 1D E0 
   657)      4397.9  Rx     032A03C6  0  
   658)      4398.5  Rx     051D03C7  8  99 F8 00 20 52 B9 62 6A 
   659)      4398.7  Rx     032A03C7  0  
   660)      4399.4  Rx     051D03C8  8  42 F4 00 12 62 62 7D 70 
   661)      4399.6  Rx     032A03C8  0  
   662)      4400.3  Rx     051D03C9  8  75 70 89 F8 01 50 4D 70 
   663)      4400.5  Rx     032A03C9  0  
   664)      4401.2  Rx     051D03CA  8  88 F8 01 50 9A F8 8C 30 
   665)      4401.4  Rx     032A03CA  0  
   666)      4402.1  Rx     051D03CB  8  52 46 01 2B 0A D1 47 4B 
   667)      4402.3  Rx     032A03CB  0  
   668)      4402.9  Rx     051D03CC  8  9B 79 3B B1 1E 23 23 70 
   669)      4403.2  Rx     032A03CC  0  
   670)      4403.9  Rx     051D03CD  8  92 F8 8E 30 23 F0 20 03 
   671)      4404.1  Rx     032A03CD  0  
   672)      4404.7  Rx     051D03CE  8  8A F8 8E 30 9A F8 8E 20 
   673)      4405.0  Rx     032A03CE  0  
   674)      4405.6  Rx     051D03CF  8  53 46 5F EA 82 6C 07 D5 
   675)      4405.9  Rx     032A03CF  0  
   676)      4406.5  Rx     051D03D0  8  22 F0 20 02 83 F8 8E 20 
   677)      4406.8  Rx     032A03D0  0  
   678)      4407.4  Rx     051D03D1  8  02 F0 0F 02 8A F8 8F 20 
   679)      4407.7  Rx     032A03D1  0  
   680)      4408.3  Rx     051D03D2  8  08 70 AB F8 02 50 36 48 
   681)      4408.6  Rx     032A03D2  0  
   682)      4409.2  Rx     051D03D3  8  09 38 01 78 41 70 4F F4 
   683)      4409.5  Rx     032A03D3  0  
   684)      4410.1  Rx     051D03D4  8  00 71 37 48 04 F0 B7 FD 
   685)      4410.4  Rx     032A03D4  0  
   686)      4411.0  Rx     051D03D5  8  01 28 27 D0 30 48 09 38 
   687)      4411.3  Rx     032A03D5  0  
   688)      4411.9  Rx     051D03D6  8  05 70 2F 4B 09 3B 59 78 
   689)      4412.2  Rx     032A03D6  0  
   690)      4412.8  Rx     051D03D7  8  18 78 81 42 00 D1 98 70 
   691)      4413.1  Rx     032A03D7  0  
   692)      4413.7  Rx     051D03D8  8  99 F8 00 20 98 78 49 46 
   693)      4414.0  Rx     032A03D8  0  
   694)      4414.6  Rx     051D03D9  8  82 42 1C D1 48 88 A0 F5 
   695)      4414.9  Rx     032A03D9  0  
   696)      4415.5  Rx     051D03DA  8  7F 43 FF 3B 01 D0 40 1C 
   697)      4415.8  Rx     032A03DA  0  
   698)      4416.4  Rx     051D03DB  8  48 80 00 2A 0C D1 80 B2 
   699)      4416.7  Rx     032A03DB  0  
   700)      4417.3  Rx     051D03DC  8  64 28 09 D1 60 6A 40 F4 
   701)      4417.6  Rx     032A03DC  0  
   702)      4418.2  Rx     051D03DD  8  00 40 60 62 7D 70 75 70 
   703)      4418.5  Rx     032A03DD  0  
   704)      4419.1  Rx     051D03DE  8  8B F8 01 50 88 F8 01 50 
   705)      4419.4  Rx     032A03DE  0  
   706)      4420.0  Rx     051D03DF  8  BD E8 F0 9F 1C 49 01 20 
   707)      4420.3  Rx     032A03DF  0  
   708)      4420.9  Rx     051D03E0  8  09 39 08 70 D5 E7 4B 78 
   709)      4421.2  Rx     032A03E0  0  
   710)      4421.8  Rx     051D03E1  8  01 2B 28 D1 0A B9 01 28 
   711)      4422.1  Rx     032A03E1  0  
   712)      4422.7  Rx     051D03E2  8  03 D0 98 F8 00 20 5A B1 
   713)      4423.0  Rx     032A03E2  0  
   714)      4423.6  Rx     051D03E3  8  18 E0 4A 88 5A 2A 62 6A 
   715)      4423.9  Rx     032A03E3  0  
   716)      4424.5  Rx     051D03E4  8  02 D2 42 F4 80 42 01 E0 
   717)      4424.8  Rx     032A03E4  0  
   718)      4425.5  Rx     051D03E5  8  42 F4 00 52 62 62 16 E0 
   719)      4425.8  Rx     032A03E5  0  
   720)      4426.4  Rx     051D03E6  8  9B F8 00 20 52 B9 62 6A 
   721)      4426.6  Rx     032A03E6  0  
   722)      4427.2  Rx     051D03E7  8  42 F4 00 12 62 62 7D 70 
   723)      4427.5  Rx     032A03E7  0  
   724)      4428.1  Rx     051D03E8  8  75 70 4D 70 8B F8 01 50 
   725)      4428.4  Rx     032A03E8  0  
   726)      4429.0  Rx     051D03E9  8  88 F8 01 50 9A F8 8C 20 
   727)      4429.3  Rx     032A03E9  0  
   728)      4429.9  Rx     051D03EA  8  01 2A 04 D1 09 4A 92 79 
   729)      4430.2  Rx     032A03EA  0  
   730)      4430.8  Rx     051D03EB  8  0A B1 1E 22 22 70 9A F8 
   731)      4431.1  Rx     032A03EB  0  
   732)      4431.7  Rx     051D03EC  8  12 30 0B B1 8A F8 8F 50 
   733)      4432.0  Rx     032A03EC  0  
   734)      4432.6  Rx     051D03ED  8  08 70 A9 F8 02 50 C3 E7 
   735)      4432.9  Rx     032A03ED  0  
   736)      4433.6  Rx     051D03EE  8  20 00 00 20 00 0C 01 40 
   737)      4433.9  Rx     032A03EE  0  
   738)      4434.5  Rx     051D03EF  8  6C 12 00 20 4C 13 00 20 
   739)      4434.8  Rx     032A03EF  0  
   740)      4435.4  Rx     051D03F0  8  00 08 01 40 F0 B4 FE 4B 
   741)      4435.7  Rx     032A03F0  0  
   742)      4436.3  Rx     051D03F1  8  93 F8 8C 00 00 28 27 D0 
   743)      4436.6  Rx     032A03F1  0  
   744)      4437.2  Rx     051D03F2  8  93 F8 8D 20 00 26 01 2A 
   745)      4437.5  Rx     032A03F2  0  
   746)      4438.2  Rx     051D03F3  8  24 D0 18 46 02 2A 10 F8 
   747)      4438.5  Rx     032A03F3  0  
   748)      4439.1  Rx     051D03F4  8  C0 1F 80 78 3B D0 03 2A 
   749)      4439.4  Rx     032A03F4  0  
   750)      4440.0  Rx     051D03F5  8  1A D1 01 25 05 24 01 29 
   751)      4440.3  Rx     032A03F5  0  
   752)      4440.9  Rx     051D03F6  8  4B D0 02 29 14 D1 F3 49 
   753)      4441.2  Rx     032A03F6  0  
   754)      4441.8  Rx     051D03F7  8  09 5C 18 46 90 F8 BE 00 
   755)      4442.1  Rx     032A03F7  0  
   756)      4442.7  Rx     051D03F8  8  42 1C D2 B2 35 29 6E D0 
   757)      4442.9  Rx     032A03F8  0  
   758)      4443.6  Rx     051D03F9  8  34 29 6D D0 37 29 03 D0 
   759)      4443.9  Rx     032A03F9  0  
   760)      4444.5  Rx     051D03FA  8  36 29 01 D0 38 29 03 D1 
   761)      4444.8  Rx     032A03FA  0  
   762)      4445.4  Rx     051D03FB  8  00 28 01 D1 83 F8 BE 50 
   763)      4445.7  Rx     032A03FB  0  
   764)      4446.3  Rx     051D03FC  8  F0 BC 70 47 B3 F8 AC 00 
   765)      4446.6  Rx     032A03FC  0  
   766)      4447.3  Rx     051D03FD  8  18 B1 03 28 01 D0 06 28 
   767)      4447.5  Rx     032A03FD  0  
   768)      4448.2  Rx     051D03FE  8  F6 D1 93 F8 8E 10 93 F8 
   769)      4448.5  Rx     032A03FE  0  
   770)      4449.0  Rx     051D03FF  8  8F 00 01 F0 0F 01 88 42 
   771)      4449.3  Rx     032A03FF  0  
   772)      4449.9  Rx     051D0400  8  02 D2 00 F1 01 00 02 E0 
   773)      4450.2  Rx     032A0400  0  
   774)      4450.9  Rx     051D0401  8  04 D1 4F F0 0E 00 83 F8 
   775)      4503.1  Rx     032A0401  0  
   776)      4503.7  Rx     051D0402  8  8F 00 E5 E7 0D 28 E3 D1 
   777)      4504.0  Rx     032A0402  0  
   778)      4504.6  Rx     051D0403  8  83 F8 8F 60 E0 E7 D8 4A 
   779)      4504.9  Rx     032A0403  0  
   780)      4505.5  Rx     051D0404  8  92 F8 C2 20 52 1E D2 B2 
   781)      4505.8  Rx     032A0404  0  
   782)      4506.4  Rx     051D0405  8  41 B1 01 29 0B D0 02 29 
   783)      4506.7  Rx     032A0405  0  
   784)      4507.3  Rx     051D0406  8  D6 D1 D5 49 09 78 88 42 
   785)      4507.6  Rx     032A0406  0  
   786)      4508.2  Rx     051D0407  8  02 D1 D1 E7 00 28 CF D0 
   787)      4508.5  Rx     032A0407  0  
   788)      4509.1  Rx     051D0408  8  83 F8 C2 20 CC E7 D1 49 
   789)      4509.4  Rx     032A0408  0  
   790)      4510.0  Rx     051D0409  8  F4 E7 D1 49 09 5C D1 48 
   791)      4510.3  Rx     032A0409  0  
   792)      4511.0  Rx     051D040A  8  0A 29 C5 D2 DF E8 01 F0 
   793)      4511.2  Rx     032A040A  0  
   794)      4511.9  Rx     051D040B  8  06 08 0E 25 29 2F 31 33 
   795)      4512.1  Rx     032A040B  0  
   796)      4512.7  Rx     051D040C  8  05 39 BD E7 86 70 BB E7 
   797)      4513.0  Rx     032A040C  0  
   798)      4513.6  Rx     051D040D  8  01 79 09 29 B8 D2 49 1C 
   799)      4513.9  Rx     032A040D  0  
   800)      4514.5  Rx     051D040E  8  01 71 B5 E7 01 78 0A 29 
   801)      4514.8  Rx     032A040E  0  
   802)      4515.4  Rx     051D040F  8  05 D0 1E 29 05 D0 32 29 
   803)      4515.7  Rx     032A040F  0  
   804)      4516.4  Rx     051D0410  8  0D D0 64 21 02 E0 1E 21 
   805)      4516.7  Rx     032A0410  0  
   806)      4517.3  Rx     051D0411  8  00 E0 32 21 01 70 93 F8 
   807)      4517.6  Rx     032A0411  0  
   808)      4518.2  Rx     051D0412  8  90 10 00 78 01 B1 40 08 
   809)      4518.5  Rx     032A0412  0  
   810)      4519.1  Rx     051D0413  8  F0 BC 03 F0 01 BA 4B 21 
   811)      4519.4  Rx     032A0413  0  
   812)      4520.0  Rx     051D0414  8  F4 E7 C6 71 9C E7 1C E0 
   813)      4520.3  Rx     032A0414  0  
   814)      4520.9  Rx     051D0415  8  20 E0 C1 78 05 29 97 D2 
   815)      4530.9  Rx     032A0415  0  
   816)      4531.5  Rx     051D0416  8  49 1C C1 70 94 E7 46 70 
   817)      4531.8  Rx     032A0416  0  
   818)      4532.4  Rx     051D0417  8  92 E7 86 71 90 E7 41 79 
   819)      4532.7  Rx     032A0417  0  
   820)      4533.3  Rx     051D0418  8  09 B1 46 71 8C E7 45 71 
   821)      4533.6  Rx     032A0418  0  
   822)      4534.2  Rx     051D0419  8  8A E7 01 7A 03 29 03 D0 
   823)      4534.5  Rx     032A0419  0  
   824)      4535.1  Rx     051D041A  8  05 29 03 D0 09 29 83 D0 
   825)      4535.4  Rx     032A041A  0  
   826)      4536.0  Rx     051D041B  8  04 72 81 E7 09 21 01 72 
   827)      4536.3  Rx     032A041B  0  
   828)      4536.9  Rx     051D041C  8  7E E7 09 28 95 D2 83 F8 
   829)      4537.2  Rx     032A041C  0  
   830)      4537.8  Rx     051D041D  8  BE 20 79 E7 93 F8 81 10 
   831)      4538.1  Rx     032A041D  0  
   832)      4538.7  Rx     051D041E  8  00 29 8E D0 93 F8 26 10 
   833)      4539.0  Rx     032A041E  0  
   834)      4539.6  Rx     051D041F  8  0D 31 88 42 0C D2 83 F8 
   835)      4539.9  Rx     032A041F  0  
   836)      4540.5  Rx     051D0420  8  BE 20 01 2A 06 D0 02 2A 
   837)      4540.8  Rx     032A0420  0  
   838)      4541.4  Rx     051D0421  8  04 D0 04 2A 86 D1 83 F8 
   839)      4541.7  Rx     032A0421  0  
   840)      4542.3  Rx     051D0422  8  BE 40 65 E7 03 20 05 E0 
   841)      4542.6  Rx     032A0422  0  
   842)      4543.2  Rx     051D0423  8  01 D1 80 20 02 E0 80 28 
   843)      4543.5  Rx     032A0423  0  
   844)      4544.1  Rx     051D0424  8  8B D1 81 20 83 F8 BE 00 
   845)      4544.4  Rx     032A0424  0  
   846)      4545.0  Rx     051D0425  8  5A E7 F0 B4 94 4B 93 F8 
   847)      4545.3  Rx     032A0425  0  
   848)      4545.9  Rx     051D0426  8  8C 00 00 28 1B D0 93 F8 
   849)      4546.2  Rx     032A0426  0  
   850)      4546.8  Rx     051D0427  8  8D 20 01 2A 18 D0 18 46 
   851)      4547.1  Rx     032A0427  0  
   852)      4547.7  Rx     051D0428  8  02 2A 10 F8 C0 1F 80 78 
   853)      4548.0  Rx     032A0428  0  
   854)      4548.6  Rx     051D0429  8  2F D0 1C 46 03 25 94 F8 
   855)      4548.9  Rx     032A0429  0  
   856)      4549.5  Rx     051D042A  8  26 40 8C 4F 0D 34 E4 B2 
   857)      4549.8  Rx     032A042A  0  
   858)      4550.4  Rx     051D042B  8  03 2A 3C D0 05 2A 06 D1 
   859)      4550.7  Rx     032A042B  0  
   860)      4551.3  Rx     051D042C  8  38 5C 34 28 03 D1 83 F8 
   861)      4551.6  Rx     032A042C  0  
   862)      4552.2  Rx     051D042D  8  BE 40 83 F8 8D 50 37 E7 
   863)      4552.5  Rx     032A042D  0  
   864)      4553.1  Rx     051D042E  8  B3 F8 AC 00 18 B1 03 28 
   865)      4553.4  Rx     032A042E  0  
   866)      4554.0  Rx     051D042F  8  01 D0 06 28 F7 D1 93 F8 
   867)      4554.3  Rx     032A042F  0  
   868)      4554.9  Rx     051D0430  8  8F 00 58 B1 93 F8 8E 10 
   869)      4555.2  Rx     032A0430  0  
   870)      4555.8  Rx     051D0431  8  01 F0 0F 01 88 42 01 D8 
   871)      4556.1  Rx     032A0431  0  
   872)      4556.7  Rx     051D0432  8  40 1E 04 E0 0E 28 05 D0 
   873)      4557.0  Rx     032A0432  0  
   874)      4557.6  Rx     051D0433  8  00 28 E8 D1 0D 20 83 F8 
   875)      4557.9  Rx     032A0433  0  
   876)      4558.5  Rx     051D0434  8  8F 00 1D E7 83 F8 8F 10 
   877)      4558.8  Rx     032A0434  0  
   878)      4559.4  Rx     051D0435  8  1A E7 75 4A 92 F8 C2 20 
   879)      4559.6  Rx     032A0435  0  
   880)      4560.2  Rx     051D0436  8  52 1C D2 B2 41 B1 01 29 
   881)      4560.5  Rx     032A0436  0  
   882)      4561.2  Rx     051D0437  8  0B D0 02 29 D7 D1 76 49 
   883)      4561.4  Rx     032A0437  0  
   884)      4562.1  Rx     051D0438  8  09 78 88 42 02 D1 0B E7 
   885)      4562.3  Rx     032A0438  0  
   886)      4562.9  Rx     051D0439  8  02 28 D0 D0 83 F8 C2 20 
   887)      4563.2  Rx     032A0439  0  
   888)      4563.8  Rx     051D043A  8  06 E7 72 49 F4 E7 00 26 
   889)      4564.1  Rx     032A043A  0  
   890)      4564.7  Rx     051D043B  8  01 29 16 D0 02 29 C6 D1 
   891)      4565.0  Rx     032A043B  0  
   892)      4565.6  Rx     051D043C  8  39 5C 67 48 90 F8 BE 00 
   893)      4565.9  Rx     032A043C  0  
   894)      4566.5  Rx     051D043D  8  42 1E D2 B2 35 29 07 D0 
   895)      4566.8  Rx     032A043D  0  
   896)      4567.4  Rx     051D043E  8  34 29 53 D0 37 29 03 D0 
   897)      4567.7  Rx     032A043E  0  
   898)      4568.3  Rx     051D043F  8  36 29 01 D0 38 29 B6 D1 
   899)      4568.6  Rx     032A043F  0  
   900)      4569.2  Rx     051D0440  8  00 28 B4 D0 83 F8 BE 20 
   901)      4569.5  Rx     032A0440  0  
   902)      4570.1  Rx     051D0441  8  EA E6 61 49 0A 5C 01 21 
   903)      4570.4  Rx     032A0441  0  
   904)      4571.0  Rx     051D0442  8  60 48 0A 2A AB D2 DF E8 
   905)      4571.3  Rx     032A0442  0  
   906)      4571.9  Rx     051D0443  8  02 F0 06 08 0E 25 27 2D 
   907)      4572.1  Rx     032A0443  0  
   908)      4572.8  Rx     051D0444  8  2F 31 05 37 DC E6 81 70 
   909)      4573.1  Rx     032A0444  0  
   910)      4573.7  Rx     051D0445  8  DA E6 01 79 00 29 9E D0 
   911)      4573.9  Rx     032A0445  0  
   912)      4574.5  Rx     051D0446  8  49 1E 01 71 D4 E6 01 78 
   913)      4574.8  Rx     032A0446  0  
   914)      4575.4  Rx     051D0447  8  32 29 11 D0 4B 29 05 D0 
   915)      4575.7  Rx     032A0447  0  
   916)      4576.3  Rx     051D0448  8  64 29 01 D0 0A 21 02 E0 
   917)      4576.6  Rx     032A0448  0  
   918)      4577.2  Rx     051D0449  8  4B 21 00 E0 32 21 01 70 
   919)      4577.5  Rx     032A0449  0  
   920)      4578.1  Rx     051D044A  8  93 F8 90 10 00 78 01 B1 
   921)      4578.4  Rx     032A044A  0  
   922)      4579.0  Rx     051D044B  8  40 08 F0 BC 03 F0 20 B9 
   923)      4579.3  Rx     032A044B  0  
   924)      4579.9  Rx     051D044C  8  1E 21 F4 E7 C1 71 BB E6 
   925)      4580.2  Rx     032A044C  0  
   926)      4580.8  Rx     051D044D  8  C1 78 00 29 99 D0 49 1E 
   927)      4581.1  Rx     032A044D  0  
   928)      4581.7  Rx     051D044E  8  C1 70 B5 E6 41 70 B3 E6 
   929)      4582.0  Rx     032A044E  0  
   930)      4582.6  Rx     051D044F  8  81 71 B1 E6 42 79 0A B1 
   931)      4582.8  Rx     032A044F  0  
   932)      4583.4  Rx     051D0450  8  46 71 AD E6 41 71 AB E6 
   933)      4583.7  Rx     032A0450  0  
   934)      4584.3  Rx     051D0451  8  01 7A 03 29 89 D0 05 29 
   935)      4584.6  Rx     032A0451  0  
   936)      4585.2  Rx     051D0452  8  02 D0 05 22 02 72 A3 E6 
   937)      4585.5  Rx     032A0452  0  
   938)      4586.1  Rx     051D0453  8  05 72 A1 E6 93 F8 81 10 
   939)      4586.4  Rx     032A0453  0  
   940)      4587.0  Rx     051D0454  8  00 29 90 D0 81 28 10 D0 
   941)      4587.3  Rx     032A0454  0  
   942)      4587.9  Rx     051D0455  8  80 28 12 D0 00 28 8A D0 
   943)      4588.2  Rx     032A0455  0  
   944)      4588.9  Rx     051D0456  8  83 F8 BE 20 93 F8 BE 00 
   945)      4589.1  Rx     032A0456  0  
   946)      4589.8  Rx     051D0457  8  01 28 0D D0 02 28 0B D0 
   947)      4590.0  Rx     032A0457  0  
   948)      4590.7  Rx     051D0458  8  04 28 85 D1 83 F8 BE 50 
   949)      4590.9  Rx     032A0458  0  
   950)      4591.6  Rx     051D0459  8  8A E6 80 20 83 F8 BE 00 
   951)      4591.9  Rx     032A0459  0  
   952)      4592.4  Rx     051D045A  8  86 E6 83 F8 BE 40 ED E7 
   953)      4592.7  Rx     032A045A  0  
   954)      4593.3  Rx     051D045B  8  83 F8 BE 60 80 E6 70 B5 
   955)      4593.6  Rx     032A045B  0  
   956)      4594.3  Rx     051D045C  8  27 4D 95 F8 8C 00 00 28 
   957)      4594.6  Rx     032A045C  0  
   958)      4595.2  Rx     051D045D  8  75 D0 95 F8 8D 00 00 24 
   959)      4595.5  Rx     032A045D  0  
   960)      4596.1  Rx     051D045E  8  01 28 0B D0 02 22 02 28 
   961)      4596.4  Rx     032A045E  0  
   962)      4597.0  Rx     051D045F  8  32 D0 03 28 6B D1 85 F8 
   963)      4597.3  Rx     032A045F  0  
   964)      4597.9  Rx     051D0460  8  8D 20 BD E8 70 40 23 48 
   965)      4598.2  Rx     032A0460  0  
   966)      4598.8  Rx     051D0461  8  02 F0 4E B8 95 F8 B0 00 
   967)      4599.1  Rx     032A0461  0  
   968)      4599.7  Rx     051D0462  8  40 1C C0 B2 85 F8 B0 00 
   969)      4600.0  Rx     032A0462  0  
   970)      4600.6  Rx     051D0463  8  08 28 01 D1 85 F8 B0 40 
   971)      4600.9  Rx     032A0463  0  
   972)      4601.5  Rx     051D0464  8  95 F8 89 20 1E 4B 29 89 
   973)      4601.8  Rx     032A0464  0  
   974)      4602.3  Rx     051D0465  8  4F F6 FF 76 32 B9 95 F8 
   975)      4602.6  Rx     032A0465  0  
   976)      4603.2  Rx     051D0466  8  B0 00 18 5C 09 28 08 D0 
   977)      4603.5  Rx     032A0466  0  
   978)      4604.1  Rx     051D0467  8  0A 28 06 D0 95 F8 B0 00 
   979)      4604.4  Rx     032A0467  0  
   980)      4605.0  Rx     051D0468  8  18 5C 03 28 47 D1 B1 42 
   981)      4605.3  Rx     032A0468  0  
   982)      4606.0  Rx     051D0469  8  45 D1 95 F8 B0 00 40 1C 
   983)      4606.2  Rx     032A0469  0  
   984)      4606.9  Rx     051D046A  8  C0 B2 85 F8 B0 00 08 28 
   985)      4607.1  Rx     032A046A  0  
   986)      4607.7  Rx     051D046B  8  E8 D1 85 F8 B0 40 E5 E7 
   987)      4608.0  Rx     032A046B  0  
   988)      4608.6  Rx     051D046C  8  07 48 95 F8 C0 10 01 26 
   989)      4608.9  Rx     032A046C  0  
   990)      4609.5  Rx     051D046D  8  90 F8 C2 00 E1 B1 03 22 
   991)      4609.8  Rx     032A046D  0  
   992)      4610.4  Rx     051D046E  8  01 29 41 D0 02 29 2E D1 
   993)      4610.7  Rx     032A046E  0  
   994)      4611.3  Rx     051D046F  8  02 49 08 5C FF 28 11 E0 
   995)      4611.6  Rx     032A046F  0  
   996)      4612.2  Rx     051D0470  8  6C 12 00 20 8A 00 00 20 
   997)      4612.5  Rx     032A0470  0  
   998)      4613.1  Rx     051D0471  8  9A 00 00 20 88 00 00 20 
   999)      4613.4  Rx     032A0471  0  
  1000)      4614.0  Rx     051D0472  8  78 00 00 20 4C 13 00 20 
  1001)      4614.3  Rx     032A0472  0  
  1002)      4614.9  Rx     051D0473  8  9B 00 00 20 89 00 00 20 
  1003)      4615.2  Rx     032A0473  0  
  1004)      4615.8  Rx     051D0474  8  05 00 00 20 2C D1 33 E0 
  1005)      4616.1  Rx     032A0474  0  
  1006)      4616.7  Rx     051D0475  8  68 B1 01 28 0F D0 02 28 
  1007)      4617.0  Rx     032A0475  0  
  1008)      4617.7  Rx     051D0476  8  11 D1 85 48 01 F0 F8 FF 
  1009)      4618.0  Rx     032A0476  0  
  1010)      4618.6  Rx     051D0477  8  85 F8 8D 60 82 4E 70 78 
  1011)      4618.9  Rx     032A0477  0  
  1012)      4619.5  Rx     051D0478  8  01 28 09 D0 0A E0 05 F8 
  1013)      4619.8  Rx     032A0478  0  
  1014)      4620.4  Rx     051D0479  8  C0 6F 02 E0 03 E0 05 F8 
  1015)      4620.7  Rx     032A0479  0  
  1016)      4621.2  Rx     051D047A  8  C0 2F 6C 70 AC 70 70 BD 
  1017)      4621.5  Rx     032A047A  0  
  1018)      4622.2  Rx     051D047B  8  01 F0 79 FD 95 F8 8E 10 
  1019)      4622.4  Rx     032A047B  0  
  1020)      4623.1  Rx     051D047C  8  30 7A 01 F0 0F 02 90 42 
  1021)      4623.4  Rx     032A047C  0  
  1022)      4624.0  Rx     051D047D  8  F5 D0 01 F0 F0 01 01 43 
  1023)      4624.3  Rx     032A047D  0  
  1024)      4624.9  Rx     051D047E  8  05 F8 8E 1F 6C 70 70 BD 
  1025)      4625.2  Rx     032A047E  0  
  1026)      4625.8  Rx     051D047F  8  74 49 08 5C FF 28 04 D0 
  1027)      4626.1  Rx     032A047F  0  
  1028)      4626.8  Rx     051D0480  8  85 F8 BE 40 85 F8 8D 20 
  1029)      4627.1  Rx     032A0480  0  
  1030)      4627.6  Rx     051D0481  8  70 BD 05 F8 C0 4F E1 E7 
  1031)      4679.9  Rx     032A0481  0  
  1032)      4680.5  Rx     051D0482  8  05 F8 C0 4F AE 70 70 BD 
  1033)      4680.8  Rx     032A0482  0  
  1034)      4681.4  Rx     051D0483  8  10 B5 6D 4C 94 F8 8C 00 
  1035)      4681.7  Rx     032A0483  0  
  1036)      4682.3  Rx     051D0484  8  01 28 0F D1 02 F0 87 F8 
  1037)      4682.6  Rx     032A0484  0  
  1038)      4683.2  Rx     051D0485  8  94 F8 8F 00 0E 28 09 D1 
  1039)      4683.5  Rx     032A0485  0  
  1040)      4684.1  Rx     051D0486  8  E0 88 40 F2 DC 51 88 42 
  1041)      4684.4  Rx     032A0486  0  
  1042)      4684.9  Rx     051D0487  8  04 D3 14 F8 8E 0F 40 F0 
  1043)      4685.2  Rx     032A0487  0  
  1044)      4685.8  Rx     051D0488  8  20 00 20 70 10 BD 62 48 
  1045)      4686.1  Rx     032A0488  0  
  1046)      4686.7  Rx     051D0489  8  10 F8 8E 1F 21 F0 20 01 
  1047)      4696.8  Rx     032A0489  0  
  1048)      4697.4  Rx     051D048A  8  01 70 70 47 70 B5 5E 4C 
  1049)      4697.7  Rx     032A048A  0  
  1050)      4698.3  Rx     051D048B  8  94 F8 8C 00 00 28 47 D0 
  1051)      4698.6  Rx     032A048B  0  
  1052)      4699.2  Rx     051D048C  8  94 F8 8D 00 01 21 00 25 
  1053)      4699.5  Rx     032A048C  0  
  1054)      4700.1  Rx     051D048D  8  57 4E 01 28 0E D0 02 28 
  1055)      4700.4  Rx     032A048D  0  
  1056)      4701.0  Rx     051D048E  8  01 D0 03 28 3C D1 84 F8 
  1057)      4701.3  Rx     032A048E  0  
  1058)      4701.9  Rx     051D048F  8  8D 10 84 F8 BE 50 52 48 
  1059)      4702.2  Rx     032A048F  0  
  1060)      4702.8  Rx     051D0490  8  01 F0 92 FF 70 78 01 28 
  1061)      4703.1  Rx     032A0490  0  
  1062)      4703.7  Rx     051D0491  8  33 D0 34 E0 E0 88 00 28 
  1063)      4704.0  Rx     032A0491  0  
  1064)      4704.6  Rx     051D0492  8  2E D1 B4 F8 AC 00 18 B1 
  1065)      4704.9  Rx     032A0492  0  
  1066)      4705.5  Rx     051D0493  8  03 28 01 D0 06 28 27 D1 
  1067)      4705.8  Rx     032A0493  0  
  1068)      4706.4  Rx     051D0494  8  02 20 4C 49 84 F8 8D 00 
  1069)      4706.7  Rx     032A0494  0  
  1070)      4707.3  Rx     051D0495  8  32 20 08 70 33 20 48 70 
  1071)      4707.6  Rx     032A0495  0  
  1072)      4708.2  Rx     051D0496  8  94 F8 81 20 02 20 12 B1 
  1073)      4708.5  Rx     032A0496  0  
  1074)      4709.1  Rx     051D0497  8  34 20 88 70 03 20 37 22 
  1075)      4709.4  Rx     032A0497  0  
  1076)      4710.0  Rx     051D0498  8  0A 54 40 1C 36 22 0A 54 
  1077)      4710.3  Rx     032A0498  0  
  1078)      4710.8  Rx     051D0499  8  94 F8 89 20 40 1C 12 B1 
  1079)      4711.1  Rx     032A0499  0  
  1080)      4711.7  Rx     051D049A  8  38 22 0A 54 40 1C 35 22 
  1081)      4712.0  Rx     032A049A  0  
  1082)      4712.6  Rx     051D049B  8  0A 54 FF 22 40 1C 0A 54 
  1083)      4712.9  Rx     032A049B  0  
  1084)      4713.5  Rx     051D049C  8  3D 49 0D 70 3D 49 08 70 
  1085)      4713.8  Rx     032A049C  0  
  1086)      4714.4  Rx     051D049D  8  04 F8 C0 5F A5 70 75 70 
  1087)      4714.7  Rx     032A049D  0  
  1088)      4715.3  Rx     051D049E  8  70 BD 01 F0 EC FC 94 F8 
  1089)      4715.6  Rx     032A049E  0  
  1090)      4716.2  Rx     051D049F  8  8E 10 30 7A 01 F0 0F 02 
  1091)      4716.5  Rx     032A049F  0  
  1092)      4717.1  Rx     051D04A0  8  90 42 F5 D0 01 F0 F0 01 
  1093)      4717.4  Rx     032A04A0  0  
  1094)      4718.0  Rx     051D04A1  8  01 43 04 F8 8E 1F 65 70 
  1095)      4718.3  Rx     032A04A1  0  
  1096)      4719.0  Rx     051D04A2  8  70 BD 2F 49 91 F8 8C 00 
  1097)      4719.2  Rx     032A04A2  0  
  1098)      4719.9  Rx     051D04A3  8  00 28 14 D0 91 F8 8D 00 
  1099)      4720.1  Rx     032A04A3  0  
  1100)      4720.7  Rx     051D04A4  8  01 28 10 D1 01 22 28 48 
  1101)      4721.0  Rx     032A04A4  0  
  1102)      4721.6  Rx     051D04A5  8  81 F8 91 20 91 F8 90 30 
  1103)      4721.9  Rx     032A04A5  0  
  1104)      4722.5  Rx     051D04A6  8  00 78 1B B1 00 22 81 F8 
  1105)      4722.8  Rx     032A04A6  0  
  1106)      4723.4  Rx     051D04A7  8  90 20 02 E0 81 F8 90 20 
  1107)      4723.7  Rx     032A04A7  0  
  1108)      4724.3  Rx     051D04A8  8  40 08 02 F0 AD BF 70 47 
  1109)      4724.6  Rx     032A04A8  0  
  1110)      4725.2  Rx     051D04A9  8  70 B5 21 4D 95 F8 8D 00 
  1111)      4725.5  Rx     032A04A9  0  
  1112)      4726.1  Rx     051D04AA  8  03 28 15 D1 95 F8 C0 00 
  1113)      4726.4  Rx     032A04AA  0  
  1114)      4727.0  Rx     051D04AB  8  02 28 11 D1 95 F8 C2 10 
  1115)      4727.3  Rx     032A04AB  0  
  1116)      4727.9  Rx     051D04AC  8  1C 48 40 5C 35 28 0B D1 
  1117)      4728.2  Rx     032A04AC  0  
  1118)      4728.8  Rx     051D04AD  8  1D 48 00 24 40 F8 E4 4F 
  1119)      4729.1  Rx     032A04AD  0  
  1120)      4729.7  Rx     051D04AE  8  44 60 04 81 1A 48 02 F0 
  1121)      4730.0  Rx     032A04AE  0  
  1122)      4730.6  Rx     051D04AF  8  6D F8 25 F8 AC 4F 6C 80 
  1123)      4730.9  Rx     032A04AF  0  
  1124)      4731.5  Rx     051D04B0  8  70 BD 2D E9 F0 41 17 4E 
  1125)      4731.8  Rx     032A04B0  0  
  1126)      4732.4  Rx     051D04B1  8  00 24 DF F8 44 80 27 46 
  1127)      4732.6  Rx     032A04B1  0  
  1128)      4733.3  Rx     051D04B2  8  A6 F1 28 05 56 F8 34 00 
  1129)      4733.5  Rx     032A04B2  0  
  1130)      4734.2  Rx     051D04B3  8  69 6A 08 42 0F D0 06 EB 
  1131)      4734.4  Rx     032A04B3  0  
  1132)      4735.1  Rx     051D04B4  8  C4 00 40 68 10 B1 80 47 
  1133)      4735.4  Rx     032A04B4  0  
  1134)      4736.0  Rx     051D04B5  8  A8 F8 B6 70 56 F8 34 10 
  1135)      4736.3  Rx     032A04B5  0  
  1136)      4736.8  Rx     051D04B6  8  68 6A 88 43 68 62 A8 F8 
  1137)      4737.1  Rx     032A04B6  0  
  1138)      4737.7  Rx     051D04B7  8  B6 70 A8 F8 B8 70 64 1C 
  1139)      4738.0  Rx     032A04B7  0  
  1140)      4738.6  Rx     051D04B8  8  08 2C E7 D3 BD E8 F0 81 
  1141)      4738.9  Rx     032A04B8  0  
  1142)      4739.5  Rx     051D04B9  8  4C 13 00 20 78 00 00 20 
  1143)      4739.8  Rx     032A04B9  0  
  1144)      4740.4  Rx     051D04BA  8  6C 12 00 20 8A 00 00 20 
  1145)      4740.7  Rx     032A04BA  0  
  1146)      4741.4  Rx     051D04BB  8  9A 00 00 20 9B 00 00 20 
  1147)      4741.6  Rx     032A04BB  0  
  1148)      4742.2  Rx     051D04BC  8  5C 13 00 20 38 00 00 20 
  1149)      4742.5  Rx     032A04BC  0  
  1150)      4743.1  Rx     051D04BD  8  02 F0 E4 BD 70 B5 2B 4C 
  1151)      4743.4  Rx     032A04BD  0  
  1152)      4744.0  Rx     051D04BE  8  2B 4D 94 F8 BA 00 68 B1 
  1153)      4744.3  Rx     032A04BE  0  
  1154)      4744.9  Rx     051D04BF  8  A8 88 0E F0 D8 FE 29 4A 
  1155)      4745.2  Rx     032A04BF  0  
  1156)      4745.8  Rx     051D04C0  8  29 4B 0E F0 2D FF 01 D2 
  1157)      4746.1  Rx     032A04C0  0  
  1158)      4746.7  Rx     051D04C1  8  00 20 0C E0 94 F8 BA 00 
  1159)      4747.0  Rx     032A04C1  0  
  1160)      4747.7  Rx     051D04C2  8  00 28 0A D1 A8 88 0E F0 
  1161)      4747.9  Rx     032A04C2  0  
  1162)      4748.6  Rx     051D04C3  8  CA FE 24 4A 24 4B 0E F0 
  1163)      4748.8  Rx     032A04C3  0  
  1164)      4749.5  Rx     051D04C4  8  37 FF 02 D2 01 20 84 F8 
  1165)      4749.8  Rx     032A04C4  0  
  1166)      4750.4  Rx     051D04C5  8  BA 00 70 BD 1C 49 10 B5 
  1167)      4750.7  Rx     032A04C5  0  
  1168)      4751.3  Rx     051D04C6  8  89 1E 08 78 10 B1 40 1E 
  1169)      4751.5  Rx     032A04C6  0  
  1170)      4752.1  Rx     051D04C7  8  08 70 10 BD 18 48 00 88 
  1171)      4752.4  Rx     032A04C7  0  
  1172)      4753.0  Rx     051D04C8  8  0E F0 B5 FE 1B 4A 1C 4B 
  1173)      4753.3  Rx     032A04C8  0  
  1174)      4753.9  Rx     051D04C9  8  0E F0 0A FF F5 D2 BD E8 
  1175)      4754.2  Rx     032A04C9  0  
  1176)      4754.8  Rx     051D04CA  8  10 40 FF F7 E1 BE 11 4B 
  1177)      4755.1  Rx     032A04CA  0  
  1178)      4755.7  Rx     051D04CB  8  93 F8 91 00 00 28 1B D1 
  1179)      4756.0  Rx     032A04CB  0  
  1180)      4756.7  Rx     051D04CC  8  93 F8 8D 00 01 28 17 D1 
  1181)      4756.9  Rx     032A04CC  0  
  1182)      4757.6  Rx     051D04CD  8  0D 48 42 88 13 48 C1 78 
  1183)      4757.8  Rx     032A04CD  0  
  1184)      4758.4  Rx     051D04CE  8  13 48 30 F8 11 10 11 48 
  1185)      4758.7  Rx     032A04CE  0  
  1186)      4759.3  Rx     051D04CF  8  8A 42 00 78 04 D3 01 21 
  1187)      4759.6  Rx     032A04CF  0  
  1188)      4760.3  Rx     051D04D0  8  83 F8 90 10 40 08 05 E0 
  1189)      4760.5  Rx     032A04D0  0  
  1190)      4761.2  Rx     051D04D1  8  51 39 8A 42 04 DA 00 21 
  1191)      4761.4  Rx     032A04D1  0  
  1192)      4762.0  Rx     051D04D2  8  83 F8 90 10 02 F0 04 BF 
  1193)      4762.3  Rx     032A04D2  0  
  1194)      4762.9  Rx     051D04D3  8  70 47 00 00 6C 12 00 20 
  1195)      4763.2  Rx     032A04D3  0  
  1196)      4763.8  Rx     051D04D4  8  A6 00 00 20 09 1F 7C F0 
  1197)      4764.1  Rx     032A04D4  0  
  1198)      4764.7  Rx     051D04D5  8  C1 07 35 40 84 0F 3E F8 
  1199)      4765.0  Rx     032A04D5  0  
  1200)      4765.6  Rx     051D04D6  8  E0 83 44 40 37 D9 64 93 
  1201)      4765.9  Rx     032A04D6  0  
  1202)      4766.5  Rx     051D04D7  8  4D 36 95 40 4C 13 00 20 
  1203)      4766.8  Rx     032A04D7  0  
  1204)      4767.4  Rx     051D04D8  8  DC 9A 01 08 10 B5 02 F0 
  1205)      4767.7  Rx     032A04D8  0  
  1206)      4768.4  Rx     051D04D9  8  AB FE 03 48 06 F0 5C F8 
  1207)      4768.7  Rx     032A04D9  0  
  1208)      4769.3  Rx     051D04DA  8  00 28 00 D0 FE E7 10 BD 
  1209)      4769.6  Rx     032A04DA  0  
  1210)      4770.2  Rx     051D04DB  8  78 17 00 20 FF 49 AD F5 
  1211)      4770.5  Rx     032A04DB  0  
  1212)      4771.0  Rx     051D04DC  8  02 7D 02 20 DF F8 F8 A3 
  1213)      4771.3  Rx     032A04DC  0  
  1214)      4772.0  Rx     051D04DD  8  01 22 48 60 8A F8 00 20 
  1215)      4772.2  Rx     032A04DD  0  
  1216)      4772.8  Rx     051D04DE  8  1E 26 6C 46 88 46 4F F0 
  1217)      4773.1  Rx     032A04DE  0  
  1218)      4773.8  Rx     051D04DF  8  0A 0B 4F F0 00 09 98 F8 
  1219)      4774.1  Rx     032A04DF  0  
  1220)      4774.7  Rx     051D04E0  8  04 00 45 46 C0 07 74 D0 
  1221)      4775.0  Rx     032A04E0  0  
  1222)      4775.6  Rx     051D04E1  8  55 20 8D F8 00 00 F5 48 
  1223)      4775.8  Rx     032A04E1  0  
  1224)      4776.4  Rx     051D04E2  8  90 F8 8F 10 0D 29 09 D1 
  1225)      4776.7  Rx     032A04E2  0  
  1226)      4777.3  Rx     051D04E3  8  82 7C 3A B1 90 F8 90 10 
  1227)      4777.6  Rx     032A04E3  0  
  1228)      4778.3  Rx     051D04E4  8  0F 22 01 F0 01 01 02 EB 
  1229)      4778.5  Rx     032A04E4  0  
  1230)      4779.2  Rx     051D04E5  8  01 11 05 E0 90 F8 90 20 
  1231)      4779.4  Rx     032A04E5  0  
  1232)      4780.1  Rx     051D04E6  8  02 F0 01 02 01 EB 02 11 
  1233)      4780.4  Rx     032A04E6  0  
  1234)      4780.9  Rx     051D04E7  8  8D F8 01 10 90 F8 8E 10 
  1235)      4781.2  Rx     032A04E7  0  
  1236)      4781.8  Rx     051D04E8  8  64 22 01 F0 0F 01 8D F8 
  1237)      4782.1  Rx     032A04E8  0  
  1238)      4782.7  Rx     051D04E9  8  02 10 C1 88 B1 FB FB F1 
  1239)      4783.0  Rx     032A04E9  0  
  1240)      4783.6  Rx     051D04EA  8  8D F8 03 10 09 0A 8D F8 
  1241)      4783.9  Rx     032A04EA  0  
  1242)      4784.5  Rx     051D04EB  8  04 10 D0 F8 94 10 B1 FB 
  1243)      4784.8  Rx     032A04EB  0  
  1244)      4785.4  Rx     051D04EC  8  FB F1 8D F8 05 10 09 0A 
  1245)      4785.7  Rx     032A04EC  0  
  1246)      4786.3  Rx     051D04ED  8  8D F8 06 10 D0 F8 98 10 
  1247)      4786.6  Rx     032A04ED  0  
  1248)      4787.2  Rx     051D04EE  8  B1 FB F2 F1 0B 0A 8D F8 
  1249)      4787.5  Rx     032A04EE  0  
  1250)      4788.1  Rx     051D04EF  8  07 10 8D F8 08 30 09 0C 
  1251)      4788.4  Rx     032A04EF  0  
  1252)      4789.0  Rx     051D04F0  8  8D F8 09 10 90 F8 AC 10 
  1253)      4789.3  Rx     032A04F0  0  
  1254)      4789.9  Rx     051D04F1  8  8D F8 0A 10 90 F8 81 30 
  1255)      4790.2  Rx     032A04F1  0  
  1256)      4790.8  Rx     051D04F2  8  D9 07 1C D0 B0 F9 2C 10 
  1257)      4791.1  Rx     032A04F2  0  
  1258)      4791.7  Rx     051D04F3  8  00 29 00 DA 49 42 01 EB 
  1259)      4792.0  Rx     032A04F3  0  
  1260)      4792.6  Rx     051D04F4  8  81 01 49 00 8D F8 0B 10 
  1261)      4792.9  Rx     032A04F4  0  
  1262)      4793.5  Rx     051D04F5  8  09 0A 8D F8 0C 10 B0 F8 
  1263)      4793.8  Rx     032A04F5  0  
  1264)      4794.4  Rx     051D04F6  8  74 10 28 39 01 EB 81 01 
  1265)      4794.7  Rx     032A04F6  0  
  1266)      4795.3  Rx     051D04F7  8  49 00 8D F8 0D 10 09 0A 
  1267)      4795.6  Rx     032A04F7  0  
  1268)      4796.2  Rx     051D04F8  8  8D F8 0E 10 D9 07 00 29 
  1269)      4796.5  Rx     032A04F8  0  
  1270)      4797.1  Rx     051D04F9  8  04 D0 81 6A 03 E0 B0 F9 
  1271)      4797.4  Rx     032A04F9  0  
  1272)      4798.0  Rx     051D04FA  8  04 10 E4 E7 C1 68 01 EB 
  1273)      4798.3  Rx     032A04FA  0  
  1274)      4798.9  Rx     051D04FB  8  81 01 4F EA 41 01 8D F8 
  1275)      4799.2  Rx     032A04FB  0  
  1276)      4799.8  Rx     051D04FC  8  0F 10 4F EA 11 21 8D F8 
  1277)      4800.1  Rx     032A04FC  0  
  1278)      4800.7  Rx     051D04FD  8  10 10 03 D0 90 F8 78 10 
  1279)      4801.0  Rx     032A04FD  0  
  1280)      4801.7  Rx     051D04FE  8  01 E0 8F E0 01 78 8D F8 
  1281)      4811.7  Rx     032A04FE  0  
  1282)      4812.3  Rx     051D04FF  8  11 10 90 F8 79 10 8D F8 
  1283)      4812.6  Rx     032A04FF  0  
  1284)      4813.2  Rx     051D0500  8  12 10 41 8E 8D F8 13 10 
  1285)      4813.5  Rx     032A0500  0  
  1286)      4814.1  Rx     051D0501  8  4F EA 11 21 8D F8 14 10 
  1287)      4866.4  Rx     032A0501  0  
  1288)      4867.0  Rx     051D0502  8  C1 8D 8D F8 15 10 4F EA 
  1289)      4867.3  Rx     032A0502  0  
  1290)      4867.9  Rx     051D0503  8  11 21 8D F8 16 10 B0 F8 
  1291)      4868.2  Rx     032A0503  0  
  1292)      4868.8  Rx     051D0504  8  76 10 8D F8 17 10 4F EA 
  1293)      4869.1  Rx     032A0504  0  
  1294)      4869.7  Rx     051D0505  8  11 21 8D F8 18 10 C1 6F 
  1295)      4870.0  Rx     032A0505  0  
  1296)      4870.6  Rx     051D0506  8  C1 EB 01 11 4F EA 81 01 
  1297)      4870.9  Rx     032A0506  0  
  1298)      4871.5  Rx     051D0507  8  8D F8 19 10 4F EA 11 23 
  1299)      4871.8  Rx     032A0507  0  
  1300)      4872.4  Rx     051D0508  8  8D F8 1A 30 4F EA 11 41 
  1301)      4872.7  Rx     032A0508  0  
  1302)      4873.3  Rx     051D0509  8  8D F8 1B 10 B0 F8 7A 10 
  1303)      4873.6  Rx     032A0509  0  
  1304)      4874.2  Rx     051D050A  8  C1 EB 01 11 4F EA 81 01 
  1305)      4874.5  Rx     032A050A  0  
  1306)      4875.1  Rx     051D050B  8  8D F8 1C 10 4F EA 11 23 
  1307)      4875.4  Rx     032A050B  0  
  1308)      4876.0  Rx     051D050C  8  8D F8 1D 30 4F EA 11 41 
  1309)      4876.3  Rx     032A050C  0  
  1310)      4876.9  Rx     051D050D  8  8D F8 1E 10 41 89 B1 FB 
  1311)      4877.2  Rx     032A050D  0  
  1312)      4877.8  Rx     051D050E  8  F2 F1 8D F8 1F 10 4F EA 
  1313)      4878.1  Rx     032A050E  0  
  1314)      4878.7  Rx     051D050F  8  11 21 8D F8 20 10 01 89 
  1315)      4879.0  Rx     032A050F  0  
  1316)      4879.6  Rx     051D0510  8  8D F8 21 10 4F EA 11 21 
  1317)      4879.9  Rx     032A0510  0  
  1318)      4880.5  Rx     051D0511  8  8D F8 22 10 90 F8 88 10 
  1319)      4880.8  Rx     032A0511  0  
  1320)      4881.4  Rx     051D0512  8  8D F8 23 10 8D F8 24 90 
  1321)      4881.7  Rx     032A0512  0  
  1322)      4882.3  Rx     051D0513  8  B0 F8 86 10 8D F8 25 10 
  1323)      4882.6  Rx     032A0513  0  
  1324)      4883.2  Rx     051D0514  8  4F EA 11 21 8D F8 26 10 
  1325)      4883.5  Rx     032A0514  0  
  1326)      4884.1  Rx     051D0515  8  8D F8 28 90 8D F8 27 90 
  1327)      4884.4  Rx     032A0515  0  
  1328)      4885.0  Rx     051D0516  8  8D F8 29 90 90 F8 78 10 
  1329)      4885.3  Rx     032A0516  0  
  1330)      4885.9  Rx     051D0517  8  4A 46 FF 29 02 D0 8D F8 
  1331)      4886.2  Rx     032A0517  0  
  1332)      4886.8  Rx     051D0518  8  2A 10 02 E0 00 78 8D F8 
  1333)      4887.1  Rx     032A0518  0  
  1334)      4887.7  Rx     051D0519  8  2A 00 05 20 8D F8 2B 00 
  1335)      4888.0  Rx     032A0519  0  
  1336)      4888.6  Rx     051D051A  8  00 21 0B 92 8D F8 30 20 
  1337)      4888.9  Rx     032A051A  0  
  1338)      4889.5  Rx     051D051B  8  01 20 23 18 22 5C 5B 78 
  1339)      4889.8  Rx     032A051B  0  
  1340)      4890.4  Rx     051D051C  8  80 1C 01 EB 03 21 11 44 
  1341)      4890.7  Rx     032A051C  0  
  1342)      4891.3  Rx     051D051D  8  C0 B2 89 B2 31 28 F4 D3 
  1343)      4891.6  Rx     032A051D  0  
  1344)      4892.2  Rx     051D051E  8  8D F8 31 10 08 0A 8D F8 
  1345)      4892.5  Rx     032A051E  0  
  1346)      4893.1  Rx     051D051F  8  32 00 0D 20 8D F8 33 00 
  1347)      4893.4  Rx     032A051F  0  
  1348)      4894.0  Rx     051D0520  8  34 23 6A 46 00 21 28 68 
  1349)      4894.3  Rx     032A0520  0  
  1350)      4894.9  Rx     051D0521  8  0A F0 13 F8 68 68 20 F0 
  1351)      4895.2  Rx     032A0521  0  
  1352)      4895.8  Rx     051D0522  8  01 00 68 60 28 79 80 07 
  1353)      4896.1  Rx     032A0522  0  
  1354)      4896.7  Rx     051D0523  8  2B D5 59 20 8D F8 00 00 
  1355)      4897.0  Rx     032A0523  0  
  1356)      4897.6  Rx     051D0524  8  71 48 07 46 0E F0 20 FB 
  1357)      4897.9  Rx     032A0524  0  
  1358)      4898.5  Rx     051D0525  8  C2 B2 8D F8 01 20 39 46 
  1359)      4898.7  Rx     032A0525  0  
  1360)      4899.4  Rx     051D0526  8  A0 1C 0E F0 F5 FA 9D F8 
  1361)      4899.6  Rx     032A0526  0  
  1362)      4900.3  Rx     051D0527  8  01 00 40 1C C1 B2 60 1C 
  1363)      4900.6  Rx     032A0527  0  
  1364)      4901.2  Rx     051D0528  8  01 F0 F3 FE 9D F8 01 20 
  1365)      4901.5  Rx     032A0528  0  
  1366)      4902.1  Rx     051D0529  8  0D F1 02 01 50 54 9D F8 
  1367)      4902.4  Rx     032A0529  0  
  1368)      4903.0  Rx     051D052A  8  01 20 0D F1 03 00 0B 21 
  1369)      4903.3  Rx     032A052A  0  
  1370)      4903.9  Rx     051D052B  8  11 54 9D F8 01 30 6A 46 
  1371)      4904.2  Rx     032A052B  0  
  1372)      4904.8  Rx     051D052C  8  00 21 1B 1D 28 68 09 F0 
  1373)      4905.1  Rx     032A052C  0  
  1374)      4905.7  Rx     051D052D  8  E4 FF 68 68 20 F0 03 00 
  1375)      4906.0  Rx     032A052D  0  
  1376)      4906.6  Rx     051D052E  8  68 60 28 79 A8 46 40 07 
  1377)      4906.9  Rx     032A052E  0  
  1378)      4907.5  Rx     051D052F  8  7E D5 01 20 8A F8 00 00 
  1379)      4907.8  Rx     032A052F  0  
  1380)      4908.4  Rx     051D0530  8  57 20 8D F8 00 00 58 48 
  1381)      4908.7  Rx     032A0530  0  
  1382)      4909.3  Rx     051D0531  8  1E 26 30 38 0E F0 EC FA 
  1383)      4909.6  Rx     032A0531  0  
  1384)      4910.2  Rx     051D0532  8  55 49 02 46 30 39 E0 1C 
  1385)      4910.5  Rx     032A0532  0  
  1386)      4911.1  Rx     051D0533  8  0E F0 C2 FA 52 48 30 38 
  1387)      4911.4  Rx     032A0533  0  
  1388)      4912.0  Rx     051D0534  8  0E F0 E2 FA C0 1C C0 B2 
  1389)      4912.3  Rx     032A0534  0  
  1390)      4912.9  Rx     051D0535  8  21 25 25 54 40 1C C7 B2 
  1391)      4913.2  Rx     032A0535  0  
  1392)      4913.8  Rx     051D0536  8  4D 48 18 38 80 90 0E F0 
  1393)      4914.1  Rx     032A0536  0  
  1394)      4914.7  Rx     051D0537  8  D7 FA 02 46 E0 19 80 99 
  1395)      4915.0  Rx     032A0537  0  
  1396)      4915.6  Rx     051D0538  8  0E F0 AE FA 80 98 0E F0 
  1397)      4915.9  Rx     032A0538  0  
  1398)      4916.5  Rx     051D0539  8  CF FA 38 44 C0 B2 25 54 
  1399)      4916.8  Rx     032A0539  0  
  1400)      4917.4  Rx     051D053A  8  40 1C C7 B2 44 48 88 30 
  1401)      4917.6  Rx     032A053A  0  
  1402)      4918.3  Rx     051D053B  8  80 90 0E F0 C5 FA 02 46 
  1403)      4918.5  Rx     032A053B  0  
  1404)      4919.1  Rx     051D053C  8  E0 19 80 99 0E F0 9C FA 
  1405)      4919.4  Rx     032A053C  0  
  1406)      4920.0  Rx     051D053D  8  80 98 0E F0 BD FA 38 44 
  1407)      4920.3  Rx     032A053D  0  
  1408)      4920.9  Rx     051D053E  8  C0 B2 25 54 40 1C C7 B2 
  1409)      4921.2  Rx     032A053E  0  
  1410)      4921.9  Rx     051D053F  8  3C 48 0E F0 B5 FA 02 46 
  1411)      4922.1  Rx     032A053F  0  
  1412)      4922.7  Rx     051D0540  8  E0 19 3A 49 0E F0 8C FA 
  1413)      4923.0  Rx     032A0540  0  
  1414)      4923.6  Rx     051D0541  8  38 48 0E F0 AD FA 38 44 
  1415)      4923.9  Rx     032A0541  0  
  1416)      4924.5  Rx     051D0542  8  C0 B2 25 54 40 1C C7 B2 
  1417)      4924.8  Rx     032A0542  0  
  1418)      4925.4  Rx     051D0543  8  35 48 0E F0 A5 FA 02 46 
  1419)      4925.7  Rx     032A0543  0  
  1420)      4926.3  Rx     051D0544  8  E0 19 33 49 0E F0 7C FA 
  1421)      4926.6  Rx     032A0544  0  
  1422)      4927.2  Rx     051D0545  8  31 48 0E F0 9D FA 38 44 
  1423)      4927.5  Rx     032A0545  0  
  1424)      4928.1  Rx     051D0546  8  C0 B2 25 54 40 1C C7 B2 
  1425)      4928.4  Rx     032A0546  0  
  1426)      4929.0  Rx     051D0547  8  2E 48 0E F0 95 FA 02 46 
  1427)      4929.3  Rx     032A0547  0  
  1428)      4929.9  Rx     051D0548  8  E0 19 2C 49 0E F0 6C FA 
  1429)      4930.2  Rx     032A0548  0  
  1430)      4930.8  Rx     051D0549  8  2A 48 0E F0 8D FA 38 44 
  1431)      4931.0  Rx     032A0549  0  
  1432)      4931.7  Rx     051D054A  8  C0 B2 25 54 40 1C C7 B2 
  1433)      4931.9  Rx     032A054A  0  
  1434)      4932.6  Rx     051D054B  8  27 48 0E F0 85 FA 02 46 
  1435)      4932.9  Rx     032A054B  0  
  1436)      4933.5  Rx     051D054C  8  E0 19 25 49 0E F0 5C FA 
  1437)      4933.7  Rx     032A054C  0  
  1438)      4934.4  Rx     051D054D  8  23 48 0E F0 7D FA 38 44 
  1439)      4934.6  Rx     032A054D  0  
  1440)      4935.3  Rx     051D054E  8  C0 B2 25 54 40 1C 00 E0 
  1441)      4935.5  Rx     032A054E  0  
  1442)      4936.2  Rx     051D054F  8  8D E0 C7 B2 1F 48 0E F0 
  1443)      4936.5  Rx     032A054F  0  
  1444)      4937.1  Rx     051D0550  8  73 FA 02 46 E0 19 1D 49 
  1445)      4937.3  Rx     032A0550  0  
  1446)      4938.0  Rx     051D0551  8  0E F0 4A FA 1B 48 0E F0 
  1447)      4938.2  Rx     032A0551  0  
  1448)      4938.8  Rx     051D0552  8  6B FA 38 44 C0 B2 25 54 
  1449)      4939.1  Rx     032A0552  0  
  1450)      4939.7  Rx     051D0553  8  40 1C C7 B2 18 48 0E F0 
  1451)      4940.0  Rx     032A0553  0  
  1452)      4940.6  Rx     051D0554  8  63 FA 02 46 E0 19 16 49 
  1453)      4940.9  Rx     032A0554  0  
  1454)      4941.5  Rx     051D0555  8  0E F0 3A FA 14 48 0E F0 
  1455)      4941.8  Rx     032A0555  0  
  1456)      4942.4  Rx     051D0556  8  5B FA 38 44 C0 B2 25 54 
  1457)      4942.7  Rx     032A0556  0  
  1458)      4943.3  Rx     051D0557  8  40 1C C7 B2 11 48 0E F0 
  1459)      4943.5  Rx     032A0557  0  
  1460)      4944.2  Rx     051D0558  8  53 FA 02 46 E0 19 0F 49 
  1461)      4944.4  Rx     032A0558  0  
  1462)      4945.1  Rx     051D0559  8  0E F0 2A FA 0D 48 0E F0 
  1463)      4945.3  Rx     032A0559  0  
  1464)      4945.9  Rx     051D055A  8  4B FA 38 44 C0 B2 25 54 
  1465)      4946.2  Rx     032A055A  0  
  1466)      4946.9  Rx     051D055B  8  40 1C 15 E0 AC 00 00 20 
  1467)      4947.1  Rx     032A055B  0  
  1468)      4947.8  Rx     051D055C  8  B5 00 00 20 6C 12 00 20 
  1469)      4948.1  Rx     032A055C  0  
  1470)      4948.7  Rx     051D055D  8  8C 13 00 20 6C 11 00 20 
  1471)      4949.0  Rx     032A055D  0  
  1472)      4949.6  Rx     051D055E  8  4C 11 00 20 8C 11 00 20 
  1473)      4949.9  Rx     032A055E  0  
  1474)      4950.5  Rx     051D055F  8  2C 12 00 20 0C 12 00 20 
  1475)      4950.8  Rx     032A055F  0  
  1476)      4951.5  Rx     051D0560  8  4C 12 00 20 CC 11 00 20 
  1477)      4951.8  Rx     032A0560  0  
  1478)      4952.4  Rx     051D0561  8  C7 B2 7A 48 0E F0 2C FA 
  1479)      4952.6  Rx     032A0561  0  
  1480)      4953.3  Rx     051D0562  8  02 46 E0 19 77 49 0E F0 
  1481)      4953.5  Rx     032A0562  0  
  1482)      4954.2  Rx     051D0563  8  03 FA 76 48 0E F0 24 FA 
  1483)      4954.4  Rx     032A0563  0  
  1484)      4955.0  Rx     051D0564  8  38 44 C0 B2 25 54 40 1C 
  1485)      4955.3  Rx     032A0564  0  
  1486)      4955.9  Rx     051D0565  8  C7 B2 73 48 0E F0 1C FA 
  1487)      4956.2  Rx     032A0565  0  
  1488)      4956.8  Rx     051D0566  8  02 46 E0 19 70 49 0E F0 
  1489)      4957.1  Rx     032A0566  0  
  1490)      4957.7  Rx     051D0567  8  F3 F9 6F 48 0E F0 14 FA 
  1491)      4958.0  Rx     032A0567  0  
  1492)      4958.6  Rx     051D0568  8  38 44 C0 B2 25 54 40 1C 
  1493)      4958.9  Rx     032A0568  0  
  1494)      4959.5  Rx     051D0569  8  C0 B2 25 54 40 1C C0 B2 
  1495)      4959.8  Rx     032A0569  0  
  1496)      4960.4  Rx     051D056A  8  25 54 40 1C C0 B2 25 54 
  1497)      4960.7  Rx     032A056A  0  
  1498)      4961.3  Rx     051D056B  8  40 1C C5 B2 E8 1E 8D F8 
  1499)      4961.5  Rx     032A056B  0  
  1500)      4962.2  Rx     051D056C  8  01 00 68 1E C1 B2 8D F8 
  1501)      4962.4  Rx     032A056C  0  
  1502)      4963.0  Rx     051D056D  8  02 90 60 1C 01 F0 DD FD 
  1503)      4963.3  Rx     032A056D  0  
  1504)      4963.9  Rx     051D056E  8  60 55 6D 1C E8 B2 6A 46 
  1505)      4964.2  Rx     032A056E  0  
  1506)      4964.8  Rx     051D056F  8  04 F8 00 B0 40 1C C3 B2 
  1507)      4965.1  Rx     032A056F  0  
  1508)      4965.7  Rx     051D0570  8  00 21 45 46 D8 F8 00 00 
  1509)      4966.0  Rx     032A0570  0  
  1510)      4966.6  Rx     051D0571  8  09 F0 D3 FE 68 68 20 F0 
  1511)      4966.9  Rx     032A0571  0  
  1512)      4967.5  Rx     051D0572  8  07 00 68 60 00 E0 16 B1 
  1513)      4977.6  Rx     032A0572  0  
  1514)      4978.2  Rx     051D0573  8  76 1E F6 B2 01 E0 8A F8 
  1515)      4978.5  Rx     032A0573  0  
  1516)      4979.1  Rx     051D0574  8  00 90 0A 20 0C F0 D1 FB 
  1517)      4979.4  Rx     032A0574  0  
  1518)      4980.0  Rx     051D0575  8  A9 E5 2D E9 F0 41 04 46 
  1519)      4980.3  Rx     032A0575  0  
  1520)      4980.9  Rx     051D0576  8  00 78 55 28 23 D1 07 29 
  1521)      4981.1  Rx     032A0576  0  
  1522)      4981.8  Rx     051D0577  8  21 D1 04 21 60 1C 01 F0 
  1523)      4982.0  Rx     032A0577  0  
  1524)      4982.7  Rx     051D0578  8  B4 FD 61 79 88 42 1A D1 
  1525)      4983.0  Rx     032A0578  0  
  1526)      4983.6  Rx     051D0579  8  66 78 1E 22 4B 4B 00 25 
  1527)      4983.9  Rx     032A0579  0  
  1528)      4984.5  Rx     051D057A  8  01 21 4B 48 07 2E 12 D2 
  1529)      4984.8  Rx     032A057A  0  
  1530)      4985.4  Rx     051D057B  8  DF E8 06 F0 11 04 11 16 
  1531)      4985.7  Rx     032A057B  0  
  1532)      4986.3  Rx     051D057C  8  31 11 40 00 A2 78 D2 07 
  1533)      4986.6  Rx     032A057C  0  
  1534)      4987.2  Rx     051D057D  8  02 D0 80 F8 BB 10 01 E0 
  1535)      4987.5  Rx     032A057D  0  
  1536)      4988.0  Rx     051D057E  8  80 F8 BB 50 A2 78 92 07 
  1537)      4988.3  Rx     032A057E  0  
  1538)      4988.9  Rx     051D057F  8  03 D5 80 F8 BC 10 BD E8 
  1539)      4989.2  Rx     032A057F  0  
  1540)      4989.9  Rx     051D0580  8  F0 81 80 F8 BC 50 FA E7 
  1541)      4990.1  Rx     032A0580  0  
  1542)      4990.8  Rx     051D0581  8  80 F8 91 10 A6 78 3D 4C 
  1543)      5043.0  Rx     032A0581  0  
  1544)      5043.6  Rx     051D0582  8  4E B1 90 F8 90 50 ED 07 
  1545)      5043.9  Rx     032A0582  0  
  1546)      5044.5  Rx     051D0583  8  02 D1 80 F8 90 10 1A 70 
  1547)      5044.8  Rx     032A0583  0  
  1548)      5045.4  Rx     051D0584  8  20 78 40 08 07 E0 90 F8 
  1549)      5045.6  Rx     032A0584  0  
  1550)      5046.3  Rx     051D0585  8  90 10 C9 07 02 D0 80 F8 
  1551)      5046.6  Rx     032A0585  0  
  1552)      5047.2  Rx     051D0586  8  90 50 1A 70 20 78 BD E8 
  1553)      5047.5  Rx     032A0586  0  
  1554)      5048.1  Rx     051D0587  8  F0 41 02 F0 31 BC A1 78 
  1555)      5048.3  Rx     032A0587  0  
  1556)      5049.0  Rx     051D0588  8  90 F8 8E 40 04 F0 0F 04 
  1557)      5049.2  Rx     032A0588  0  
  1558)      5049.9  Rx     051D0589  8  A1 42 D8 D8 90 F8 8F 40 
  1559)      5050.1  Rx     032A0589  0  
  1560)      5050.7  Rx     051D058A  8  8C 42 D4 D0 80 F8 8F 10 
  1561)      5051.0  Rx     032A058A  0  
  1562)      5051.6  Rx     051D058B  8  1A 70 D0 E7 2A 48 41 68 
  1563)      5051.9  Rx     032A058B  0  
  1564)      5052.5  Rx     051D058C  8  41 F0 04 01 41 60 CA E7 
  1565)      5052.8  Rx     032A058C  0  
  1566)      5053.4  Rx     051D058D  8  1F B5 27 4D 23 4F 00 24 
  1567)      5053.7  Rx     032A058D  0  
  1568)      5054.3  Rx     051D058E  8  6E 46 C4 F1 10 03 32 19 
  1569)      5054.6  Rx     032A058E  0  
  1570)      5055.2  Rx     051D058F  8  00 21 28 68 09 F0 34 FE 
  1571)      5055.5  Rx     032A058F  0  
  1572)      5056.1  Rx     051D0590  8  C0 B2 21 18 CC B2 10 2C 
  1573)      5056.4  Rx     032A0590  0  
  1574)      5057.0  Rx     051D0591  8  0A D0 6C B1 A0 B1 0B E0 
  1575)      5057.3  Rx     032A0591  0  
  1576)      5057.9  Rx     051D0592  8  22 46 10 23 00 21 28 68 
  1577)      5058.1  Rx     032A0592  0  
  1578)      5058.7  Rx     051D0593  8  09 F0 26 FE C0 B2 00 E0 
  1579)      5059.0  Rx     032A0593  0  
  1580)      5059.6  Rx     051D0594  8  34 44 00 28 F4 D1 00 24 
  1581)      5059.9  Rx     032A0594  0  
  1582)      5060.6  Rx     051D0595  8  38 78 08 B1 40 1E 38 70 
  1583)      5060.9  Rx     032A0595  0  
  1584)      5061.5  Rx     051D0596  8  01 20 0C F0 4A FB DC E7 
  1585)      5061.8  Rx     032A0596  0  
  1586)      5062.4  Rx     051D0597  8  21 46 68 46 FF F7 75 FF 
  1587)      5062.7  Rx     032A0597  0  
  1588)      5063.3  Rx     051D0598  8  F1 E7 10 B5 11 A0 09 F0 
  1589)      5063.6  Rx     032A0598  0  
  1590)      5064.2  Rx     051D0599  8  43 FD 0F 4C 4F F4 16 51 
  1591)      5064.5  Rx     032A0599  0  
  1592)      5065.1  Rx     051D059A  8  20 60 41 64 81 6C 21 F0 
  1593)      5065.4  Rx     032A059A  0  
  1594)      5066.0  Rx     051D059B  8  0F 01 08 31 21 F0 F0 01 
  1595)      5066.3  Rx     032A059B  0  
  1596)      5066.9  Rx     051D059C  8  81 64 09 F0 82 FD 20 68 
  1597)      5067.2  Rx     032A059C  0  
  1598)      5067.7  Rx     051D059D  8  BD E8 10 40 4F F4 80 71 
  1599)      5068.0  Rx     032A059D  0  
  1600)      5068.6  Rx     051D059E  8  09 F0 95 BD AC 11 00 20 
  1601)      5068.9  Rx     032A059E  0  
  1602)      5069.5  Rx     051D059F  8  EC 11 00 20 B6 00 00 20 
  1603)      5069.8  Rx     032A059F  0  
  1604)      5070.4  Rx     051D05A0  8  6C 12 00 20 4C 13 00 20 
  1605)      5070.7  Rx     032A05A0  0  
  1606)      5071.3  Rx     051D05A1  8  AC 00 00 20 75 61 72 74 
  1607)      5071.6  Rx     032A05A1  0  
  1608)      5072.3  Rx     051D05A2  8  32 00 00 00 10 B5 02 F0 
  1609)      5072.5  Rx     032A05A2  0  
  1610)      5073.2  Rx     051D05A3  8  28 FB 00 21 FC A0 0A F0 
  1611)      5073.4  Rx     032A05A3  0  
  1612)      5074.1  Rx     051D05A4  8  7F F8 FE 4C 00 22 11 46 
  1613)      5074.3  Rx     032A05A4  0  
  1614)      5075.0  Rx     051D05A5  8  A0 61 FD A0 09 F0 52 FF 
  1615)      5075.3  Rx     032A05A5  0  
  1616)      5075.9  Rx     051D05A6  8  00 22 E0 60 11 46 FD A0 
  1617)      5076.1  Rx     032A05A6  0  
  1618)      5076.8  Rx     051D05A7  8  09 F0 4C FF 00 22 20 61 
  1619)      5077.0  Rx     032A05A7  0  
  1620)      5077.7  Rx     051D05A8  8  11 46 FE A0 09 F0 46 FF 
  1621)      5078.0  Rx     032A05A8  0  
  1622)      5078.6  Rx     051D05A9  8  FF 49 60 61 4F F4 80 72 
  1623)      5078.9  Rx     032A05A9  0  
  1624)      5079.5  Rx     051D05AA  8  A1 F1 0C 00 0D F0 D2 FE 
  1625)      5079.8  Rx     032A05AA  0  
  1626)      5080.4  Rx     051D05AB  8  FC 49 4F F4 10 72 A1 F1 
  1627)      5080.6  Rx     032A05AB  0  
  1628)      5081.2  Rx     051D05AC  8  0C 00 0D F0 CB FE F9 49 
  1629)      5081.5  Rx     032A05AC  0  
  1630)      5082.1  Rx     051D05AD  8  F9 48 28 39 01 63 01 F5 
  1631)      5082.4  Rx     032A05AD  0  
  1632)      5083.0  Rx     051D05AE  8  1A 71 41 63 10 BD 2D E9 
  1633)      5083.3  Rx     032A05AE  0  
  1634)      5084.0  Rx     051D05AF  8  F0 41 07 46 CE 08 01 F0 
  1635)      5084.3  Rx     032A05AF  0  
  1636)      5084.9  Rx     051D05B0  8  07 00 14 46 5F EA 00 08 
  1637)      5085.2  Rx     032A05B0  0  
  1638)      5085.8  Rx     051D05B1  8  01 D0 76 1C 01 E0 4F F0 
  1639)      5086.1  Rx     032A05B1  0  
  1640)      5086.7  Rx     051D05B2  8  08 08 11 B9 01 26 4F F0 
  1641)      5087.0  Rx     032A05B2  0  
  1642)      5087.6  Rx     051D05B3  8  00 08 20 68 10 22 20 F4 
  1643)      5087.9  Rx     032A05B3  0  
  1644)      5088.5  Rx     051D05B4  8  E0 20 00 F5 80 20 20 60 
  1645)      5088.8  Rx     032A05B4  0  
  1646)      5089.4  Rx     051D05B5  8  01 20 60 60 E6 48 21 72 
  1647)      5089.7  Rx     032A05B5  0  
  1648)      5090.3  Rx     051D05B6  8  21 46 0C 38 0D F0 E0 FE 
  1649)      5090.6  Rx     032A05B6  0  
  1650)      5091.2  Rx     051D05B7  8  00 25 25 E0 00 20 60 70 
  1651)      5091.5  Rx     032A05B7  0  
  1652)      5092.1  Rx     051D05B8  8  70 1E 25 70 85 42 20 68 
  1653)      5092.4  Rx     032A05B8  0  
  1654)      5093.0  Rx     051D05B9  8  20 F4 E0 20 0A D1 00 F5 
  1655)      5093.3  Rx     032A05B9  0  
  1656)      5094.0  Rx     051D05BA  8  C0 20 C4 E9 00 08 42 46 
  1657)      5094.2  Rx     032A05BA  0  
  1658)      5094.9  Rx     051D05BB  8  39 46 04 F1 08 00 0E F0 
  1659)      5095.1  Rx     032A05BB  0  
  1660)      5095.8  Rx     051D05BC  8  9F F8 08 E0 00 F5 A0 20 
  1661)      5096.0  Rx     032A05BC  0  
  1662)      5096.6  Rx     051D05BD  8  20 60 08 20 60 60 38 68 
  1663)      5096.9  Rx     032A05BD  0  
  1664)      5097.5  Rx     051D05BE  8  A0 60 78 68 E0 60 D4 48 
  1665)      5097.8  Rx     032A05BE  0  
  1666)      5098.4  Rx     051D05BF  8  10 22 21 46 0C 38 0D F0 
  1667)      5098.7  Rx     032A05BF  0  
  1668)      5099.3  Rx     051D05C0  8  BB FE 6D 1C ED B2 08 37 
  1669)      5099.6  Rx     032A05C0  0  
  1670)      5100.2  Rx     051D05C1  8  B5 42 D7 D3 BD E8 F0 81 
  1671)      5100.5  Rx     032A05C1  0  
  1672)      5101.1  Rx     051D05C2  8  4F F0 00 0B 98 B0 DF F8 
  1673)      5101.4  Rx     032A05C2  0  
  1674)      5102.0  Rx     051D05C3  8  30 83 CD F8 54 B0 07 A8 
  1675)      5102.3  Rx     032A05C3  0  
  1676)      5102.9  Rx     051D05C4  8  A8 F1 3C 08 01 90 08 F1 
  1677)      5103.2  Rx     032A05C4  0  
  1678)      5103.8  Rx     051D05C5  8  04 00 16 90 CA 48 CD F8 
  1679)      5104.1  Rx     032A05C5  0  
  1680)      5104.7  Rx     051D05C6  8  50 B0 00 F1 48 01 12 91 
  1681)      5105.0  Rx     032A05C6  0  
  1682)      5105.6  Rx     051D05C7  8  18 31 11 91 58 31 10 91 
  1683)      5105.9  Rx     032A05C7  0  
  1684)      5106.5  Rx     051D05C8  8  88 39 C4 4F 18 30 0F 91 
  1685)      5106.8  Rx     032A05C8  0  
  1686)      5107.4  Rx     051D05C9  8  D9 46 5E 46 CD F8 4C B0 
  1687)      5107.7  Rx     032A05C9  0  
  1688)      5108.3  Rx     051D05CA  8  DA 46 00 90 BE 48 90 F8 
  1689)      5108.6  Rx     032A05CA  0  
  1690)      5109.2  Rx     051D05CB  8  3C 10 22 29 03 D1 90 F8 
  1691)      5109.5  Rx     032A05CB  0  
  1692)      5110.1  Rx     051D05CC  8  3C 00 42 28 03 D0 00 21 
  1693)      5110.4  Rx     032A05CC  0  
  1694)      5111.0  Rx     051D05CD  8  B9 48 09 F0 37 F9 5C E0 
  1695)      5111.3  Rx     032A05CD  0  
  1696)      5111.9  Rx     051D05CE  8  04 98 00 28 FB D0 03 9C 
  1697)      5112.2  Rx     032A05CE  0  
  1698)      5112.8  Rx     051D05CF  8  17 94 C4 F3 04 65 02 2D 
  1699)      5113.1  Rx     032A05CF  0  
  1700)      5113.7  Rx     051D05D0  8  02 D1 A6 49 32 20 08 70 
  1701)      5114.0  Rx     032A05D0  0  
  1702)      5114.6  Rx     051D05D1  8  C4 F3 02 40 08 28 EE D2 
  1703)      5114.9  Rx     032A05D1  0  
  1704)      5115.5  Rx     051D05D2  8  DF E8 00 F0 04 F0 04 4B 
  1705)      5115.8  Rx     032A05D2  0  
  1706)      5116.4  Rx     051D05D3  8  EF EE ED EC 0B 98 E1 B2 
  1707)      5116.7  Rx     032A05D3  0  
  1708)      5117.3  Rx     051D05D4  8  20 F0 F8 50 00 F1 40 70 
  1709)      5117.6  Rx     032A05D4  0  
  1710)      5118.2  Rx     051D05D5  8  65 F3 D7 40 20 F4 E0 20 
  1711)      5118.5  Rx     032A05D5  0  
  1712)      5119.1  Rx     051D05D6  8  00 F5 00 30 0B 90 C4 F3 
  1713)      5119.4  Rx     032A05D6  0  
  1714)      5120.0  Rx     051D05D7  8  07 20 8D F8 2D 00 8D F8 
  1715)      5120.3  Rx     032A05D7  0  
  1716)      5120.9  Rx     051D05D8  8  2C 10 0B 9A CD F8 30 A0 
  1717)      5121.2  Rx     032A05D8  0  
  1718)      5121.8  Rx     051D05D9  8  22 F0 60 42 0B 92 52 46 
  1719)      5122.1  Rx     032A05D9  0  
  1720)      5122.7  Rx     051D05DA  8  60 28 74 D0 08 DC 31 28 
  1721)      5123.0  Rx     032A05DA  0  
  1722)      5123.6  Rx     051D05DB  8  0F D0 32 28 26 D0 34 28 
  1723)      5123.9  Rx     032A05DB  0  
  1724)      5124.5  Rx     051D05DC  8  6E D0 35 28 C3 D1 67 E2 
  1725)      5124.8  Rx     032A05DC  0  
  1726)      5125.4  Rx     051D05DD  8  63 28 6A D0 64 28 69 D0 
  1727)      5125.6  Rx     032A05DD  0  
  1728)      5126.3  Rx     051D05DE  8  99 28 68 D0 AA 28 BA D1 
  1729)      5126.5  Rx     032A05DE  0  
  1730)      5127.1  Rx     051D05DF  8  81 E2 14 F0 FF 0F B6 D1 
  1731)      5127.4  Rx     032A05DF  0  
  1732)      5128.1  Rx     051D05E0  8  01 20 87 F8 89 00 05 20 
  1733)      5128.3  Rx     032A05E0  0  
  1734)      5128.9  Rx     051D05E1  8  13 90 9D F8 1C 00 9D F8 
  1735)      5129.2  Rx     032A05E1  0  
  1736)      5129.8  Rx     051D05E2  8  1D 10 00 EB 01 20 A7 F8 
  1737)      5130.1  Rx     032A05E2  0  
  1738)      5130.7  Rx     051D05E3  8  86 00 9D F8 1E 00 87 F8 
  1739)      5131.0  Rx     032A05E3  0  
  1740)      5131.6  Rx     051D05E4  8  88 00 01 F0 44 F8 01 F0 
  1741)      5131.9  Rx     032A05E4  0  
  1742)      5132.5  Rx     051D05E5  8  8E F8 1B E2 06 29 9E D2 
  1743)      5132.9  Rx     032A05E5  0  
  1744)      5133.5  Rx     051D05E6  8  DF E8 01 F0 03 20 4A 4E 
  1745)      5143.5  Rx     032A05E6  0  
  1746)      5144.1  Rx     051D05E7  8  64 6B 9D F8 1C 00 38 70 
  1747)      5144.4  Rx     032A05E7  0  
  1748)      5145.0  Rx     051D05E8  8  9D F8 1D 00 9D F8 1E 10 
  1749)      5145.3  Rx     032A05E8  0  
  1750)      5145.9  Rx     051D05E9  8  00 EB 01 20 38 82 9D F8 
  1751)      5146.2  Rx     032A05E9  0  
  1752)      5146.9  Rx     051D05EA  8  1F 00 87 F8 22 00 9D F8 
  1753)      5147.1  Rx     032A05EA  0  
  1754)      5147.8  Rx     051D05EB  8  20 00 9D F8 21 10 00 EB 
  1755)      5148.0  Rx     032A05EB  0  
  1756)      5148.7  Rx     051D05EC  8  01 20 38 84 9D F8 22 00 
  1757)      5149.0  Rx     032A05EC  0  
  1758)      5149.6  Rx     051D05ED  8  9D F8 23 10 00 EB 01 20 
  1759)      5149.9  Rx     032A05ED  0  
  1760)      5150.5  Rx     051D05EE  8  78 81 F7 E1 9D F8 1C 00 
  1761)      5150.7  Rx     032A05EE  0  
  1762)      5151.3  Rx     051D05EF  8  9D F8 1D 10 00 EB 01 20 
  1763)      5151.6  Rx     032A05EF  0  
  1764)      5152.2  Rx     051D05F0  8  80 B2 F8 80 9D F8 1E 10 
  1765)      5152.5  Rx     032A05F0  0  
  1766)      5153.2  Rx     051D05F1  8  9D F8 1F 20 01 EB 02 21 
  1767)      5153.5  Rx     032A05F1  0  
  1768)      5154.1  Rx     051D05F2  8  B9 80 9D F8 20 10 9D F8 
  1769)      5154.4  Rx     032A05F2  0  
  1770)      5155.0  Rx     051D05F3  8  21 20 01 EB 02 21 F9 60 
  1771)      5155.3  Rx     032A05F3  0  
  1772)      5155.9  Rx     051D05F4  8  9D F8 22 10 B9 77 9D F8 
  1773)      5156.2  Rx     032A05F4  0  
  1774)      5156.8  Rx     051D05F5  8  23 10 F9 77 B7 F8 A8 10 
  1775)      5157.1  Rx     032A05F5  0  
  1776)      5157.7  Rx     051D05F6  8  81 42 01 D2 A7 F8 A8 00 
  1777)      5158.0  Rx     032A05F6  0  
  1778)      5158.6  Rx     051D05F7  8  01 F0 5F F8 D2 E1 D2 E1 
  1779)      5158.9  Rx     032A05F7  0  
  1780)      5159.5  Rx     051D05F8  8  2B E0 03 E2 6A E0 27 E2 
  1781)      5159.8  Rx     032A05F8  0  
  1782)      5160.4  Rx     051D05F9  8  9D F8 1C 00 B8 74 C9 E1 
  1783)      5160.7  Rx     032A05F9  0  
  1784)      5161.3  Rx     051D05FA  8  9D F8 1C 00 9D F8 1D 10 
  1785)      5161.6  Rx     032A05FA  0  
  1786)      5162.2  Rx     051D05FB  8  00 EB 01 20 B8 83 9D F8 
  1787)      5162.5  Rx     032A05FB  0  
  1788)      5163.2  Rx     051D05FC  8  1E 00 9D F8 1F 10 00 EB 
  1789)      5163.5  Rx     032A05FC  0  
  1790)      5164.1  Rx     051D05FD  8  01 20 B8 82 9D F8 20 00 
  1791)      5164.4  Rx     032A05FD  0  
  1792)      5165.0  Rx     051D05FE  8  9D F8 21 10 00 EB 01 20 
  1793)      5165.3  Rx     032A05FE  0  
  1794)      5165.9  Rx     051D05FF  8  78 83 B3 E1 9D F8 1C 00 
  1795)      5166.2  Rx     032A05FF  0  
  1796)      5166.8  Rx     051D0600  8  00 28 92 D1 00 F0 C6 FF 
  1797)      5167.1  Rx     032A0600  0  
  1798)      5167.7  Rx     051D0601  8  AC E1 9D F8 1C 00 9D F8 
  1799)      5220.0  Rx     032A0601  0  
  1800)      5220.6  Rx     051D0602  8  1D 10 00 EB 01 20 38 81 
  1801)      5220.8  Rx     032A0602  0  
  1802)      5221.4  Rx     051D0603  8  A4 E1 97 F8 81 00 40 F0 
  1803)      5221.7  Rx     032A0603  0  
  1804)      5222.4  Rx     051D0604  8  01 00 87 F8 81 00 3C 20 
  1805)      5222.7  Rx     032A0604  0  
  1806)      5223.3  Rx     051D0605  8  15 90 14 F0 FF 00 02 D0 
  1807)      5223.6  Rx     032A0605  0  
  1808)      5224.3  Rx     051D0606  8  01 28 9E D1 1F E0 9D F8 
  1809)      5224.5  Rx     032A0606  0  
  1810)      5225.2  Rx     051D0607  8  1C 00 9D F8 1D 10 00 EB 
  1811)      5225.5  Rx     032A0607  0  
  1812)      5226.1  Rx     051D0608  8  01 20 F8 85 9D F8 1E 00 
  1813)      5226.4  Rx     032A0608  0  
  1814)      5227.0  Rx     051D0609  8  9D F8 1F 10 00 EB 01 20 
  1815)      5227.3  Rx     032A0609  0  
  1816)      5227.9  Rx     051D060A  8  78 86 9D F8 20 00 87 F8 
  1817)      5228.2  Rx     032A060A  0  
  1818)      5228.8  Rx     051D060B  8  78 00 9D F8 21 00 87 F8 
  1819)      5229.1  Rx     032A060B  0  
  1820)      5229.7  Rx     051D060C  8  79 00 9D F8 22 00 87 F8 
  1821)      5230.0  Rx     032A060C  0  
  1822)      5230.6  Rx     051D060D  8  80 00 7B E1 F2 E3 07 E3 
  1823)      5230.9  Rx     032A060D  0  
  1824)      5231.5  Rx     051D060E  8  A9 E2 78 E2 DC E1 9D F8 
  1825)      5231.8  Rx     032A060E  0  
  1826)      5232.4  Rx     051D060F  8  1C 00 9D F8 1D 10 00 EB 
  1827)      5232.7  Rx     032A060F  0  
  1828)      5233.4  Rx     051D0610  8  01 20 B8 85 9D F8 1E 00 
  1829)      5233.6  Rx     032A0610  0  
  1830)      5234.2  Rx     051D0611  8  9D F8 1F 10 00 EB 01 20 
  1831)      5234.5  Rx     032A0611  0  
  1832)      5235.1  Rx     051D0612  8  B8 62 9D F8 20 00 A7 F8 
  1833)      5235.4  Rx     032A0612  0  
  1834)      5236.1  Rx     051D0613  8  74 00 63 E1 97 F8 81 00 
  1835)      5236.3  Rx     032A0613  0  
  1836)      5237.0  Rx     051D0614  8  40 F0 02 00 87 F8 81 00 
  1837)      5237.2  Rx     032A0614  0  
  1838)      5237.9  Rx     051D0615  8  FA 20 14 90 0A 29 85 D2 
  1839)      5238.1  Rx     032A0615  0  
  1840)      5238.8  Rx     051D0616  8  DF E8 01 F0 05 15 54 71 
  1841)      5239.0  Rx     032A0616  0  
  1842)      5239.6  Rx     051D0617  8  90 B1 D2 F6 F4 F3 9D F8 
  1843)      5239.9  Rx     032A0617  0  
  1844)      5240.6  Rx     051D0618  8  1C 00 87 F8 26 00 9D F8 
  1845)      5240.9  Rx     032A0618  0  
