;$FILEVERSION=1.1
;$STARTTIME=44401.6835487847
;
;   Start time: 24/07/2021 16:24:18.615.0
;   Generated by PCAN-View v4.3.4.615
;
;   Message Number
;   |         Time Offset (ms)
;   |         |        Type
;   |         |        |        ID (hex)
;   |         |        |        |     Data Length
;   |         |        |        |     |   Data Bytes (hex) ...
;   |         |        |        |     |   |
;---+--   ----+----  --+--  ----+---  +  -+ -- -- -- -- -- -- --
     1)         3.0  Rx     01F83100  4  EE 02 00 E2 
     2)        14.5  Rx     01F83100  4  EE 02 00 E3 
     3)        23.4  Rx     03106300  4  05 00 01 01 
     4)        26.6  Rx     01F83100  4  EE 02 00 E4 
     5)        38.0  Rx     01F83100  4  EE 02 00 E5 
     6)        49.4  Rx     01F83100  4  EE 02 00 E6 
     7)        60.3  Rx     02F83202  1  00 
     8)        61.0  Rx     01F83100  4  EE 02 00 E7 
     9)        72.9  Rx     01F83100  4  EE 02 00 E8 
    10)        84.3  Rx     01F83100  4  EE 02 00 E9 
    11)        95.7  Rx     01F83100  4  EE 02 00 EA 
    12)       107.1  Rx     01F83100  4  EE 02 00 EB 
    13)       119.2  Rx     01F83100  4  EE 02 00 EC 
    14)       123.4  Rx     03106300  4  05 00 01 01 
    15)       130.6  Rx     01F83100  4  EE 02 00 ED 
    16)       142.1  Rx     01F83100  4  EE 02 00 EE 
    17)       153.4  Rx     01F83100  4  EE 02 00 EF 
    18)       161.0  Rx     02F83201  8  00 00 00 00 F5 14 48 48 
    19)       161.4  Rx     02F83202  1  00 
    20)       165.5  Rx     01F83100  4  EE 02 00 F0 
    21)       177.0  Rx     01F83100  4  EE 02 00 F1 
    22)       188.3  Rx     01F83100  4  EE 02 00 F2 
    23)       199.8  Rx     01F83100  4  EE 02 00 F3 
    24)       211.9  Rx     01F83100  4  EE 02 00 F4 
    25)       223.2  Rx     01F83100  4  EE 02 00 F5 
    26)       231.1  Rx     02FF1200  1  00 
    27)       234.7  Rx     01F83100  4  EE 02 00 F6 
    28)       246.1  Rx     01F83100  4  EE 02 00 F7 
    29)       253.4  Rx     03106300  4  05 00 01 01 
    30)       258.2  Rx     01F83100  4  EE 02 00 F8 
    31)       261.2  Rx     02F83202  1  00 
    32)       269.6  Rx     01F83100  4  EE 02 00 F9 
    33)       281.0  Rx     01F83100  4  EE 02 00 FA 
    34)       292.4  Rx     01F83100  4  EE 02 00 FB 
    35)       304.5  Rx     01F83100  4  EE 02 00 FC 
    36)       315.9  Rx     01F83100  4  EE 02 00 FD 
    37)       327.3  Rx     01F83100  4  EE 02 00 FE 
    38)       338.7  Rx     01F83100  4  EE 02 00 FF 
    39)       350.8  Rx     01F83100  4  EE 02 00 00 
    40)       353.5  Rx     03106300  4  05 00 01 01 
    41)       361.6  Rx     02F83202  1  00 
    42)       362.4  Rx     01F83100  4  EE 02 00 01 
    43)       373.7  Rx     01F83100  4  EE 02 00 02 
    44)       379.1  Rx     05F83501  1  00 
    45)       385.1  Rx     01F83100  4  EE 02 00 03 
    46)       397.1  Rx     01F83100  4  EE 02 00 04 
    47)       408.6  Rx     01F83100  4  EE 02 00 05 
    48)       420.0  Rx     01F83100  4  EE 02 00 06 
    49)       431.4  Rx     01F83100  4  EE 02 00 07 
    50)       442.2  Rx     02F83201  8  00 00 00 00 F0 14 48 48 
    51)       443.0  Rx     01F83100  4  EE 02 00 08 
    52)       453.5  Rx     03106300  4  05 00 01 01 
    53)       455.0  Rx     01F83100  4  EE 02 00 09 
    54)       462.1  Rx     02F83205  2  00 00 
    55)       462.5  Rx     02F83202  1  00 
    56)       466.4  Rx     01F83100  4  EE 02 00 0A 
    57)       477.8  Rx     01F83100  4  EE 02 00 0B 
    58)       489.8  Rx     01F83100  4  EE 02 00 0C 
    59)       501.3  Rx     01F83100  4  EE 02 00 0D 
    60)       512.6  Rx     01F83100  4  EE 02 00 0E 
    61)       524.1  Rx     01F83100  4  EE 02 00 0F 
    62)       536.2  Rx     01F83100  4  EE 02 00 10 
    63)       547.5  Rx     01F83100  4  EE 02 00 11 
    64)       553.4  Rx     03106300  4  05 00 01 01 
    65)       559.0  Rx     01F83100  4  EE 02 00 12 
    66)       562.5  Rx     02F83202  1  00 
    67)       570.4  Rx     01F83100  4  EE 02 00 13 
    68)       582.5  Rx     01F83100  4  EE 02 00 14 
    69)       593.9  Rx     01F83100  4  EE 02 00 15 
    70)       605.3  Rx     01F83100  4  EE 02 00 16 
    71)       612.9  Rx     02F83203  6  70 17 D0 01 1A 09 
    72)       616.7  Rx     01F83100  4  EE 02 00 17 
    73)       628.8  Rx     01F83100  4  EE 02 00 18 
    74)       640.2  Rx     01F83100  4  EE 02 00 19 
    75)       651.6  Rx     01F83100  4  EE 02 00 1A 
    76)       653.4  Rx     03106300  4  05 00 01 01 
    77)       663.0  Rx     01F83100  4  EE 02 00 1B 
    78)       663.4  Rx     02F83202  1  00 
    79)       675.1  Rx     01F83100  4  EE 02 00 1C 
    80)       686.5  Rx     01F83100  4  EE 02 00 1D 
    81)       697.9  Rx     01F83100  4  EE 02 00 1E 
    82)       709.4  Rx     01F83100  4  EE 02 00 1F 
    83)       721.4  Rx     01F83100  4  EE 02 00 20 
    84)       723.5  Rx     02F83201  8  00 00 00 00 F3 14 48 48 
    85)       723.8  Rx     02FF1200  1  00 
    86)       732.9  Rx     01F83100  4  EE 02 00 21 
    87)       744.3  Rx     01F83100  4  EE 02 00 22 
    88)       755.7  Rx     01F83100  4  EE 02 00 23 
    89)       763.4  Rx     02F83202  1  00 
    90)       763.7  Rx     02F83205  2  00 00 
    91)       767.8  Rx     01F83100  4  EE 02 00 24 
    92)       779.2  Rx     01F83100  4  EE 02 00 25 
    93)       783.4  Rx     03106300  4  05 00 01 01 
    94)       790.7  Rx     01F83100  4  EE 02 00 26 
    95)       802.0  Rx     01F83100  4  EE 02 00 27 
    96)       814.1  Rx     01F83100  4  EE 02 00 28 
    97)       825.5  Rx     01F83100  4  EE 02 00 29 
    98)       836.9  Rx     01F83100  4  EE 02 00 2A 
    99)       848.3  Rx     01F83100  4  EE 02 00 2B 
   100)       860.4  Rx     01F83100  4  EE 02 00 2C 
   101)       863.8  Rx     02F83202  1  00 
   102)       871.8  Rx     01F83100  4  EE 02 00 2D 
   103)       883.2  Rx     01F83100  4  EE 02 00 2E 
   104)       883.7  Rx     03106300  4  05 00 01 01 
   105)       884.0  Rx     03106303  1  09 
   106)       894.7  Rx     01F83100  4  EE 02 00 2F 
   107)       906.8  Rx     01F83100  4  EE 02 00 30 
   108)       918.2  Rx     01F83100  4  EE 02 00 31 
   109)       929.6  Rx     01F83100  4  EE 02 00 32 
   110)       941.0  Rx     01F83100  4  EE 02 00 33 
   111)       953.1  Rx     01F83100  4  EE 02 00 34 
   112)       964.3  Rx     02F83202  1  00 
   113)       964.7  Rx     01F83100  4  EE 02 00 35 
   114)       975.9  Rx     01F83100  4  EE 02 00 36 
   115)       983.5  Rx     03106300  4  05 00 01 01 
   116)       987.4  Rx     01F83100  4  EE 02 00 37 
   117)       999.4  Rx     01F83100  4  EE 02 00 38 
   118)      1004.7  Rx     02F83201  8  00 00 00 00 F5 14 48 48 
   119)      1010.8  Rx     01F83100  4  EE 02 00 39 
   120)      1022.3  Rx     01F83100  4  EE 02 00 3A 
   121)      1033.7  Rx     01F83100  4  EE 02 00 3B 
   122)      1045.7  Rx     01F83100  4  EE 02 00 3C 
   123)      1057.1  Rx     01F83100  4  EE 02 00 3D 
   124)      1064.9  Rx     02F83203  6  70 17 D0 01 1A 09 
   125)      1065.2  Rx     02F83202  1  00 
   126)      1068.6  Rx     01F83100  4  EE 02 00 3E 
   127)      1080.0  Rx     01F83100  4  EE 02 00 3F 
   128)      1083.5  Rx     03106300  4  05 00 01 01 
   129)      1092.1  Rx     01F83100  4  EE 02 00 40 
   130)      1103.5  Rx     01F83100  4  EE 02 00 41 
   131)      1114.9  Rx     01F83100  4  EE 02 00 42 
   132)      1126.3  Rx     01F83100  4  EE 02 00 43 
   133)      1138.4  Rx     01F83100  4  EE 02 00 44 
   134)      1149.8  Rx     01F83100  4  EE 02 00 45 
   135)      1161.2  Rx     01F83100  4  EE 02 00 46 
   136)      1165.1  Rx     02F83202  1  00 
   137)      1172.6  Rx     01F83100  4  EE 02 00 47 
   138)      1184.7  Rx     01F83100  4  EE 02 00 48 
   139)      1196.1  Rx     01F83100  4  EE 02 00 49 
   140)      1207.5  Rx     01F83100  4  EE 02 00 4A 
   141)      1213.4  Rx     03106300  4  05 00 01 01 
   142)      1215.3  Rx     02FF1200  1  00 
   143)      1219.0  Rx     01F83100  4  EE 02 00 4B 
   144)      1231.0  Rx     01F83100  4  EE 02 00 4C 
   145)      1242.5  Rx     01F83100  4  EE 02 00 4D 
   146)      1253.9  Rx     01F83100  4  EE 02 00 4E 
   147)      1265.3  Rx     01F83100  4  EE 02 00 4F 
   148)      1265.6  Rx     02F83202  1  00 
   149)      1277.4  Rx     01F83100  4  EE 02 00 50 
   150)      1285.9  Rx     02F83201  8  00 00 00 00 F3 14 48 48 
   151)      1288.8  Rx     01F83100  4  EE 02 00 51 
   152)      1300.2  Rx     01F83100  4  EE 02 00 52 
   153)      1311.6  Rx     01F83100  4  EE 02 00 53 
   154)      1313.6  Rx     03106300  4  05 00 01 01 
   155)      1323.7  Rx     01F83100  4  EE 02 00 54 
   156)      1335.1  Rx     01F83100  4  EE 02 00 55 
   157)      1346.5  Rx     01F83100  4  EE 02 00 56 
   158)      1357.9  Rx     01F83100  4  EE 02 00 57 
   159)      1366.0  Rx     02F83205  2  00 00 
   160)      1366.3  Rx     02F83202  1  00 
   161)      1370.0  Rx     01F83100  4  EE 02 00 58 
   162)      1381.4  Rx     01F83100  4  EE 02 00 59 
   163)      1392.9  Rx     01F83100  4  EE 02 00 5A 
   164)      1395.8  Rx     05F83501  1  00 
   165)      1404.3  Rx     01F83100  4  EE 02 00 5B 
   166)      1413.6  Rx     03106300  4  05 00 01 01 
   167)      1416.4  Rx     01F83100  4  EE 02 00 5C 
   168)      1427.8  Rx     01F83100  4  EE 02 00 5D 
   169)      1439.2  Rx     01F83100  4  EE 02 00 5E 
   170)      1450.6  Rx     01F83100  4  EE 02 00 5F 
   171)      1462.7  Rx     01F83100  4  EE 02 00 60 
   172)      1466.4  Rx     02F83202  1  00 
   173)      1474.1  Rx     01F83100  4  EE 02 00 61 
   174)      1476.0  Tx     05113200  0  
   175)      1485.5  Rx     01F83100  4  EE 02 00 62 
   176)      1497.0  Rx     01F83100  4  EE 02 00 63 
   177)      1509.0  Rx     01F83100  4  EE 02 00 64 
   178)      1513.6  Rx     03106300  4  05 00 01 01 
   179)      1516.9  Rx     02F83203  6  70 17 D0 01 1A 09 
   180)      1520.5  Rx     01F83100  4  EE 02 00 65 
   181)      1531.9  Rx     01F83100  4  EE 02 00 66 
   182)      1543.3  Rx     01F83100  4  EE 02 00 67 
   183)      1554.7  Rx     01F83100  4  EE 02 00 68 
   184)      1566.8  Rx     01F83100  4  EE 02 00 69 
   185)      1567.1  Rx     02F83202  1  00 
   186)      1578.2  Rx     01F83100  4  EE 02 00 6A 
   187)      1589.6  Rx     01F83100  4  EE 02 00 6B 
   188)      1601.7  Rx     01F83100  4  EE 02 00 6C 
   189)      1613.1  Rx     01F83100  4  EE 02 00 6D 
   190)      1613.6  Rx     03106300  4  05 00 01 01 
   191)      1624.6  Rx     01F83100  4  EE 02 00 6E 
   192)      1636.0  Rx     01F83100  4  EE 02 00 6F 
   193)      1648.0  Rx     01F83100  4  EE 02 00 70 
   194)      1659.4  Rx     01F83100  4  EE 02 00 71 
   195)      1667.4  Rx     02F83205  2  00 00 
   196)      1667.7  Rx     02F83202  1  00 
   197)      1670.9  Rx     01F83100  4  EE 02 00 72 
   198)      1682.3  Rx     01F83100  4  EE 02 00 73 
   199)      1693.7  Rx     01F83100  4  EE 02 00 74 
   200)      1705.8  Rx     01F83100  4  EE 02 00 75 
   201)      1707.5  Rx     02FF1200  1  00 
   202)      1717.2  Rx     01F83100  4  EE 02 00 76 
   203)      1728.6  Rx     01F83100  4  EE 02 00 77 
   204)      1733.6  Rx     03106300  4  05 00 01 01 
   205)      1740.1  Rx     01F83100  4  EE 02 00 78 
   206)      1752.1  Rx     01F83100  4  EE 02 00 79 
   207)      1763.5  Rx     01F83100  4  EE 02 00 7A 
   208)      1767.8  Rx     02F83202  1  00 
   209)      1775.0  Rx     01F83100  4  EE 02 00 7B 
   210)      1786.4  Rx     01F83100  4  EE 02 00 7C 
   211)      1798.4  Rx     01F83100  4  EE 02 00 7D 
   212)      1809.8  Rx     01F83100  4  EE 02 00 7E 
   213)      1821.3  Rx     01F83100  4  EE 02 00 7F 
   214)      1833.3  Rx     01F83100  4  EE 02 00 80 
   215)      1844.7  Rx     01F83100  4  EE 02 00 81 
   216)      1848.3  Rx     02F83201  8  00 00 00 00 F5 14 48 48 
   217)      1853.5  Rx     03106300  4  05 00 01 01 
   218)      1856.2  Rx     01F83100  4  EE 02 00 82 
   219)      1867.6  Rx     01F83100  4  EE 02 00 83 
   220)      1868.2  Rx     02F83202  1  00 
   221)      1879.0  Rx     01F83100  4  EE 02 00 84 
   222)      1891.1  Rx     01F83100  4  EE 02 00 85 
   223)      1902.5  Rx     01F83100  4  EE 02 00 86 
   224)      1913.9  Rx     01F83100  4  EE 02 00 87 
   225)      1926.0  Rx     01F83100  4  EE 02 00 88 
   226)      1937.4  Rx     01F83100  4  EE 02 00 89 
   227)      1948.8  Rx     01F83100  4  EE 02 00 8A 
   228)      1953.5  Rx     03106300  4  05 00 01 01 
   229)      1953.8  Rx     03106303  1  09 
   230)      1960.3  Rx     01F83100  4  EE 02 00 8B 
   231)      1968.8  Rx     02F83203  6  70 17 D0 01 1A 09 
   232)      1969.1  Rx     02F83202  1  00 
   233)      1971.7  Rx     01F83100  4  EE 02 00 8C 
   234)      1983.8  Rx     01F83100  4  EE 02 00 8D 
   235)      1995.2  Rx     01F83100  4  EE 02 00 8E 
   236)      2006.6  Rx     01F83100  4  EE 02 00 8F 
   237)      2018.0  Rx     01F83100  4  EE 02 00 90 
   238)      2030.1  Rx     01F83100  4  EE 02 00 91 
   239)      2041.4  Rx     01F83100  4  EE 02 00 92 
   240)      2052.9  Rx     01F83100  4  EE 02 00 93 
   241)      2053.5  Rx     03106300  4  05 00 01 01 
   242)      2064.3  Rx     01F83100  4  EE 02 00 94 
   243)      2069.1  Rx     02F83202  1  00 
   244)      2076.4  Rx     01F83100  4  EE 02 00 95 
   245)      2087.8  Rx     01F83100  4  EE 02 00 96 
   246)      2099.2  Rx     01F83100  4  EE 02 00 97 
   247)      2110.7  Rx     01F83100  4  EE 02 00 98 
   248)      2122.7  Rx     01F83100  4  EE 02 00 99 
   249)      2129.6  Rx     02F83201  8  00 00 00 00 F5 14 48 48 
   250)      2134.1  Rx     01F83100  4  EE 02 00 9A 
   251)      2145.6  Rx     01F83100  4  EE 02 00 9B 
   252)      2153.5  Rx     03106300  4  05 00 01 01 
   253)      2157.0  Rx     01F83100  4  EE 02 00 9C 
   254)      2169.1  Rx     01F83100  4  EE 02 00 9D 
   255)      2169.5  Rx     02F83202  1  00 
   256)      2180.5  Rx     01F83100  4  EE 02 00 9E 
   257)      2191.9  Rx     01F83100  4  EE 02 00 9F 
   258)      2199.7  Rx     02FF1200  1  00 
   259)      2203.3  Rx     01F83100  4  EE 02 00 A0 
   260)      2215.4  Rx     01F83100  4  EE 02 00 A1 
   261)      2226.8  Rx     01F83100  4  EE 02 00 A2 
   262)      2238.2  Rx     01F83100  4  EE 02 00 A3 
   263)      2249.6  Rx     01F83100  4  EE 02 00 A4 
   264)      2261.6  Rx     01F83100  4  EE 02 00 A5 
   265)      2270.2  Rx     02F83200  8  64 00 00 00 EE 02 FF FF 
   266)      2270.6  Rx     02F83202  1  00 
   267)      2273.1  Rx     01F83100  4  EE 02 00 A6 
   268)      2273.5  Rx     03106300  4  05 00 01 01 
   269)      2284.6  Rx     01F83100  4  EE 02 00 A7 
   270)      2295.9  Rx     01F83100  4  EE 02 00 A8 
   271)      2308.0  Rx     01F83100  4  EE 02 00 A9 
   272)      2319.4  Rx     01F83100  4  EE 02 00 AA 
   273)      2330.8  Rx     01F83100  4  EE 02 00 AB 
   274)      2342.2  Rx     01F83100  4  EE 02 00 AC 
   275)      2354.3  Rx     01F83100  4  EE 02 00 AD 
   276)      2365.7  Rx     01F83100  4  EE 02 00 AE 
   277)      2370.4  Rx     02F83202  1  00 
   278)      2373.5  Rx     03106300  4  05 00 01 01 
   279)      2377.2  Rx     01F83100  4  EE 02 00 AF 
   280)      2388.6  Rx     01F83100  4  EE 02 00 B0 
   281)      2400.6  Rx     01F83100  4  EE 02 00 B1 
   282)      2410.8  Rx     02F83201  8  00 00 00 00 F5 14 48 48 
   283)      2412.1  Rx     01F83100  4  EE 02 00 B2 
   284)      2412.6  Rx     05F83501  1  00 
   285)      2420.7  Rx     02F83203  6  70 17 D0 01 1A 09 
   286)      2423.5  Rx     01F83100  4  EE 02 00 B3 
   287)      2434.9  Rx     01F83100  4  EE 02 00 B4 
   288)      2439.8  Tx     05113201  0  
   289)      2447.0  Rx     01F83100  4  EE 02 00 B5 
   290)      2458.5  Rx     01F83100  4  EE 02 00 B6 
   291)      2469.8  Rx     01F83100  4  EE 02 00 B7 
   292)      2470.8  Rx     02F83202  1  00 
   293)      2473.5  Rx     03106300  4  05 00 01 01 
   294)      2481.3  Rx     01F83100  4  EE 02 00 B8 
   295)      2493.4  Rx     01F83100  4  EE 02 00 B9 
   296)      2504.8  Rx     01F83100  4  EE 02 00 BA 
   297)      2516.2  Rx     01F83100  4  EE 02 00 BB 
   298)      2527.6  Rx     01F83100  4  EE 02 00 BC 
   299)      2539.7  Rx     01F83100  4  EE 02 00 BD 
   300)      2551.1  Rx     01F83100  4  EE 02 00 BE 
   301)      2562.5  Rx     01F83100  4  EE 02 00 BF 
   302)      2571.3  Rx     02F83205  2  00 00 
   303)      2571.6  Rx     02F83202  1  00 
   304)      2573.5  Rx     03106300  4  05 00 01 01 
   305)      2574.2  Rx     01F83100  4  EE 02 00 C0 
   306)      2586.1  Rx     01F83100  4  EE 02 00 C1 
   307)      2597.5  Rx     01F83100  4  EE 02 00 C2 
   308)      2608.9  Rx     01F83100  4  EE 02 00 C3 
   309)      2620.3  Rx     01F83100  4  EE 02 00 C4 
   310)      2632.3  Rx     01F83100  4  EE 02 00 C5 
   311)      2643.8  Rx     01F83100  4  EE 02 00 C6 
   312)      2655.2  Rx     01F83100  4  EE 02 00 C7 
   313)      2666.6  Rx     01F83100  4  EE 02 00 C8 
   314)      2671.7  Rx     02F83202  1  00 
   315)      2673.5  Rx     03106300  4  05 00 01 01 
   316)      2678.7  Rx     01F83100  4  EE 02 00 C9 
   317)      2690.1  Rx     01F83100  4  EE 02 00 CA 
   318)      2692.0  Rx     02F83201  8  00 00 00 00 F5 14 48 48 
   319)      2692.4  Rx     02FF1200  1  00 
   320)      2701.5  Rx     01F83100  4  EE 02 00 CB 
   321)      2712.9  Rx     01F83100  4  EE 02 00 CC 
   322)      2725.0  Rx     01F83100  4  EE 02 00 CD 
   323)      2736.4  Rx     01F83100  4  EE 02 00 CE 
   324)      2747.8  Rx     01F83100  4  EE 02 00 CF 
   325)      2759.3  Rx     01F83100  4  EE 02 00 D0 
   326)      2771.3  Rx     01F83100  4  EE 02 00 D1 
   327)      2772.1  Rx     02F83202  1  00 
   328)      2782.7  Rx     01F83100  4  EE 02 00 D2 
   329)      2794.2  Rx     01F83100  4  EE 02 00 D3 
   330)      2803.6  Rx     03106300  4  05 00 01 01 
   331)      2805.6  Rx     01F83100  4  EE 02 00 D4 
   332)      2817.7  Rx     01F83100  4  EE 02 00 D5 
   333)      2829.1  Rx     01F83100  4  EE 02 00 D6 
   334)      2840.5  Rx     01F83100  4  EE 02 00 D7 
   335)      2851.9  Rx     01F83100  4  EE 02 00 D8 
   336)      2864.0  Rx     01F83100  4  EE 02 00 D9 
   337)      2872.8  Rx     02F83203  6  70 17 D0 01 1A 09 
   338)      2873.1  Rx     02F83202  1  00 
   339)      2875.4  Rx     01F83100  4  EE 02 00 DA 
   340)      2886.8  Rx     01F83100  4  EE 02 00 DB 
   341)      2898.2  Rx     01F83100  4  EE 02 00 DC 
   342)      2903.6  Rx     03106300  4  05 00 01 01 
   343)      2910.3  Rx     01F83100  4  EE 02 00 DD 
   344)      2921.7  Rx     01F83100  4  EE 02 00 DE 
   345)      2933.1  Rx     01F83100  4  EE 02 00 DF 
   346)      2944.6  Rx     01F83100  4  EE 02 00 E0 
   347)      2956.6  Rx     01F83100  4  EE 02 00 E1 
   348)      2968.0  Rx     01F83100  4  EE 02 00 E2 
   349)      2973.3  Rx     02F83201  8  00 00 00 00 F3 14 48 48 
   350)      2973.6  Rx     02F83202  1  00 
   351)      2979.5  Rx     01F83100  4  EE 02 00 E3 
   352)      2990.9  Rx     01F83100  4  EE 02 00 E4 
   353)      3002.9  Rx     01F83100  4  EE 02 00 E5 
   354)      3003.6  Rx     03106300  4  05 00 01 01 
   355)      3004.0  Rx     03106303  1  09 
   356)      3014.4  Rx     01F83100  4  EE 02 00 E6 
   357)      3025.8  Rx     01F83100  4  EE 02 00 E7 
   358)      3037.2  Rx     01F83100  4  EE 02 00 E8 
   359)      3049.3  Rx     01F83100  4  EE 02 00 E9 
   360)      3060.7  Rx     01F83100  4  EE 02 00 EA 
   361)      3072.1  Rx     01F83100  4  EE 02 00 EB 
   362)      3073.5  Rx     02F83202  1  00 
   363)      3083.6  Rx     01F83100  4  EE 02 00 EC 
   364)      3095.6  Rx     01F83100  4  EE 02 00 ED 
   365)      3103.6  Rx     03106300  4  05 00 01 01 
   366)      3107.0  Rx     01F83100  4  EE 02 00 EE 
   367)      3118.5  Rx     01F83100  4  EE 02 00 EF 
   368)      3129.9  Rx     01F83100  4  EE 02 00 F0 
   369)      3141.9  Rx     01F83100  4  EE 02 00 F1 
   370)      3153.4  Rx     01F83100  4  EE 02 00 F2 
   371)      3164.8  Rx     01F83100  4  EE 02 00 F3 
   372)      3173.9  Rx     02F83205  2  00 00 
   373)      3174.2  Rx     02F83202  1  00 
   374)      3176.3  Rx     01F83100  4  EE 02 00 F4 
   375)      3183.9  Rx     02FF1200  1  00 
   376)      3188.3  Rx     01F83100  4  EE 02 00 F5 
   377)      3199.7  Rx     01F83100  4  EE 02 00 F6 
   378)      3211.1  Rx     01F83100  4  EE 02 00 F7 
   379)      3222.5  Rx     01F83100  4  EE 02 00 F8 
   380)      3233.5  Rx     03106300  4  05 00 01 01 
   381)      3234.7  Rx     01F83100  4  EE 02 00 F9 
   382)      3246.0  Rx     01F83100  4  EE 02 00 FA 
   383)      3254.4  Rx     02F83201  8  00 00 00 00 F3 14 48 48 
   384)      3257.4  Rx     01F83100  4  EE 02 00 FB 
   385)      3268.9  Rx     01F83100  4  EE 02 00 FC 
   386)      3274.3  Rx     02F83202  1  00 
   387)      3280.9  Rx     01F83100  4  EE 02 00 FD 
   388)      3292.3  Rx     01F83100  4  EE 02 00 FE 
   389)      3303.8  Rx     01F83100  4  EE 02 00 FF 
   390)      3315.2  Rx     01F83100  4  EE 02 00 00 
   391)      3324.7  Rx     02F83203  6  70 17 D0 01 1A 09 
   392)      3327.2  Rx     01F83100  4  EE 02 00 01 
   393)      3333.5  Rx     03106300  4  05 00 01 01 
   394)      3338.7  Rx     01F83100  4  EE 02 00 02 
   395)      3350.1  Rx     01F83100  4  EE 02 00 03 
   396)      3361.5  Rx     01F83100  4  EE 02 00 04 
   397)      3373.6  Rx     01F83100  4  EE 02 00 05 
   398)      3374.8  Rx     02F83202  1  00 
   399)      3385.0  Rx     01F83100  4  EE 02 00 06 
   400)      3396.4  Rx     01F83100  4  EE 02 00 07 
   401)      3407.8  Rx     01F83100  4  EE 02 00 08 
   402)      3419.9  Rx     01F83100  4  EE 02 00 09 
   403)      3429.4  Rx     05F83501  1  00 
   404)      3431.3  Rx     01F83100  4  EE 02 00 0A 
   405)      3433.5  Rx     03106300  4  05 00 01 01 
   406)      3442.8  Rx     01F83100  4  EE 02 00 0B 
   407)      3454.2  Rx     01F83100  4  EE 02 00 0C 
   408)      3466.2  Rx     01F83100  4  EE 02 00 0D 
   409)      3475.2  Rx     02F83205  2  00 00 
   410)      3475.5  Rx     02F83202  1  00 
   411)      3477.7  Rx     01F83100  4  EE 02 00 0E 
   412)      3489.1  Rx     01F83100  4  EE 02 00 0F 
   413)      3500.5  Rx     01F83100  4  EE 02 00 10 
   414)      3512.6  Rx     01F83100  4  EE 02 00 11 
   415)      3524.0  Rx     01F83100  4  EE 02 00 12 
   416)      3533.5  Rx     03106300  4  05 00 01 01 
   417)      3535.4  Rx     01F83100  4  EE 02 00 13 
   418)      3536.0  Rx     02F83201  8  00 00 00 00 F3 14 48 48 
   419)      3539.6  Tx     05113203  0  
   420)      3540.8  Rx     05123203  6  00 00 00 00 00 00 
   421)      3546.9  Rx     01F83100  4  EE 02 00 14 
   422)      3558.3  Rx     01F83100  4  EE 02 00 15 
   423)      3570.4  Rx     01F83100  4  EE 02 00 16 
   424)      3575.6  Rx     02F83202  1  00 
   425)      3581.8  Rx     01F83100  4  EE 02 00 17 
   426)      3593.2  Rx     01F83100  4  EE 02 00 18 
   427)      3604.6  Rx     01F83100  4  EE 02 00 19 
   428)      3616.6  Rx     01F83100  4  EE 02 00 1A 
   429)      3628.1  Rx     01F83100  4  EE 02 00 1B 
   430)      3633.5  Rx     03106300  4  05 00 01 01 
   431)      3639.5  Rx     01F83100  4  EE 02 00 1C 
   432)      3650.9  Rx     01F83100  4  EE 02 00 1D 
   433)      3663.0  Rx     01F83100  4  EE 02 00 1E 
   434)      3674.4  Rx     01F83100  4  EE 02 00 1F 
   435)      3676.0  Rx     02F83202  1  00 
   436)      3676.3  Rx     02FF1200  1  00 
   437)      3685.8  Rx     01F83100  4  EE 02 00 20 
   438)      3697.2  Rx     01F83100  4  EE 02 00 21 
   439)      3709.3  Rx     01F83100  4  EE 02 00 22 
   440)      3720.7  Rx     01F83100  4  EE 02 00 23 
   441)      3732.1  Rx     01F83100  4  EE 02 00 24 
   442)      3743.6  Rx     01F83100  4  EE 02 00 25 
   443)      3755.6  Rx     01F83100  4  EE 02 00 26 
   444)      3765.7  Rx     03106300  4  05 00 01 01 
   445)      3767.2  Rx     01F83100  4  EE 02 00 27 
   446)      3776.4  Rx     02F83202  1  00 
   447)      3776.8  Rx     02F83205  2  00 00 
   448)      3778.6  Rx     01F83100  4  EE 02 00 28 
   449)      3789.9  Rx     01F83100  4  EE 02 00 29 
   450)      3802.0  Rx     01F83100  4  EE 02 00 2A 
   451)      3813.4  Rx     01F83100  4  EE 02 00 2B 
   452)      3816.9  Rx     02F83201  8  00 00 00 00 F3 14 48 48 
   453)      3824.8  Rx     01F83100  4  EE 02 00 2C 
   454)      3836.2  Rx     01F83100  4  EE 02 00 2D 
   455)      3848.3  Rx     01F83100  4  EE 02 00 2E 
   456)      3859.7  Rx     01F83100  4  EE 02 00 2F 
   457)      3863.5  Rx     03106300  4  05 00 01 01 
   458)      3871.1  Rx     01F83100  4  EE 02 00 30 
   459)      3876.9  Rx     02F83202  1  00 
   460)      3882.6  Rx     01F83100  4  EE 02 00 31 
   461)      3894.6  Rx     01F83100  4  EE 02 00 32 
   462)      3906.0  Rx     01F83100  4  EE 02 00 33 
   463)      3917.4  Rx     01F83100  4  EE 02 00 34 
   464)      3928.9  Rx     01F83100  4  EE 02 00 35 
   465)      3940.9  Rx     01F83100  4  EE 02 00 36 
   466)      3952.3  Rx     01F83100  4  EE 02 00 37 
   467)      3963.5  Rx     03106300  4  05 00 01 01 
   468)      3963.9  Rx     01F83100  4  EE 02 00 38 
   469)      3975.2  Rx     01F83100  4  EE 02 00 39 
   470)      3977.3  Rx     02F83202  1  00 
   471)      3987.3  Rx     01F83100  4  EE 02 00 3A 
   472)      3998.7  Rx     01F83100  4  EE 02 00 3B 
   473)      4010.1  Rx     01F83100  4  EE 02 00 3C 
   474)      4021.5  Rx     01F83100  4  EE 02 00 3D 
   475)      4033.6  Rx     01F83100  4  EE 02 00 3E 
   476)      4045.0  Rx     01F83100  4  EE 02 00 3F 
   477)      4056.4  Rx     01F83100  4  EE 02 00 40 
   478)      4063.5  Rx     03106300  4  05 00 01 01 
   479)      4063.8  Rx     03106303  1  09 
   480)      4067.9  Rx     01F83100  4  EE 02 00 41 
   481)      4077.8  Rx     02F83205  2  00 00 
   482)      4078.1  Rx     02F83202  1  00 
   483)      4079.5  Rx     01F83100  4  EE 02 00 42 
   484)      4091.4  Rx     01F83100  4  EE 02 00 43 
   485)      4098.1  Rx     02F83201  8  00 00 00 00 F3 14 48 48 
   486)      4102.8  Rx     01F83100  4  EE 02 00 44 
   487)      4114.2  Rx     01F83100  4  EE 02 00 45 
   488)      4126.2  Rx     01F83100  4  EE 02 00 46 
   489)      4137.7  Rx     01F83100  4  EE 02 00 47 
   490)      4149.1  Rx     01F83100  4  EE 02 00 48 
   491)      4160.5  Rx     01F83100  4  EE 02 00 49 
   492)      4168.2  Rx     02FF1200  1  00 
   493)      4172.6  Rx     01F83100  4  EE 02 00 4A 
   494)      4173.5  Rx     03106300  4  05 00 01 01 
   495)      4178.2  Rx     02F83202  1  00 
   496)      4184.0  Rx     01F83100  4  EE 02 00 4B 
   497)      4195.4  Rx     01F83100  4  EE 02 00 4C 
   498)      4206.8  Rx     01F83100  4  EE 02 00 4D 
   499)      4218.9  Rx     01F83100  4  EE 02 00 4E 
   500)      4228.5  Rx     02F83203  6  70 17 D0 01 1A 09 
   501)      4230.4  Rx     01F83100  4  EE 02 00 4F 
   502)      4241.7  Rx     01F83100  4  EE 02 00 50 
   503)      4253.2  Rx     01F83100  4  EE 02 00 51 
   504)      4265.2  Rx     01F83100  4  EE 02 00 52 
   505)      4276.6  Rx     01F83100  4  EE 02 00 53 
   506)      4278.6  Rx     02F83202  1  00 
   507)      4288.1  Rx     01F83100  4  EE 02 00 54 
   508)      4293.6  Rx     03106300  4  05 00 01 01 
   509)      4299.5  Rx     01F83100  4  EE 02 00 55 
   510)      4311.6  Rx     01F83100  4  EE 02 00 56 
   511)      4323.0  Rx     01F83100  4  EE 02 00 57 
   512)      4334.4  Rx     01F83100  4  EE 02 00 58 
   513)      4345.8  Rx     01F83100  4  EE 02 00 59 
   514)      4357.9  Rx     01F83100  4  EE 02 00 5A 
   515)      4369.3  Rx     01F83100  4  EE 02 00 5B 
   516)      4379.3  Rx     02F83201  8  00 00 00 00 F5 14 48 48 
   517)      4379.6  Rx     02F83202  1  00 
   518)      4380.9  Rx     01F83100  4  EE 02 00 5C 
   519)      4392.1  Rx     01F83100  4  EE 02 00 5D 
   520)      4393.6  Rx     03106300  4  05 00 01 01 
   521)      4404.2  Rx     01F83100  4  EE 02 00 5E 
   522)      4415.6  Rx     01F83100  4  EE 02 00 5F 
   523)      4427.1  Rx     01F83100  4  EE 02 00 60 
   524)      4438.5  Rx     01F83100  4  EE 02 00 61 
   525)      4446.1  Rx     05F83501  1  00 
   526)      4450.6  Rx     01F83100  4  EE 02 00 62 
   527)      4462.0  Rx     01F83100  4  EE 02 00 63 
   528)      4473.4  Rx     01F83100  4  EE 02 00 64 
   529)      4479.5  Rx     02F83202  1  00 
   530)      4484.8  Rx     01F83100  4  EE 02 00 65 
   531)      4493.6  Rx     03106300  4  05 00 01 01 
   532)      4496.9  Rx     01F83100  4  EE 02 00 66 
   533)      4508.3  Rx     01F83100  4  EE 02 00 67 
   534)      4519.7  Rx     01F83100  4  EE 02 00 68 
   535)      4531.1  Rx     01F83100  4  EE 02 00 69 
   536)      4543.2  Rx     01F83100  4  EE 02 00 6A 
   537)      4554.6  Rx     01F83100  4  EE 02 00 6B 
   538)      4566.0  Rx     01F83100  4  EE 02 00 6C 
   539)      4577.5  Rx     01F83100  4  EE 02 00 6D 
   540)      4579.9  Rx     02F83202  1  00 
   541)      4589.5  Rx     01F83100  4  EE 02 00 6E 
   542)      4593.6  Rx     03106300  4  05 00 01 01 
   543)      4600.9  Rx     01F83100  4  EE 02 00 6F 
   544)      4612.4  Rx     01F83100  4  EE 02 00 70 
   545)      4623.8  Rx     01F83100  4  EE 02 00 71 
   546)      4635.8  Rx     01F83100  4  EE 02 00 72 
   547)      4647.3  Rx     01F83100  4  EE 02 00 73 
   548)      4647.9  Tx     05113202  0  
   549)      4658.7  Rx     01F83100  4  EE 02 00 74 
   550)      4660.2  Rx     02FF1200  1  00 
   551)      4660.8  Rx     02F83201  8  00 00 00 00 F5 14 48 48 
   552)      4670.1  Rx     01F83100  4  EE 02 00 75 
   553)      4680.5  Rx     02F83203  6  70 17 D0 01 1A 09 
   554)      4680.8  Rx     02F83202  1  00 
   555)      4681.9  Rx     01F83100  4  EE 02 00 76 
   556)      4693.6  Rx     03106300  4  05 00 01 01 
   557)      4694.0  Rx     01F83100  4  EE 02 00 77 
   558)      4705.1  Rx     01F83100  4  EE 02 00 78 
   559)      4716.5  Rx     01F83100  4  EE 02 00 79 
   560)      4728.5  Rx     01F83100  4  EE 02 00 7A 
   561)      4740.0  Rx     01F83100  4  EE 02 00 7B 
   562)      4751.4  Rx     01F83100  4  EE 02 00 7C 
   563)      4762.8  Rx     01F83100  4  EE 02 00 7D 
   564)      4774.8  Rx     01F83100  4  EE 02 00 7E 
   565)      4780.9  Rx     02FF3000  4  00 00 00 0B 
   566)      4781.3  Rx     02F83202  1  00 
   567)      4786.3  Rx     01F83100  4  EE 02 00 7F 
   568)      4797.7  Rx     01F83100  4  EE 02 00 80 
   569)      4809.1  Rx     01F83100  4  EE 02 00 81 
   570)      4821.2  Rx     01F83100  4  EE 02 00 82 
   571)      4823.5  Rx     03106300  4  05 00 01 01 
   572)      4832.6  Rx     01F83100  4  EE 02 00 83 
   573)      4844.0  Rx     01F83100  4  EE 02 00 84 
   574)      4855.4  Rx     01F83100  4  EE 02 00 85 
   575)      4867.5  Rx     01F83100  4  EE 02 00 86 
   576)      4878.9  Rx     01F83100  4  EE 02 00 87 
   577)      4881.2  Rx     02F83202  1  00 
   578)      4890.3  Rx     01F83100  4  EE 02 00 88 
   579)      4901.8  Rx     01F83100  4  EE 02 00 89 
   580)      4913.8  Rx     01F83100  4  EE 02 00 8A 
   581)      4923.5  Rx     03106300  4  05 00 01 01 
   582)      4925.3  Rx     01F83100  4  EE 02 00 8B 
   583)      4936.7  Rx     01F83100  4  EE 02 00 8C 
   584)      4941.7  Rx     02F83201  8  00 00 00 00 F3 14 48 48 
   585)      4948.1  Rx     01F83100  4  EE 02 00 8D 
   586)      4960.1  Rx     01F83100  4  EE 02 00 8E 
   587)      4971.6  Rx     01F83100  4  EE 02 00 8F 
   588)      4981.7  Rx     02F83205  2  00 00 
   589)      4982.0  Rx     02F83202  1  00 
   590)      4983.2  Rx     01F83100  4  EE 02 00 90 
   591)      4994.4  Rx     01F83100  4  EE 02 00 91 
   592)      5006.5  Rx     01F83100  4  EE 02 00 92 
   593)      5017.9  Rx     01F83100  4  EE 02 00 93 
   594)      5023.5  Rx     03106300  4  05 00 01 01 
   595)      5029.3  Rx     01F83100  4  EE 02 00 94 
   596)      5040.7  Rx     01F83100  4  EE 02 00 95 
   597)      5052.8  Rx     01F83100  4  EE 02 00 96 
   598)      5064.2  Rx     01F83100  4  EE 02 00 97 
   599)      5075.6  Rx     01F83100  4  EE 02 00 98 
   600)      5082.1  Rx     02F83202  1  00 
   601)      5087.1  Rx     01F83100  4  EE 02 00 99 
   602)      5099.1  Rx     01F83100  4  EE 02 00 9A 
   603)      5110.5  Rx     01F83100  4  EE 02 00 9B 
   604)      5122.0  Rx     01F83100  4  EE 02 00 9C 
   605)      5123.5  Rx     03106300  4  05 00 01 01 
   606)      5123.8  Rx     03106303  1  09 
   607)      5132.5  Rx     02F83203  6  70 17 D0 01 1A 09 
   608)      5133.6  Rx     01F83100  4  EE 02 00 9D 
   609)      5145.5  Rx     01F83100  4  EE 02 00 9E 
   610)      5152.4  Rx     02FF1200  1  00 
   611)      5156.9  Rx     01F83100  4  EE 02 00 9F 
   612)      5168.3  Rx     01F83100  4  EE 02 00 A0 
   613)      5179.7  Rx     01F83100  4  EE 02 00 A1 
   614)      5182.5  Rx     02F83202  1  00 
   615)      5191.8  Rx     01F83100  4  EE 02 00 A2 
   616)      5203.2  Rx     01F83100  4  EE 02 00 A3 
   617)      5214.6  Rx     01F83100  4  EE 02 00 A4 
   618)      5222.9  Rx     02F83201  8  00 00 00 00 F5 14 48 48 
   619)      5226.1  Rx     01F83100  4  EE 02 00 A5 
   620)      5238.1  Rx     01F83100  4  EE 02 00 A6 
   621)      5249.5  Rx     01F83100  4  EE 02 00 A7 
   622)      5253.5  Rx     03106300  4  05 00 01 01 
   623)      5261.0  Rx     01F83100  4  EE 02 00 A8 
   624)      5272.4  Rx     01F83100  4  EE 02 00 A9 
   625)      5283.0  Rx     02F83205  2  00 00 
   626)      5283.6  Rx     02F83200  8  64 00 00 00 EE 02 FF FF 
   627)      5284.0  Rx     01F83100  4  EE 02 00 AA 
   628)      5295.9  Rx     01F83100  4  EE 02 00 AB 
   629)      5307.3  Rx     01F83100  4  EE 02 00 AC 
   630)      5318.7  Rx     01F83100  4  EE 02 00 AD 
   631)      5330.8  Rx     01F83100  4  EE 02 00 AE 
   632)      5342.2  Rx     01F83100  4  EE 02 00 AF 
   633)      5353.5  Rx     03106300  4  05 00 01 01 
   634)      5353.9  Rx     01F83100  4  EE 02 00 B0 
   635)      5365.0  Rx     01F83100  4  EE 02 00 B1 
   636)      5377.1  Rx     01F83100  4  EE 02 00 B2 
   637)      5383.4  Rx     02F83202  1  00 
   638)      5388.5  Rx     01F83100  4  EE 02 00 B3 
   639)      5399.9  Rx     01F83100  4  EE 02 00 B4 
   640)      5411.3  Rx     01F83100  4  EE 02 00 B5 
   641)      5423.4  Rx     01F83100  4  EE 02 00 B6 
   642)      5434.8  Rx     01F83100  4  EE 02 00 B7 
   643)      5446.2  Rx     01F83100  4  EE 02 00 B8 
   644)      5453.5  Rx     03106300  4  05 00 01 01 
   645)      5457.7  Rx     01F83100  4  EE 02 00 B9 
   646)      5462.9  Rx     05F83501  1  00 
   647)      5469.8  Rx     01F83100  4  EE 02 00 BA 
   648)      5481.1  Rx     01F83100  4  EE 02 00 BB 
   649)      5483.8  Rx     02F83202  1  00 
   650)      5492.6  Rx     01F83100  4  EE 02 00 BC 
   651)      5504.0  Rx     01F83100  4  EE 02 00 BD 
   652)      5504.6  Rx     02F83201  8  00 00 00 00 F5 14 48 48 
   653)      5516.1  Rx     01F83100  4  EE 02 00 BE 
   654)      5527.5  Rx     01F83100  4  EE 02 00 BF 
   655)      5538.9  Rx     01F83100  4  EE 02 00 C0 
   656)      5550.3  Rx     01F83100  4  EE 02 00 C1 
   657)      5553.5  Rx     03106300  4  05 00 01 01 
   658)      5561.8  Rx     01F83100  4  EE 02 00 C2 
   659)      5573.8  Rx     01F83100  4  EE 02 00 C3 
   660)      5584.4  Rx     02F83203  6  70 17 D0 01 1A 09 
   661)      5584.8  Rx     02F83202  1  00 
   662)      5585.6  Rx     01F83100  4  EE 02 00 C4 
   663)      5596.7  Rx     01F83100  4  EE 02 00 C5 
   664)      5599.8  Tx     05113204  0  
   665)      5608.1  Rx     01F83100  4  EE 02 00 C6 
   666)      5620.2  Rx     01F83100  4  EE 02 00 C7 
   667)      5631.6  Rx     01F83100  4  EE 02 00 C8 
   668)      5643.0  Rx     01F83100  4  EE 02 00 C9 
   669)      5644.6  Rx     02FF1200  1  00 
   670)      5653.5  Rx     03106300  4  05 00 01 01 
   671)      5654.6  Rx     01F83100  4  EE 02 00 CA 
   672)      5666.5  Rx     01F83100  4  EE 02 00 CB 
   673)      5677.9  Rx     01F83100  4  EE 02 00 CC 
   674)      5684.7  Rx     02F83202  1  00 
   675)      5689.4  Rx     01F83100  4  EE 02 00 CD 
   676)      5700.8  Rx     01F83100  4  EE 02 00 CE 
   677)      5712.8  Rx     01F83100  4  EE 02 00 CF 
   678)      5724.3  Rx     01F83100  4  EE 02 00 D0 
   679)      5735.7  Rx     01F83100  4  EE 02 00 D1 
   680)      5747.1  Rx     01F83100  4  EE 02 00 D2 
   681)      5759.1  Rx     01F83100  4  EE 02 00 D3 
   682)      5770.6  Rx     01F83100  4  EE 02 00 D4 
   683)      5782.0  Rx     01F83100  4  EE 02 00 D5 
   684)      5783.6  Rx     03106300  4  05 00 01 01 
   685)      5785.5  Rx     02F83201  8  00 00 00 00 F3 14 48 48 
   686)      5785.8  Rx     02F83202  1  00 
   687)      5793.4  Rx     01F83100  4  EE 02 00 D6 
   688)      5805.5  Rx     01F83100  4  EE 02 00 D7 
   689)      5816.9  Rx     01F83100  4  EE 02 00 D8 
   690)      5828.3  Rx     01F83100  4  EE 02 00 D9 
   691)      5839.7  Rx     01F83100  4  EE 02 00 DA 
   692)      5851.8  Rx     01F83100  4  EE 02 00 DB 
   693)      5863.2  Rx     01F83100  4  EE 02 00 DC 
   694)      5874.6  Rx     01F83100  4  EE 02 00 DD 
   695)      5883.6  Rx     03106300  4  05 00 01 01 
   696)      5885.6  Rx     02F83205  2  00 00 
   697)      5885.9  Rx     02F83202  1  00 
   698)      5886.4  Rx     01F83100  4  EE 02 00 DE 
   699)      5898.2  Rx     01F83100  4  EE 02 00 DF 
   700)      5909.6  Rx     01F83100  4  EE 02 00 E0 
   701)      5921.0  Rx     01F83100  4  EE 02 00 E1 
   702)      5932.4  Rx     01F83100  4  EE 02 00 E2 
   703)      5944.5  Rx     01F83100  4  EE 02 00 E3 
   704)      5955.9  Rx     01F83100  4  EE 02 00 E4 
   705)      5967.3  Rx     01F83100  4  EE 02 00 E5 
   706)      5978.7  Rx     01F83100  4  EE 02 00 E6 
   707)      5983.6  Rx     03106300  4  05 00 01 01 
   708)      5986.0  Rx     02F83202  1  00 
   709)      5990.8  Rx     01F83100  4  EE 02 00 E7 
   710)      6002.2  Rx     01F83100  4  EE 02 00 E8 
   711)      6013.6  Rx     01F83100  4  EE 02 00 E9 
   712)      6025.0  Rx     01F83100  4  EE 02 00 EA 
   713)      6036.5  Rx     02F83203  6  70 17 D0 01 1A 09 
   714)      6037.3  Rx     01F83100  4  EE 02 00 EB 
   715)      6048.5  Rx     01F83100  4  EE 02 00 EC 
   716)      6059.9  Rx     01F83100  4  EE 02 00 ED 
   717)      6066.6  Rx     02F83201  8  00 00 00 00 F5 14 48 48 
   718)      6071.4  Rx     01F83100  4  EE 02 00 EE 
   719)      6083.4  Rx     01F83100  4  EE 02 00 EF 
   720)      6083.9  Rx     03106300  4  05 00 01 01 
   721)      6086.5  Rx     02F83202  1  00 
   722)      6094.9  Rx     01F83100  4  EE 02 00 F0 
   723)      6106.3  Rx     01F83100  4  EE 02 00 F1 
   724)      6117.7  Rx     01F83100  4  EE 02 00 F2 
   725)      6129.8  Rx     01F83100  4  EE 02 00 F3 
   726)      6136.7  Rx     02FF1200  1  00 
   727)      6141.2  Rx     01F83100  4  EE 02 00 F4 
   728)      6152.6  Rx     01F83100  4  EE 02 00 F5 
   729)      6164.0  Rx     01F83100  4  EE 02 00 F6 
   730)      6176.1  Rx     01F83100  4  EE 02 00 F7 
   731)      6186.9  Rx     02F83205  2  00 00 
   732)      6187.2  Rx     02F83202  1  00 
   733)      6187.7  Rx     01F83100  4  EE 02 00 F8 
   734)      6198.9  Rx     01F83100  4  EE 02 00 F9 
   735)      6210.4  Rx     01F83100  4  EE 02 00 FA 
   736)      6213.5  Rx     03106300  4  05 00 01 01 
   737)      6215.6  Rx     03106303  1  09 
   738)      6222.5  Rx     01F83100  4  EE 02 00 FB 
   739)      6233.9  Rx     01F83100  4  EE 02 00 FC 
   740)      6245.3  Rx     01F83100  4  EE 02 00 FD 
   741)      6256.7  Rx     01F83100  4  EE 02 00 FE 
   742)      6268.8  Rx     01F83100  4  EE 02 00 FF 
   743)      6280.2  Rx     01F83100  4  EE 02 00 00 
   744)      6287.3  Rx     02F83202  1  00 
   745)      6291.6  Rx     01F83100  4  EE 02 00 01 
   746)      6303.0  Rx     01F83100  4  EE 02 00 02 
   747)      6313.5  Rx     03106300  4  05 00 01 01 
   748)      6314.6  Rx     01F83100  4  EE 02 00 03 
   749)      6326.5  Rx     01F83100  4  EE 02 00 04 
   750)      6337.9  Rx     01F83100  4  EE 02 00 05 
   751)      6347.9  Rx     02F83201  8  00 00 00 00 F5 14 48 49 
   752)      6349.5  Rx     01F83100  4  EE 02 00 06 
   753)      6361.4  Rx     01F83100  4  EE 02 00 07 
   754)      6372.8  Rx     01F83100  4  EE 02 00 08 
   755)      6384.2  Rx     01F83100  4  EE 02 00 09 
   756)      6387.8  Rx     02F83202  1  00 
   757)      6395.7  Rx     01F83100  4  EE 02 00 0A 
   758)      6407.7  Rx     01F83100  4  EE 02 00 0B 
   759)      6413.5  Rx     03106300  4  05 00 01 01 
   760)      6419.2  Rx     01F83100  4  EE 02 00 0C 
   761)      6423.8  Tx     05113205  0  
   762)      6430.6  Rx     01F83100  4  EE 02 00 0D 
   763)      6442.0  Rx     01F83100  4  EE 02 00 0E 
   764)      6454.1  Rx     01F83100  4  EE 02 00 0F 
   765)      6465.5  Rx     01F83100  4  EE 02 00 10 
   766)      6476.9  Rx     01F83100  4  EE 02 00 11 
   767)      6479.7  Rx     05F83501  1  00 
   768)      6488.4  Rx     02F83203  6  70 17 D0 01 1A 09 
   769)      6488.8  Rx     01F83100  4  EE 02 00 12 
   770)      6489.1  Rx     02F83202  1  00 
   771)      6500.4  Rx     01F83100  4  EE 02 00 13 
   772)      6511.9  Rx     01F83100  4  EE 02 00 14 
   773)      6513.5  Rx     03106300  4  05 00 01 01 
   774)      6523.3  Rx     01F83100  4  EE 02 00 15 
   775)      6534.7  Rx     01F83100  4  EE 02 00 16 
   776)      6546.8  Rx     01F83100  4  EE 02 00 17 
   777)      6558.2  Rx     01F83100  4  EE 02 00 18 
   778)      6569.6  Rx     01F83100  4  EE 02 00 19 
   779)      6581.0  Rx     01F83100  4  EE 02 00 1A 
   780)      6588.6  Rx     02F83202  1  00 
   781)      6593.1  Rx     01F83100  4  EE 02 00 1B 
   782)      6604.5  Rx     01F83100  4  EE 02 00 1C 
   783)      6613.5  Rx     03106300  4  05 00 01 01 
   784)      6615.9  Rx     01F83100  4  EE 02 00 1D 
   785)      6627.4  Rx     01F83100  4  EE 02 00 1E 
   786)      6628.8  Rx     02FF1200  1  00 
   787)      6629.4  Rx     02F83201  8  00 00 00 00 F5 14 48 48 
   788)      6639.4  Rx     01F83100  4  EE 02 00 1F 
   789)      6650.8  Rx     01F83100  4  EE 02 00 20 
   790)      6662.3  Rx     01F83100  4  EE 02 00 21 
   791)      6673.7  Rx     01F83100  4  EE 02 00 22 
   792)      6685.7  Rx     01F83100  4  EE 02 00 23 
   793)      6689.1  Rx     02F83202  1  00 
   794)      6697.2  Rx     01F83100  4  EE 02 00 24 
   795)      6708.6  Rx     01F83100  4  EE 02 00 25 
   796)      6720.0  Rx     01F83100  4  EE 02 00 26 
   797)      6732.1  Rx     01F83100  4  EE 02 00 27 
   798)      6733.5  Rx     03106300  4  05 00 01 01 
   799)      6743.5  Rx     01F83100  4  EE 02 00 28 
   800)      6754.9  Rx     01F83100  4  EE 02 00 29 
   801)      6766.3  Rx     01F83100  4  EE 02 00 2A 
   802)      6778.4  Rx     01F83100  4  EE 02 00 2B 
   803)      6789.8  Rx     02F83200  8  64 00 00 00 EE 02 FF FF 
   804)      6790.2  Rx     01F83100  4  EE 02 00 2C 
   805)      6790.5  Rx     02F83202  1  00 
   806)      6801.2  Rx     01F83100  4  EE 02 00 2D 
   807)      6812.7  Rx     01F83100  4  EE 02 00 2E 
   808)      6824.7  Rx     01F83100  4  EE 02 00 2F 
   809)      6836.1  Rx     01F83100  4  EE 02 00 30 
   810)      6847.5  Rx     01F83100  4  EE 02 00 31 
   811)      6853.6  Rx     03106300  4  05 00 01 01 
   812)      6859.0  Rx     01F83100  4  EE 02 00 32 
   813)      6871.0  Rx     01F83100  4  EE 02 00 33 
   814)      6882.5  Rx     01F83100  4  EE 02 00 34 
   815)      6889.9  Rx     02F83202  1  00 
   816)      6893.9  Rx     01F83100  4  EE 02 00 35 
   817)      6905.3  Rx     01F83100  4  EE 02 00 36 
   818)      6910.3  Rx     02F83201  8  00 00 00 00 F5 14 48 48 
   819)      6917.4  Rx     01F83100  4  EE 02 00 37 
   820)      6928.8  Rx     01F83100  4  EE 02 00 38 
   821)      6940.2  Rx     01F83100  4  EE 02 00 39 
   822)      6940.7  Rx     02F83203  6  70 17 D0 01 1A 09 
   823)      6951.6  Rx     01F83100  4  EE 02 00 3A 
   824)      6953.6  Rx     03106300  4  05 00 01 01 
   825)      6963.7  Rx     01F83100  4  EE 02 00 3B 
   826)      6975.1  Rx     01F83100  4  EE 02 00 3C 
   827)      6986.5  Rx     01F83100  4  EE 02 00 3D 
   828)      6990.4  Rx     02F83202  1  00 
   829)      6998.0  Rx     01F83100  4  EE 02 00 3E 
   830)      7010.0  Rx     01F83100  4  EE 02 00 3F 
   831)      7021.4  Rx     01F83100  4  EE 02 00 40 
   832)      7032.9  Rx     01F83100  4  EE 02 00 41 
   833)      7044.3  Rx     01F83100  4  EE 02 00 42 
   834)      7053.6  Rx     03106300  4  05 00 01 01 
   835)      7056.3  Rx     01F83100  4  EE 02 00 43 
   836)      7067.8  Rx     01F83100  4  EE 02 00 44 
   837)      7079.2  Rx     01F83100  4  EE 02 00 45 
   838)      7090.6  Rx     01F83100  4  EE 02 00 46 
   839)      7090.9  Rx     02F83202  1  00 
   840)      7102.7  Rx     01F83100  4  EE 02 00 47 
   841)      7114.1  Rx     01F83100  4  EE 02 00 48 
   842)      7120.9  Rx     02FF1200  1  00 
   843)      7125.5  Rx     01F83100  4  EE 02 00 49 
   844)      7136.9  Rx     01F83100  4  EE 02 00 4A 
   845)      7149.0  Rx     01F83100  4  EE 02 00 4B 
   846)      7153.6  Rx     03106300  4  05 00 01 01 
   847)      7160.4  Rx     01F83100  4  EE 02 00 4C 
   848)      7171.8  Rx     01F83100  4  EE 02 00 4D 
   849)      7183.2  Rx     01F83100  4  EE 02 00 4E 
   850)      7191.5  Rx     02F83201  8  00 00 00 00 F5 14 48 48 
   851)      7191.8  Rx     02F83202  1  00 
   852)      7195.3  Rx     01F83100  4  EE 02 00 4F 
   853)      7206.7  Rx     01F83100  4  EE 02 00 50 
   854)      7218.2  Rx     01F83100  4  EE 02 00 51 
   855)      7229.6  Rx     01F83100  4  EE 02 00 52 
   856)      7241.6  Rx     01F83100  4  EE 02 00 53 
   857)      7253.1  Rx     01F83100  4  EE 02 00 54 
   858)      7264.5  Rx     01F83100  4  EE 02 00 55 
   859)      7273.5  Rx     03106300  4  05 00 01 01 
   860)      7273.8  Rx     03106303  1  09 
   861)      7276.0  Rx     01F83100  4  EE 02 00 56 
   862)      7288.0  Rx     01F83100  4  EE 02 00 57 
   863)      7291.7  Rx     02F83202  1  00 
   864)      7299.4  Rx     01F83100  4  EE 02 00 58 
   865)      7310.8  Rx     01F83100  4  EE 02 00 59 
   866)      7322.2  Rx     01F83100  4  EE 02 00 5A 
   867)      7334.3  Rx     01F83100  4  EE 02 00 5B 
   868)      7345.7  Rx     01F83100  4  EE 02 00 5C 
   869)      7357.1  Rx     01F83100  4  EE 02 00 5D 
   870)      7368.6  Rx     01F83100  4  EE 02 00 5E 
   871)      7373.5  Rx     03106300  4  05 00 01 01 
   872)      7375.8  Tx     05116011  0  
   873)      7380.7  Rx     01F83100  4  EE 02 00 5F 
   874)      7392.1  Rx     01F83100  4  EE 02 00 60 
   875)      7392.4  Rx     02F83202  1  00 
   876)      7403.5  Rx     01F83100  4  EE 02 00 61 
   877)      7414.9  Rx     01F83100  4  EE 02 00 62 
   878)      7427.0  Rx     01F83100  4  EE 02 00 63 
   879)      7438.4  Rx     01F83100  4  EE 02 00 64 
   880)      7449.8  Rx     01F83100  4  EE 02 00 65 
   881)      7461.2  Rx     01F83100  4  EE 02 00 66 
   882)      7472.7  Rx     02F83201  8  00 00 00 00 F5 14 48 48 
   883)      7473.4  Rx     01F83100  4  EE 02 00 67 
   884)      7473.9  Rx     03106300  4  05 00 01 01 
   885)      7484.7  Rx     01F83100  4  EE 02 00 68 
   886)      7492.5  Rx     02F83202  1  00 
   887)      7496.2  Rx     01F83100  4  EE 02 00 69 
   888)      7496.5  Rx     05F83501  1  00 
   889)      7507.6  Rx     01F83100  4  EE 02 00 6A 
   890)      7519.0  Rx     01F83100  4  EE 02 00 6B 
   891)      7531.1  Rx     01F83100  4  EE 02 00 6C 
   892)      7542.5  Rx     01F83100  4  EE 02 00 6D 
   893)      7553.9  Rx     01F83100  4  EE 02 00 6E 
   894)      7566.0  Rx     01F83100  4  EE 02 00 6F 
   895)      7573.5  Rx     03106300  4  05 00 01 01 
   896)      7577.4  Rx     01F83100  4  EE 02 00 70 
   897)      7588.8  Rx     01F83100  4  EE 02 00 71 
   898)      7593.0  Rx     02F83202  1  00 
   899)      7600.2  Rx     01F83100  4  EE 02 00 72 
   900)      7611.7  Rx     01F83100  4  EE 02 00 73 
   901)      7613.1  Rx     02FF1200  1  00 
   902)      7623.7  Rx     01F83100  4  EE 02 00 74 
   903)      7635.1  Rx     01F83100  4  EE 02 00 75 
   904)      7646.6  Rx     01F83100  4  EE 02 00 76 
   905)      7658.0  Rx     01F83100  4  EE 02 00 77 
   906)      7670.0  Rx     01F83100  4  EE 02 00 78 
   907)      7673.5  Rx     03106300  4  05 00 01 01 
   908)      7681.5  Rx     01F83100  4  EE 02 00 79 
   909)      7692.9  Rx     01F83100  4  EE 02 00 7A 
   910)      7693.5  Rx     02F83205  2  00 00 
   911)      7693.8  Rx     02F83202  1  00 
   912)      7704.3  Rx     01F83100  4  EE 02 00 7B 
   913)      7716.4  Rx     01F83100  4  EE 02 00 7C 
   914)      7727.8  Rx     01F83100  4  EE 02 00 7D 
   915)      7739.2  Rx     01F83100  4  EE 02 00 7E 
   916)      7750.6  Rx     01F83100  4  EE 02 00 7F 
   917)      7754.0  Rx     02F83201  8  00 00 00 00 F5 14 48 48 
   918)      7762.7  Rx     01F83100  4  EE 02 00 80 
   919)      7774.1  Rx     01F83100  4  EE 02 00 81 
   920)      7785.5  Rx     01F83100  4  EE 02 00 82 
   921)      7793.8  Rx     02F83202  1  00 
   922)      7796.9  Rx     01F83100  4  EE 02 00 83 
   923)      7803.5  Rx     03106300  4  05 00 01 01 
   924)      7809.0  Rx     01F83100  4  EE 02 00 84 
   925)      7820.4  Rx     01F83100  4  EE 02 00 85 
   926)      7831.8  Rx     01F83100  4  EE 02 00 86 
   927)      7843.2  Rx     01F83100  4  EE 02 00 87 
   928)      7844.2  Rx     02F83203  6  70 17 D0 01 1A 09 
   929)      7855.3  Rx     01F83100  4  EE 02 00 88 
   930)      7866.7  Rx     01F83100  4  EE 02 00 89 
   931)      7878.1  Rx     01F83100  4  EE 02 00 8A 
   932)      7890.2  Rx     01F83100  4  EE 02 00 8B 
   933)      7894.2  Rx     02F83202  1  00 
   934)      7901.6  Rx     01F83100  4  EE 02 00 8C 
   935)      7903.5  Rx     03106300  4  05 00 01 01 
   936)      7913.1  Rx     01F83100  4  EE 02 00 8D 
   937)      7924.5  Rx     01F83100  4  EE 02 00 8E 
   938)      7935.9  Rx     01F83100  4  EE 02 00 8F 
   939)      7948.0  Rx     01F83100  4  EE 02 00 90 
   940)      7959.4  Rx     01F83100  4  EE 02 00 91 
   941)      7970.8  Rx     01F83100  4  EE 02 00 92 
   942)      7982.8  Rx     01F83100  4  EE 02 00 93 
   943)      7994.3  Rx     01F83100  4  EE 02 00 94 
   944)      7994.7  Rx     02F83205  2  00 00 
   945)      7995.1  Rx     02F83202  1  00 
   946)      8003.5  Rx     03106300  4  05 00 01 01 
   947)      8005.7  Rx     01F83100  4  EE 02 00 95 
   948)      8017.1  Rx     01F83100  4  EE 02 00 96 
   949)      8028.6  Rx     01F83100  4  EE 02 00 97 
   950)      8035.1  Rx     02F83201  8  00 00 00 00 F3 14 48 48 
   951)      8040.6  Rx     01F83100  4  EE 02 00 98 
   952)      8052.0  Rx     01F83100  4  EE 02 00 99 
   953)      8063.4  Rx     01F83100  4  EE 02 00 9A 
   954)      8074.8  Rx     01F83100  4  EE 02 00 9B 
   955)      8086.9  Rx     01F83100  4  EE 02 00 9C 
   956)      8095.1  Rx     02F83202  1  00 
   957)      8098.4  Rx     01F83100  4  EE 02 00 9D 
   958)      8103.5  Rx     03106300  4  05 00 01 01 
   959)      8105.2  Rx     02FF1200  1  00 
   960)      8109.8  Rx     01F83100  4  EE 02 00 9E 
   961)      8121.2  Rx     01F83100  4  EE 02 00 9F 
   962)      8133.3  Rx     01F83100  4  EE 02 00 A0 
   963)      8144.7  Rx     01F83100  4  EE 02 00 A1 
   964)      8156.1  Rx     01F83100  4  EE 02 00 A2 
   965)      8167.5  Rx     01F83100  4  EE 02 00 A3 
   966)      8179.5  Rx     01F83100  4  EE 02 00 A4 
   967)      8191.0  Rx     01F83100  4  EE 02 00 A5 
   968)      8195.5  Rx     02F83202  1  00 
   969)      8202.4  Rx     01F83100  4  EE 02 00 A6 
   970)      8213.8  Rx     01F83100  4  EE 02 00 A7 
   971)      8225.9  Rx     01F83100  4  EE 02 00 A8 
   972)      8232.0  Tx     05116012  0  
   973)      8233.5  Rx     03106300  4  05 00 01 01 
   974)      8237.4  Rx     01F83100  4  EE 02 00 A9 
   975)      8248.8  Rx     01F83100  4  EE 02 00 AA 
   976)      8260.2  Rx     01F83100  4  EE 02 00 AB 
   977)      8272.2  Rx     01F83100  4  EE 02 00 AC 
   978)      8283.7  Rx     01F83100  4  EE 02 00 AD 
   979)      8295.0  Rx     01F83100  4  EE 02 00 AE 
   980)      8296.3  Rx     02F83200  8  64 00 00 00 EE 02 FF FF 
   981)      8296.6  Rx     02F83202  1  00 
   982)      8306.5  Rx     01F83100  4  EE 02 00 AF 
   983)      8316.3  Rx     02F83201  8  00 00 00 00 F5 14 48 48 
   984)      8318.1  Rx     01F83100  4  EE 02 00 B0 
   985)      8330.0  Rx     01F83100  4  EE 02 00 B1 
   986)      8333.5  Rx     03106300  4  05 00 01 01 
   987)      8333.8  Rx     03106303  1  09 
   988)      8341.5  Rx     01F83100  4  EE 02 00 B2 
   989)      8352.9  Rx     01F83100  4  EE 02 00 B3 
   990)      8353.3  Rx     03216400  0  
   991)      8364.9  Rx     01F83100  4  EE 02 00 B4 
   992)      8373.3  Rx     03216401  0  
   993)      8376.4  Rx     01F83100  4  EE 02 00 B5 
   994)      8387.8  Rx     01F83100  4  EE 02 00 B6 
   995)      8396.4  Rx     02F83202  1  00 
   996)      8399.2  Rx     01F83100  4  EE 02 00 B7 
   997)      8411.3  Rx     01F83100  4  EE 02 00 B8 
   998)      8422.7  Rx     01F83100  4  EE 02 00 B9 
   999)      8433.5  Rx     03106300  4  05 00 01 01 
  1000)      8434.3  Rx     01F83100  4  EE 02 00 BA 
  1001)      8445.6  Rx     01F83100  4  EE 02 00 BB 
  1002)      8457.6  Rx     01F83100  4  EE 02 00 BC 
  1003)      8469.0  Rx     01F83100  4  EE 02 00 BD 
  1004)      8480.5  Rx     01F83100  4  EE 02 00 BE 
  1005)      8491.9  Rx     01F83100  4  EE 02 00 BF 
  1006)      8496.8  Rx     02F83202  1  00 
  1007)      8503.9  Rx     01F83100  4  EE 02 00 C0 
  1008)      8513.2  Rx     05F83501  1  00 
  1009)      8515.4  Rx     01F83100  4  EE 02 00 C1 
  1010)      8526.8  Rx     01F83100  4  EE 02 00 C2 
  1011)      8533.5  Rx     03106300  4  05 00 01 01 
  1012)      8538.2  Rx     01F83100  4  EE 02 00 C3 
  1013)      8550.3  Rx     01F83100  4  EE 02 00 C4 
  1014)      8561.7  Rx     01F83100  4  EE 02 00 C5 
  1015)      8573.1  Rx     01F83100  4  EE 02 00 C6 
  1016)      8584.5  Rx     01F83100  4  EE 02 00 C7 
  1017)      8596.6  Rx     01F83100  4  EE 02 00 C8 
  1018)      8597.6  Rx     02F83201  8  00 00 00 00 F0 14 48 48 
  1019)      8597.9  Rx     02FF1200  1  00 
  1020)      8608.0  Rx     01F83100  4  EE 02 00 C9 
  1021)      8619.4  Rx     01F83100  4  EE 02 00 CA 
  1022)      8630.9  Rx     01F83100  4  EE 02 00 CB 
  1023)      8633.5  Rx     03106300  4  05 00 01 01 
  1024)      8642.9  Rx     01F83100  4  EE 02 00 CC 
  1025)      8654.4  Rx     01F83100  4  EE 02 00 CD 
  1026)      8665.8  Rx     01F83100  4  EE 02 00 CE 
  1027)      8677.2  Rx     01F83100  4  EE 02 00 CF 
  1028)      8689.2  Rx     01F83100  4  EE 02 00 D0 
  1029)      8697.7  Rx     02F83202  1  00 
  1030)      8700.7  Rx     01F83100  4  EE 02 00 D1 
  1031)      8712.1  Rx     01F83100  4  EE 02 00 D2 
  1032)      8723.5  Rx     01F83100  4  EE 02 00 D3 
  1033)      8735.6  Rx     01F83100  4  EE 02 00 D4 
  1034)      8747.0  Rx     01F83100  4  EE 02 00 D5 
  1035)      8748.1  Rx     02F83203  6  70 17 D0 01 1A 09 
  1036)      8758.4  Rx     01F83100  4  EE 02 00 D6 
  1037)      8765.7  Rx     03106300  4  05 00 01 01 
  1038)      8769.8  Rx     01F83100  4  EE 02 00 D7 
  1039)      8781.9  Rx     01F83100  4  EE 02 00 D8 
  1040)      8793.3  Rx     01F83100  4  EE 02 00 D9 
  1041)      8798.2  Rx     02F83202  1  00 
  1042)      8804.7  Rx     01F83100  4  EE 02 00 DA 
  1043)      8816.2  Rx     01F83100  4  EE 02 00 DB 
  1044)      8828.2  Rx     01F83100  4  EE 02 00 DC 
  1045)      8839.6  Rx     01F83100  4  EE 02 00 DD 
  1046)      8851.1  Rx     01F83100  4  EE 02 00 DE 
  1047)      8862.5  Rx     01F83100  4  EE 02 00 DF 
  1048)      8863.5  Rx     03106300  4  05 00 01 01 
  1049)      8874.5  Rx     01F83100  4  EE 02 00 E0 
  1050)      8878.8  Rx     02F83201  8  00 00 00 00 F3 14 48 48 
  1051)      8886.0  Rx     01F83100  4  EE 02 00 E1 
  1052)      8897.4  Rx     01F83100  4  EE 02 00 E2 
  1053)      8898.6  Rx     02F83205  2  00 00 
  1054)      8899.0  Rx     02F83202  1  00 
  1055)      8908.8  Rx     01F83100  4  EE 02 00 E3 
  1056)      8920.9  Rx     01F83100  4  EE 02 00 E4 
  1057)      8932.3  Rx     01F83100  4  EE 02 00 E5 
  1058)      8943.7  Rx     01F83100  4  EE 02 00 E6 
  1059)      8955.1  Rx     01F83100  4  EE 02 00 E7 
  1060)      8963.5  Rx     03106300  4  05 00 01 01 
  1061)      8967.2  Rx     01F83100  4  EE 02 00 E8 
  1062)      8978.6  Rx     01F83100  4  EE 02 00 E9 
  1063)      8990.0  Rx     01F83100  4  EE 02 00 EA 
  1064)      8999.0  Rx     02F83202  1  00 
  1065)      9001.5  Rx     01F83100  4  EE 02 00 EB 
  1066)      9013.5  Rx     01F83100  4  EE 02 00 EC 
  1067)      9024.9  Rx     01F83100  4  EE 02 00 ED 
  1068)      9036.4  Rx     01F83100  4  EE 02 00 EE 
  1069)      9047.8  Rx     01F83100  4  EE 02 00 EF 
  1070)      9059.8  Rx     01F83100  4  EE 02 00 F0 
  1071)      9063.5  Rx     03106300  4  05 00 01 01 
  1072)      9071.3  Rx     01F83100  4  EE 02 00 F1 
  1073)      9082.7  Rx     01F83100  4  EE 02 00 F2 
  1074)      9089.4  Rx     02FF1200  1  00 
  1075)      9094.1  Rx     01F83100  4  EE 02 00 F3 
  1076)      9099.5  Rx     02F83202  1  00 
  1077)      9106.2  Rx     01F83100  4  EE 02 00 F4 
  1078)      9117.6  Rx     01F83100  4  EE 02 00 F5 
  1079)      9129.0  Rx     01F83100  4  EE 02 00 F6 
  1080)      9140.4  Rx     01F83100  4  EE 02 00 F7 
  1081)      9152.5  Rx     01F83100  4  EE 02 00 F8 
  1082)      9160.0  Rx     02F83201  8  00 00 00 00 F3 14 48 48 
  1083)      9163.9  Rx     01F83100  4  EE 02 00 F9 
  1084)      9173.5  Rx     03106300  4  05 00 01 01 
  1085)      9175.4  Rx     01F83100  4  EE 02 00 FA 
  1086)      9186.8  Rx     01F83100  4  EE 02 00 FB 
  1087)      9198.8  Rx     01F83100  4  EE 02 00 FC 
  1088)      9200.1  Rx     02F83203  6  70 17 D0 01 1A 09 
  1089)      9200.4  Rx     02F83202  1  00 
  1090)      9204.9  Tx     05116013  0  
  1091)      9210.3  Rx     01F83100  4  EE 02 00 FD 
  1092)      9221.7  Rx     01F83100  4  EE 02 00 FE 
  1093)      9233.1  Rx     01F83100  4  EE 02 00 FF 
  1094)      9245.2  Rx     01F83100  4  EE 02 00 00 
  1095)      9256.6  Rx     01F83100  4  EE 02 00 01 
  1096)      9268.0  Rx     01F83100  4  EE 02 00 02 
  1097)      9279.4  Rx     01F83100  4  EE 02 00 03 
  1098)      9291.5  Rx     01F83100  4  EE 02 00 04 
  1099)      9293.5  Rx     03106300  4  05 00 01 01 
  1100)      9300.4  Rx     02F83202  1  00 
  1101)      9302.9  Rx     01F83100  4  EE 02 00 05 
  1102)      9314.3  Rx     01F83100  4  EE 02 00 06 
  1103)      9325.8  Rx     01F83100  4  EE 02 00 07 
  1104)      9337.8  Rx     01F83100  4  EE 02 00 08 
  1105)      9349.2  Rx     01F83100  4  EE 02 00 09 
  1106)      9360.7  Rx     01F83100  4  EE 02 00 0A 
  1107)      9372.1  Rx     01F83100  4  EE 02 00 0B 
  1108)      9384.1  Rx     01F83100  4  EE 02 00 0C 
  1109)      9393.5  Rx     03106300  4  05 00 01 01 
  1110)      9393.8  Rx     03106303  1  09 
  1111)      9395.2  Rx     01F83100  4  EE 02 00 0D 
  1112)      9400.8  Rx     02F83202  1  00 
  1113)      9407.0  Rx     01F83100  4  EE 02 00 0E 
  1114)      9418.4  Rx     01F83100  4  EE 02 00 0F 
  1115)      9429.9  Rx     01F83100  4  EE 02 00 10 
  1116)      9441.2  Rx     02F83201  8  00 00 00 00 F5 14 48 48 
  1117)      9442.1  Rx     01F83100  4  EE 02 00 11 
  1118)      9453.3  Rx     01F83100  4  EE 02 00 12 
  1119)      9464.7  Rx     01F83100  4  EE 02 00 13 
  1120)      9476.8  Rx     01F83100  4  EE 02 00 14 
  1121)      9488.2  Rx     01F83100  4  EE 02 00 15 
  1122)      9493.5  Rx     03106300  4  05 00 01 01 
  1123)      9499.7  Rx     01F83100  4  EE 02 00 16 
  1124)      9501.2  Rx     02F83205  2  00 00 
  1125)      9501.6  Rx     02F83202  1  00 
  1126)      9511.1  Rx     01F83100  4  EE 02 00 17 
  1127)      9522.5  Rx     01F83100  4  EE 02 00 18 
  1128)      9530.0  Rx     05F83501  1  00 
  1129)      9534.6  Rx     01F83100  4  EE 02 00 19 
  1130)      9546.0  Rx     01F83100  4  EE 02 00 1A 
  1131)      9557.4  Rx     01F83100  4  EE 02 00 1B 
  1132)      9568.8  Rx     01F83100  4  EE 02 00 1C 
  1133)      9580.9  Rx     01F83100  4  EE 02 00 1D 
  1134)      9581.6  Rx     02FF1200  1  00 
  1135)      9592.3  Rx     01F83100  4  EE 02 00 1E 
  1136)      9593.5  Rx     03106300  4  05 00 01 01 
  1137)      9601.6  Rx     02F83202  1  00 
  1138)      9603.8  Rx     01F83100  4  EE 02 00 1F 
  1139)      9615.2  Rx     01F83100  4  EE 02 00 20 
  1140)      9627.2  Rx     01F83100  4  EE 02 00 21 
  1141)      9638.7  Rx     01F83100  4  EE 02 00 22 
  1142)      9650.1  Rx     01F83100  4  EE 02 00 23 
  1143)      9652.1  Rx     02F83203  6  70 17 D0 01 1A 09 
  1144)      9661.5  Rx     01F83100  4  EE 02 00 24 
  1145)      9673.6  Rx     01F83100  4  EE 02 00 25 
  1146)      9685.0  Rx     01F83100  4  EE 02 00 26 
  1147)      9693.5  Rx     03106300  4  05 00 01 01 
  1148)      9696.4  Rx     01F83100  4  EE 02 00 27 
  1149)      9702.1  Rx     02F83202  1  00 
  1150)      9707.8  Rx     01F83100  4  EE 02 00 28 
  1151)      9719.9  Rx     01F83100  4  EE 02 00 29 
  1152)      9722.4  Rx     02F83201  8  00 00 00 00 F3 14 48 48 
  1153)      9731.3  Rx     01F83100  4  EE 02 00 2A 
  1154)      9742.7  Rx     01F83100  4  EE 02 00 2B 
  1155)      9754.2  Rx     01F83100  4  EE 02 00 2C 
  1156)      9766.2  Rx     01F83100  4  EE 02 00 2D 
  1157)      9777.6  Rx     01F83100  4  EE 02 00 2E 
  1158)      9789.1  Rx     01F83100  4  EE 02 00 2F 
  1159)      9800.5  Rx     01F83100  4  EE 02 00 30 
  1160)      9802.5  Rx     02F83205  2  00 00 
  1161)      9803.1  Rx     02F83200  8  64 00 00 00 EE 02 FF FF 
  1162)      9812.5  Rx     01F83100  4  EE 02 00 31 
  1163)      9823.5  Rx     03106300  4  05 00 01 01 
  1164)      9824.1  Rx     01F83100  4  EE 02 00 32 
  1165)      9835.4  Rx     01F83100  4  EE 02 00 33 
  1166)      9846.8  Rx     01F83100  4  EE 02 00 34 
  1167)      9858.9  Rx     01F83100  4  EE 02 00 35 
  1168)      9870.3  Rx     01F83100  4  EE 02 00 36 
  1169)      9881.7  Rx     01F83100  4  EE 02 00 37 
  1170)      9893.1  Rx     01F83100  4  EE 02 00 38 
  1171)      9902.9  Rx     02F83202  1  00 
  1172)      9905.2  Rx     01F83100  4  EE 02 00 39 
  1173)      9916.6  Rx     01F83100  4  EE 02 00 3A 
  1174)      9923.5  Rx     03106300  4  05 00 01 01 
  1175)      9928.0  Rx     01F83100  4  EE 02 00 3B 
  1176)      9939.4  Rx     01F83100  4  EE 02 00 3C 
  1177)      9951.5  Rx     01F83100  4  EE 02 00 3D 
  1178)      9962.9  Rx     01F83100  4  EE 02 00 3E 
  1179)      9974.3  Rx     01F83100  4  EE 02 00 3F 
  1180)      9985.7  Rx     01F83100  4  EE 02 00 40 
  1181)      9997.8  Rx     01F83100  4  EE 02 00 41 
  1182)     10003.6  Rx     02F83201  8  00 00 00 00 F7 14 48 48 
  1183)     10003.9  Rx     02F83202  1  00 
  1184)     10009.2  Rx     01F83100  4  EE 02 00 42 
  1185)     10020.6  Rx     01F83100  4  EE 02 00 43 
  1186)     10023.5  Rx     03106300  4  05 00 01 01 
  1187)     10032.1  Rx     01F83100  4  EE 02 00 44 
  1188)     10044.1  Rx     01F83100  4  EE 02 00 45 
  1189)     10055.6  Rx     01F83100  4  EE 02 00 46 
  1190)     10067.0  Rx     01F83100  4  EE 02 00 47 
  1191)     10073.7  Rx     02FF1200  1  00 
  1192)     10078.4  Rx     01F83100  4  EE 02 00 48 
  1193)     10087.8  Tx     05116201  0  
  1194)     10088.8  Rx     022A6202  0  
  1195)     10090.1  Rx     01F83100  4  EE 02 00 49 
  1196)     10101.9  Rx     01F83100  4  EE 02 00 4A 
  1197)     10104.1  Rx     02F83203  6  70 17 D0 01 1A 09 
  1198)     10104.4  Rx     02F83202  1  00 
  1199)     10113.3  Rx     01F83100  4  EE 02 00 4B 
  1200)     10123.4  Rx     03106300  4  05 00 01 01 
  1201)     10124.9  Rx     01F83100  4  EE 02 00 4C 
  1202)     10136.8  Rx     01F83100  4  EE 02 00 4D 
  1203)     10148.2  Rx     01F83100  4  EE 02 00 4E 
  1204)     10159.7  Rx     01F83100  4  EE 02 00 4F 
  1205)     10171.1  Rx     01F83100  4  EE 02 00 50 
  1206)     10183.1  Rx     01F83100  4  EE 02 00 51 
  1207)     10194.6  Rx     01F83100  4  EE 02 00 52 
  1208)     10204.3  Rx     02F83202  1  00 
  1209)     10206.1  Rx     01F83100  4  EE 02 00 53 
  1210)     10217.4  Rx     01F83100  4  EE 02 00 54 
  1211)     10229.5  Rx     01F83100  4  EE 02 00 55 
  1212)     10241.0  Rx     01F83100  4  EE 02 00 56 
  1213)     10252.4  Rx     01F83100  4  EE 02 00 57 
  1214)     10253.4  Rx     03106300  4  05 00 01 01 
  1215)     10263.9  Rx     01F83100  4  EE 02 00 58 
  1216)     10275.3  Rx     01F83100  4  EE 02 00 59 
  1217)     10284.9  Rx     02F83201  8  00 00 5D 00 E4 14 48 48 
  1218)     10287.4  Rx     01F83100  4  EE 02 00 5A 
  1219)     10298.9  Rx     01F83100  4  EE 02 00 5B 
  1220)     10304.7  Rx     02F83202  1  00 
  1221)     10310.4  Rx     01F83100  4  EE 02 00 5C 
  1222)     10321.8  Rx     01F83100  4  EE 02 00 5D 
  1223)     10333.3  Rx     01F83100  4  EE 02 00 5E 
  1224)     10345.4  Rx     01F83100  4  EE 02 00 5F 
  1225)     10353.4  Rx     03106300  4  05 00 01 01 
  1226)     10356.9  Rx     01F83100  4  EE 02 00 60 
  1227)     10368.3  Rx     01F83100  4  EE 02 00 61 
  1228)     10379.7  Rx     01F83100  4  EE 02 00 62 
  1229)     10391.2  Rx     01F83100  4  EE 02 00 63 
  1230)     10403.3  Rx     01F83100  4  EE 02 00 64 
  1231)     10405.2  Rx     02F83205  2  00 00 
  1232)     10405.5  Rx     02F83202  1  00 
  1233)     10414.8  Rx     01F83100  4  EE 02 00 65 
  1234)     10426.2  Rx     01F83100  4  EE 02 00 66 
  1235)     10437.7  Rx     01F83100  4  EE 02 00 67 
  1236)     10449.1  Rx     01F83100  4  EE 02 00 68 
  1237)     10453.5  Rx     03106300  4  05 00 01 01 
  1238)     10453.8  Rx     03106303  1  09 
  1239)     10460.6  Rx     01F83100  4  EE 02 00 69 
  1240)     10472.7  Rx     01F83100  4  EE 02 00 6A 
  1241)     10484.2  Rx     01F83100  4  EE 02 00 6B 
  1242)     10495.6  Rx     01F83100  4  EE 02 00 6C 
  1243)     10505.6  Rx     02F83202  1  00 
  1244)     10507.2  Rx     01F83100  4  EE 02 00 6D 
  1245)     10518.5  Rx     01F83100  4  EE 02 00 6E 
  1246)     10530.6  Rx     01F83100  4  EE 02 00 6F 
  1247)     10542.1  Rx     01F83100  4  EE 02 00 70 
  1248)     10546.7  Rx     05F83501  1  00 
  1249)     10553.5  Rx     03106300  4  05 00 01 01 
  1250)     10553.9  Rx     01F83100  4  EE 02 00 71 
  1251)     10556.0  Rx     02F83203  6  70 17 D0 01 1A 09 
  1252)     10565.0  Rx     01F83100  4  EE 02 00 72 
  1253)     10565.9  Rx     02FF1200  1  00 
  1254)     10566.4  Rx     02F83201  8  00 00 68 00 E2 14 48 48 
  1255)     10576.5  Rx     01F83100  4  EE 02 00 73 
  1256)     10588.6  Rx     01F83100  4  EE 02 00 74 
  1257)     10600.1  Rx     01F83100  4  EE 02 00 75 
  1258)     10606.1  Rx     02F83202  1  00 
  1259)     10611.5  Rx     01F83100  4  EE 02 00 76 
  1260)     10623.0  Rx     01F83100  4  EE 02 00 77 
  1261)     10634.4  Rx     01F83100  4  EE 02 00 78 
  1262)     10645.9  Rx     01F83100  4  EE 02 00 79 
  1263)     10653.5  Rx     03106300  4  05 00 01 01 
  1264)     10657.9  Rx     01F83100  4  EE 02 00 7A 
  1265)     10669.4  Rx     01F83100  4  EE 02 00 7B 
  1266)     10680.9  Rx     01F83100  4  EE 02 00 7C 
  1267)     10692.3  Rx     01F83100  4  EE 02 00 7D 
  1268)     10703.8  Rx     01F83100  4  EE 02 00 7E 
  1269)     10706.5  Rx     02F83205  2  00 00 
  1270)     10706.8  Rx     02F83202  1  00 
  1271)     10715.9  Rx     01F83100  4  EE 02 00 7F 
  1272)     10727.3  Rx     01F83100  4  EE 02 00 80 
  1273)     10738.8  Rx     01F83100  4  EE 02 00 81 
  1274)     10750.2  Rx     01F83100  4  EE 02 00 82 
  1275)     10761.7  Rx     01F83100  4  EE 02 00 83 
  1276)     10773.8  Rx     01F83100  4  EE 02 00 84 
  1277)     10783.5  Rx     03106300  4  05 00 01 01 
  1278)     10785.3  Rx     01F83100  4  EE 02 00 85 
  1279)     10796.7  Rx     01F83100  4  EE 02 00 86 
  1280)     10806.9  Rx     02F83202  1  00 
  1281)     10808.3  Rx     01F83100  4  EE 02 00 87 
  1282)     10819.6  Rx     01F83100  4  EE 02 00 88 
